# GHz S RI R 50.0 
!freq ReS11 ImS11 ReS21 ImS21 ReS12 ImS12 ReS22 ImS22
1.0 0.18428674014636154 -0.338421662746219 0.3089400874130059 0.6236202698425081 0.5631131812344659 0.19868426398122221 0.3183797906662662 -0.2608634226448696
1.25 -0.19046648303159064 0.16988369413641968 -0.13773061202674436 -0.7483397494036762 -0.5560762844469989 -0.2624948395821304 0.11693158638841825 0.1778427881310603
1.5 0.19829637889929255 0.15562874987674485 0.04622862115596438 0.6677253611079675 0.4768995480319187 0.2322027713344803 -0.2115640263579903 -0.24706245567241297
1.75 -0.0007072681105607659 -0.09694347434763906 0.026485377881985638 -0.544618832498455 -0.39197272446719966 -0.17459095763474408 0.09811132208467155 -0.01832541887879302
2.0 -0.004216800386472844 -0.03948151967195082 -0.16644464804268957 0.4433106744452726 0.29262725796733335 0.20108638747364763 0.09261709008727396 -0.045961606494448415
2.25 0.1417472584078326 0.16058686078580456 0.21131946535301596 -0.3388238343546837 -0.24087184573846537 -0.19195901143207825 0.19757680681547118 -0.019754968681120477
2.5 0.13582060624144093 0.10712394922477857 -0.32924035462245976 -0.3445072444743645 -0.48078784964675847 -0.15766925938439078 -0.1438871398322237 -0.0564075253122478
2.75 -0.22131051298900717 -0.25917966241624585 -0.12534305674037427 0.5951950265208621 0.5501360142478043 0.04959279245965609 0.15812287092391994 0.16651405977679512
3.0 -0.04585414648553299 0.4730160098951883 0.6512642917179852 -0.2309989994819538 -0.5149670339707503 0.25966896798547495 -0.1838218853758701 -0.30776064479970533
3.25 0.25673931401470357 -0.20970403999502762 -0.5560566503650022 -0.6245015379559696 0.5737207119807353 -0.35866244254606044 0.12233795526502189 0.1816176853761684
3.5 -0.31737056033618216 0.14823658204370596 -0.17527676113400692 0.8937723270861951 -0.49659864888959704 0.4725769816899161 0.014351420254261116 -0.2606865309436883
3.75 0.37957270291638584 0.11610974343096633 0.8231492308686468 0.03961924368519831 0.47960159629676186 -0.4733591599761375 -0.17818763685408706 0.29246117915166364
4.0 -0.2228758651889251 -0.18847681874725877 -0.36295109581290796 -0.6292704107348305 -0.3319472909312024 0.5170839564230093 0.08953514249574313 -0.26252801935972125
4.25 -0.11299335019377137 0.2859705381132409 -0.5033497752460914 0.4850929979225994 0.3430200051810455 -0.5732935288618871 -0.2714716268875627 -0.03309526741355728
4.5 0.19108896648428358 -0.2561593801754593 0.6353606705913664 0.31311085649414117 -0.17469836982718367 0.6830963385464928 0.2732640161181436 -0.07704968907291315
4.75 -0.24231427353171392 -0.04852318194199573 0.04083501647415588 -0.6832496873674979 0.23904040189002854 -0.6394460473527029 -0.28994684425857464 -0.05856139500732661
5.0 0.1575822091284615 0.313488389760582 -0.688423633159355 0.09211254963488558 -0.27284682140062944 0.6794472872281787 0.16770614442289328 0.2542738954350117
5.25 -0.06933293211378222 -0.2744611221743341 0.420614493182489 0.5411632376021466 0.3024531135434593 -0.6703191738792086 -0.09582229125948244 -0.24341986960821838
5.5 -0.22421922926256932 0.1555607034048463 0.41938573773502696 -0.4437223025800323 -0.2839474216922792 0.6463471583604533 -0.08478314026320032 0.40516107821768704
5.75 0.27626498723046067 0.05224545810380797 -0.4684962667727902 -0.24195941308774005 0.28872785396516354 -0.5650046572076304 0.1989087363900514 -0.21143194269598897
6.0 -0.15485336926468551 -0.1230641797993241 -0.06992086924549418 0.5650972077440441 -0.30362362980237567 0.5785841768267072 -0.19754548807744057 -0.05181547216402643
6.25 -0.03319658022064663 0.28692222927890404 0.5375179299571652 0.07737060297572773 0.4504707736685313 -0.4011949471189522 0.308884952696308 0.2589216792135457
6.5 0.06984091501505658 -0.026266235008818972 -0.2257405104408282 -0.5367300124216898 -0.2908316943707219 0.4991424188090153 -0.14052433840080497 0.007439907593441708
6.75 -0.31985077387103267 -0.031346018100993835 -0.5117980486817107 0.16579018781612365 0.42666467961056953 -0.32036294519513053 -0.1694327518710543 0.25644566789321926
7.0 0.21846548426713946 0.12328243835173477 0.3676391803397383 0.3384768225566258 -0.255694117061527 0.42183687394043234 0.1644711201197058 -0.22416877632982962
7.25 0.08885874045484402 -0.024892379292907302 0.2716823371441942 -0.41699496397362246 0.3083138250940267 -0.3705998285572854 0.04665342911824673 0.07185030865248224
7.5 -0.3648307345622798 0.28325276265120813 -0.35448266020434205 -0.20061492277420234 -0.29560103727746745 0.26751020094820904 0.3910598611944871 0.11043632723927799
7.75 0.010471469752632578 -0.029425025857693632 -0.05825718078113429 0.4682333728677893 0.3087451622591164 -0.32555959647193217 -0.09297335797580403 -0.11326791008698964
8.0 -0.045529087732041326 -0.2663855394775022 0.42695406839334815 0.0024592945907170316 -0.3317828462542636 0.2261856047218126 0.06698587650181737 0.16334567309271192
8.25 -0.03513771604963543 0.3228439593460458 -0.15386674404068662 -0.3574724339416799 0.27268015056377 -0.23203807727075762 0.0791786788512914 -0.23902855057553699
8.5 0.049029365185416195 0.012838823405269761 -0.3722841501604529 0.14433299277773004 -0.3433016431777418 0.16766741834994678 -0.14506484411880946 0.03702682450933753
8.75 -0.21481111403081102 -0.08038140991692967 0.2277905280809729 0.23021778011323124 0.2899324608802165 -0.15278956677072753 0.18227093219928098 -0.13401436173035292
9.0 0.04672010098721119 0.1373078019381948 0.18214655904523377 -0.2661080370946499 -0.29669891461781284 0.14450514467217632 -0.03810095344193576 -0.12219628203221361
9.25 0.08786044415680289 -0.10590221993574023 -0.2688251043643466 -0.11452388738669822 0.28775031736498735 -0.07698917203040934 0.13125245885438108 0.20811628433700985
9.5 -0.08659423776474687 0.027857688274585193 -0.04627291549103962 0.32138001492806356 -0.29928524430795683 0.09155553765609852 -0.04349562094106996 -0.006478875071890294
9.75 0.09712537339320518 0.07363012605935039 0.2863584519319078 -0.018362956895854987 0.27993558853892486 -0.05461968580100235 -0.13631328083337615 0.08558044419012652
10.0 0.028642822329254164 -0.13196439755303907 -0.08724638012833424 -0.24560758226383292 -0.2565147019412335 -0.038035906927958774 0.11663528437485013 -0.09857136505967323
10.25 0.022063864166183188 0.050276990441718766 -0.2493184244739044 0.1157655068225043 0.25857135233461237 -0.07328003819083112 -0.025847640794471674 -0.05584270825618267
10.5 0.06692111555739733 0.16100721229447976 0.14989902509675546 0.18000503259172304 -0.245508537725736 -0.02478971574024709 0.1375725146994603 -0.011279943263456903
10.75 -0.057034486638471604 0.0028875625398016302 0.16257425096405628 -0.1813967315721615 0.2573890012317207 0.0222896515070417 0.04027593546936144 -0.048429095305976465
11.0 -0.032306592824816224 0.02861046264407821 -0.20373659638646466 -0.1488560295599184 -0.2584295786513809 0.008361780929318448 0.04242115018127836 0.12125415143539112
11.25 0.08764821840804611 0.08326162105271549 -0.09568137393989587 0.22810624834872306 0.25236647738293566 0.014178026914493578 -0.025061788896936762 0.04242646255946811
11.5 0.0023955472344394796 0.10095187301636248 0.242959975595436 0.01871951440954625 -0.2544733820727735 -0.03398527536196559 -0.020342720358111757 -0.07251893022842144
11.75 -0.06550338522662019 0.057080354792079124 -0.0673999092295878 -0.22147950060270166 0.2402175136664501 0.060784260334859445 0.11394541035989507 -0.09623826199415195
12.0 -0.07894237489551144 0.035733630253490606 -0.19687201046013664 0.06589167434163451 -0.2024187083584419 -0.09937086440401677 0.16373679237578634 0.0706998093329961
12.25 -0.054344985475895655 0.015618825051323174 0.05892167128335041 0.19215786158726217 0.18741014534213196 0.13212475691213799 -0.013186437510161436 0.0652766317963415
12.5 -0.08031899402475554 -0.0373859108939244 0.16252903585020553 -0.1187322363908325 -0.15757010938170365 -0.15382397006878376 -0.04150969194144388 -0.0019076799138532663
12.75 -0.010408510965460471 0.08293792598678223 -0.16079712062757365 -0.0858972215258505 0.17043164758951954 0.11099459352787364 0.1343792060293404 -0.07636242998885338
13.0 -0.008942004735920727 0.06838497668578139 -0.05960072741019294 0.18102012150530972 -0.16842853967997917 -0.12926300129674584 0.058933138345543715 0.03387697958927985
13.25 -0.19478871818710847 -0.04911502316301261 0.1493398912887941 0.06945736144961047 0.07275424165049496 0.15894624393894946 0.054220044935495676 0.08786910408565846
13.5 -0.03061301295169669 -0.029003432171650783 0.08858072453395494 -0.1614640467791058 -0.03322458419320219 -0.19382941957838223 0.036685890347273764 -0.08244949223047625
13.75 0.07408950070333556 -0.08521574838648165 -0.17253535429349764 0.002704557220122805 0.11366203726066897 0.15063426204662442 0.004131933597016864 0.06580362738056132
14.0 -0.08250295398371241 0.0913609641188839 0.043558035018652436 0.14912108275514557 -0.0968047741405316 -0.12823337137625818 0.058504096795203735 -0.05352622125914398
14.25 -0.03641418962862737 0.07286949011097157 0.18021472980969028 -0.04682085338043909 0.07297467274919069 0.15687526738557073 -0.056172222314243486 -0.04263687248626398
14.5 -0.05162341080748486 -0.09793557083344309 -0.0889348068597795 -0.1347874171082374 -0.03701985038222315 -0.1553758399505717 0.09558632245842132 0.08020890896086814
14.75 -0.05699641632909016 0.016519391115728616 -0.12574481317978875 0.10461319698944738 0.005173513951902485 0.1632093765807312 -0.018196160056004412 -0.006127106780124625
15.0 0.08768901835705714 0.043735520349282825 0.1450241472110984 0.08003403443264723 -0.015118717067878328 -0.1613988204599949 -0.09585288731576819 0.08429520236255093
15.25 -0.013547041409716867 0.027913906784629287 0.049226936689041184 -0.152280912782299 -0.0003261747111822748 0.15193697240697893 -0.004162239010068611 -0.06092129374366692
15.5 -0.07157508697906076 0.12480992190910566 -0.16308704257169232 -0.025707769274382924 0.038615178334496396 -0.1537354991340788 -0.07656370782052173 0.03335103970316631
15.75 0.0109036747340258 -0.020122289231939997 -0.003403688567091112 0.17599726808550245 -0.014163809259926628 0.15531942042275063 0.0261241891376775 0.08291680611454194
16.0 -0.02154034563982562 -0.02606206209098688 0.16214882119243426 -0.026010145052907274 0.0799938263599416 -0.12319677483729469 -0.03053666497861423 -0.002637861038211148
16.25 -0.020390774502296732 0.10705268062155326 -0.07259349931306422 -0.14532909561162113 -0.07101040224578266 0.12092033001349987 0.042596251480290157 0.1417191176876479
16.5 0.0008624880102971744 -0.0002257170192793423 -0.11122534044597225 0.09252154655338932 0.06943542222688232 -0.10516491625647417 0.050690608058399415 0.08950457029881616
16.75 -0.09017533599539589 0.021702202566879457 0.07582150833539132 0.13523143753184205 -0.08109784347668639 0.1077942541749555 -0.09036284200506792 0.05358585502475529
17.0 -0.032456985739774444 0.044358622584314264 0.10339635056621697 -0.1209791098592197 0.08546830501706401 -0.10506816209089015 0.049957952761680996 -0.0003764225709163918
17.25 -0.01940120956719836 -0.08250941967256792 -0.12428041817984413 -0.04883857207083117 -0.08998111403796147 0.0650275986349493 0.03592184449010673 -0.03302239019491298
17.5 -0.01176405964513997 0.023861679221393164 0.003293568550768969 0.15354298086459223 0.0903123546435182 -0.08654031376099504 0.04666161749289189 0.06307305389709156
17.75 0.0076636660042112455 0.05208970551543432 0.1309666210860125 -0.034672926051134006 -0.06938418830183785 0.09412619538986931 0.020794505498499524 -0.03354447119736324
18.0 -0.09527491085625475 -0.08671506035753829 -0.019276615347774168 -0.11089529074247048 0.0840297241043047 -0.04842495715737041 0.009644930056917838 0.05362731305671195
18.25 -0.02774984303141155 -0.06089108318449278 -0.12683766328770574 0.05527205058792353 -0.10618274854167896 0.05867535242921757 0.06391133852476702 0.09898240658805957
18.5 0.07252304245769217 -0.059090309156534744 0.09191497252213268 0.06398242383816709 0.08009177834578192 -0.053625682918162505 -0.0681648955801018 0.07187141254057765
18.75 -0.0574531701457395 -0.04438073966114772 0.06679961798950342 -0.09409031914696843 -0.10348470368365842 0.026861340087578275 0.044600619432334815 0.05633400615348384
19.0 -0.04065615191002031 -0.00989699944594951 -0.12852571127650658 -0.03837416313041629 0.10636092120352914 -0.040607670863377965 0.058791196360141275 -0.07077524247644597
19.25 -0.006597688136550317 -0.13124644388431875 -0.012334666132086267 0.10099023213145145 -0.08740246193626973 0.016046158826220208 0.03295017147644838 0.039139250480450125
19.5 -0.04538573167903008 -0.08177804167640139 0.1267688090774422 0.006562069928306588 0.11115233556820993 0.004533436689558386 0.1272009951762722 -0.017270541826730677
19.75 0.06378126645450075 0.05665078231297756 -0.047232754158130885 -0.11130038104315412 -0.10519803790667352 0.006342450530645849 0.018229060822159235 -0.04369806737746933
20.0 0.0035901071128624923 -0.05699314595487705 -0.10026541945916806 0.04623172102440008 0.07628553823815826 0.05885686995076675 0.07375591698772499 0.1024516458996136
20.25 -0.05081843294517519 -0.09097650006672484 0.06406085873064998 0.1073071298312041 -0.10882390583143928 0.027335538638183 -0.0769295057744148 0.03369330964611307
20.5 0.11785113212756632 0.021989613583359435 0.07271186147975026 -0.061521833730314834 0.07665261749005571 -0.014159249842100857 -0.06152702041725498 0.04600761817283712
20.75 0.04573075184878793 0.004334433122892823 -0.07564842066658836 -0.0945342503501578 -0.10106990157679913 -0.034667642895353706 0.012640033467447867 -0.1070092718497938
21.0 -0.07148755984291053 0.004552622914777392 -0.013287599666705403 0.09779881791039037 0.08077467162831324 0.04206895503654276 0.020565027459232825 0.04201153255868931
21.25 0.030812811212127478 0.06997597151044269 0.08498312279726541 0.026296818300513863 -0.04695399657156912 -0.05955597204761119 0.09223308350358697 0.036372990322073
21.5 -0.024505678769105404 0.018898170818174055 0.00949087535543297 -0.11286763949395802 0.08070437673501452 0.058170629139173174 -0.0012977586330345098 -0.0402587570096898
21.75 -0.08399280065740662 0.024886798766935617 -0.08835124637845558 0.009693072416297022 -0.07717175010901942 -0.023901694124562063 0.10152631569979714 0.021657376109230318
22.0 0.03868686116934847 0.009393964579369685 1.2108968315521773e-05 0.1047232010205893 0.06906928136695072 0.054419690070786474 0.06745093498432525 0.012972342023979143
22.25 0.00735087015337231 0.05794380035385553 0.09835301049247518 -0.04454664052597353 -0.0749489877524191 -0.05232778318793565 -0.04962500126003849 0.04603589165819229
22.5 -0.07193364806096206 0.09022468358040178 -0.044088627410462836 -0.07931548965457488 0.06045169925218338 0.04953958558911276 0.019504409925952447 -0.04985489078023607
22.75 -0.04254135804313798 0.0073563012758171425 -0.08011275217591934 0.06093827557213069 -0.06389960405291029 -0.06449578235168754 0.03859253014108166 -0.0360183745064257
23.0 -0.004514062821741743 -0.0036630735175793207 0.08813442794511711 0.04429592842025028 0.06008710887766709 0.0663373276514154 0.016511775203166344 0.008799591835872915
23.25 0.013311367146153108 0.06679617806020031 0.018732721354853224 -0.0941106932609224 -0.03710067065122179 -0.07037224045904619 -0.005165730478912816 -0.07294536013714557
23.5 -0.02330104832570943 0.061053182286733516 -0.09525192825815207 0.01899467446075416 0.0371360376330148 0.07315184539953036 0.055520664532169514 -0.08510766083445385
23.75 -0.026197801910841544 0.01253083318901807 0.03581791541561666 0.09568838323353246 -0.03774697135507473 -0.07933464367606506 0.07711788881070179 0.010901093373473933
24.0 -0.026310810069537297 -0.0036770255777900974 0.09291776643394967 -0.03894065101737443 0.022820969210430073 0.08133401261038516 -0.019341144951988506 0.05038129669469568
24.25 -0.018405703628861205 0.028430491681954887 -0.03429432802572524 -0.0931786046785732 -0.003505124358167685 -0.08461358128748947 -0.1076412381153046 -0.08037924946955097
24.5 0.0005094856408047049 -0.02535360663773409 -0.09720524925945166 0.041607058001700586 0.011194292202433452 0.0862259405393917 -0.017576681323580506 -0.06691242158728371
24.75 -0.05756033152677141 -0.02718793680989002 0.04958721906759449 0.07831014564989408 0.006143883550792549 -0.07660215092649394 0.07251388780190782 -0.08477414784849598
25.0 0.021688738426435768 -0.013235713374155734 0.04643851800847743 -0.09353348290102376 -0.01344002267679949 0.08673574825106362 0.014599973535011301 -0.0005335955172988821
25.25 -0.016621353639070847 -0.07109166299904768 -0.09348162183031589 0.003005939524456519 -0.00047573375246647356 -0.07704487808161076 0.10321091542810229 0.05193452870151845
25.5 -0.005192659848079387 0.027054519070638897 0.038681973238402195 0.09136015875359342 0.020511208873751317 0.08157097061199531 -0.006038427706839197 0.02984608658423536
25.75 0.0009926609945525577 -0.020338399683634 0.06494044788743672 -0.07143191828023046 -0.03380742395950989 -0.0708137710166968 -0.013327100587224356 0.06268688447394487
26.0 -0.039497066626509106 -0.07150329468899103 -0.05189850431835 -0.061178178345762585 0.008559144813205057 0.06751552000757972 -0.05702514267223402 -0.09182156040957272
26.25 0.04120739103738032 -0.005258489702701527 -0.0800877516813206 0.06017258841192771 0.02487169267975132 -0.0769821568717196 0.010133041850540099 -0.10748083171730402
26.5 0.05920612068177797 -0.013159352667226256 0.04911631741969105 0.07926616865838221 -0.046323438425811714 0.06089653195889781 0.11098891629659094 -0.0005164625173841864
26.75 0.014554411791214354 -0.0311841574412239 0.08517627010518136 -0.031068744482867797 0.0639508057690378 -0.040612274039733616 0.011274779600023044 -0.02321606888601218
27.0 0.0422371331753605 0.05283400805896438 -0.056096505042371944 -0.06626403427599713 -0.06230329886226926 0.04110839113728124 -0.0041277088893653825 0.009625380351751655
27.25 0.015837861994159583 0.016612021551636567 -0.0317886996652726 0.07851348164077042 0.04247249999509161 -0.05559137454251656 0.02709758649509401 -0.013899374178075555
27.5 -0.037632290217799645 -0.005520275091832533 0.09317026965714995 0.006446753093927601 -0.023147331378794184 0.07114612152337546 -0.05547029332267077 0.04249264113859766
27.75 0.08126881914981057 -0.033271839440004634 -0.01827731658904315 -0.08796110782024141 0.008789618726065235 -0.07127180810555057 -0.0299985110652721 -0.01834079174798319
28.0 0.06055975558200979 0.021152545114057772 -0.07906037467779811 0.05106599179893663 -0.010715858562726244 0.07350734421347087 -0.037087928603532626 -0.07147218589398159
28.25 -0.0038691212752013163 0.10515990490331728 0.06693334135966728 0.04846233975034295 0.006814919128704739 -0.06771603182050495 0.07245375295145348 -0.03797871862031389
28.5 -0.04377702146610506 0.005722580327448226 0.0621477851168622 -0.05448770722907892 -0.025016258946919313 0.06411659773495744 0.06403330482473765 -0.015590684948481662
28.75 -0.013770162000821762 -0.014476740360514119 -0.06553679829275041 -0.056620839139073474 0.04634200192911088 -0.05836220318246248 0.002916217085057529 0.03807272360408157
29.0 0.043889794093460555 0.06017452466569108 -0.03704659806702296 0.07933950070054915 -0.05594883745710078 0.04648497787432262 0.00010035232899861541 -0.01968970627113186
29.25 -0.003456179134452911 0.06679091809441712 0.09001819906472136 0.010561994655076429 0.062134889598842245 -0.04453883585542428 -0.026157380160865544 -0.043075107262300884
29.5 -0.07698551989306829 0.07505090029152994 -0.02386418664703141 -0.07968581123238216 -0.05057518987602016 0.046536770851244066 0.002089741159357981 -0.03173191718522217
29.75 -0.02308731221908096 0.052113049232781525 -0.06868425444109907 0.03209994460836088 0.0495093392774551 -0.03581361354150627 -0.024258862083767117 -0.06566460449683337
30.0 -0.01105425550249491 -0.0007243372892761293 0.062496863656022736 0.05555706513137704 -0.05178460435676367 0.04688667268914513 0.010607906364845324 -0.011530108093650293
