# GHz S RI R 50.0 
!freq ReS11 ImS11 ReS21 ImS21 ReS12 ImS12 ReS22 ImS22
1.0 0.07055016295744475 -0.2238763347260912 2.3600047358905156e-06 -1.3157632318267655e-05 4.8105205282451236e-06 2.571467845313671e-06 0.1806790720728872 -0.1615893224938294
1.25 0.003060428594585801 0.15456721210847835 8.485259458194984e-06 -3.3489441261651253e-06 2.922406349893465e-07 -6.73021949711771e-06 0.11597519759888736 0.05069745855179622
1.5 0.058952078109846935 0.0138741059417897 -2.0127647670397168e-05 -8.291538160921424e-06 -1.453098005583039e-06 2.0797195556375415e-05 -0.09149772801453078 -0.07212812454441087
1.75 -0.055243657568866386 0.013900077678751104 1.5276749278916274e-05 1.7243208397441892e-05 3.5618737745969783e-06 -4.133601720906089e-06 -0.04557385808654015 -0.09414611950799703
2.0 0.08884008021169428 -0.06085679628679702 -3.415644058499987e-06 -8.625116139885364e-06 -1.2931198964080189e-06 4.6819806023260865e-06 0.1892312066890835 -0.08840025746713646
2.25 0.03838057569352329 0.07975076360992922 1.846358039646389e-05 2.880017076348746e-05 6.973412997324125e-06 3.98526189097465e-06 0.10934696450247602 0.12110185871688507
2.5 -0.05322555896699508 0.06448102904776894 2.9524779814528066e-07 -1.6800171561771688e-06 -1.504696995655144e-06 -3.88678700991262e-06 0.03562534770267059 -0.016389138347957202
2.75 -0.03941284357586524 0.016219152842748705 -2.3379444795789763e-05 -3.0078012920245876e-05 -1.5067405458522432e-05 1.673638943250416e-05 -0.002681225218638006 -0.04424743544342499
3.0 -0.022923373110959117 0.04836360668906944 1.5186669800209644e-05 3.419783117211177e-05 -7.900587254826238e-06 -3.089902486203e-05 0.005473842745906902 -0.07591439412446553
3.25 0.05948623028870183 0.08917811319290873 2.3011090706004794e-05 -7.63298858485519e-06 -7.390974343401689e-06 1.4555798874028756e-05 -0.015118998793348087 -0.006375001334074065
3.5 0.04661706592522575 0.011966412799905846 -2.9991442075198396e-05 -4.748325946487265e-05 3.9172570928200604e-07 -2.0830618312140548e-05 0.04932460574179072 0.06533010601653443
3.75 -0.0014809546345162794 0.11571610003396267 -1.9224750025710183e-05 7.2575421385740255e-06 8.573437709487508e-06 2.4921802390634334e-05 -0.12234289590115772 -0.022403164431574862
4.0 0.017134778026814068 0.1020308586591447 4.407676305492206e-05 -2.599850352303822e-06 -1.2354093587509803e-05 -3.3843686958913495e-05 -0.10891180963747217 0.011404601819413211
4.25 -0.10693554782941087 -0.0594782804357447 2.025879023558391e-05 -3.063528297254523e-05 1.6550958392390747e-05 1.4527720550405893e-05 0.020214183490239915 -0.16220017122615818
4.5 -0.021912276941940437 -0.0012721420320215282 -2.4079349249760867e-05 4.099730662349045e-05 -1.2547993702915763e-05 -6.505483021649707e-06 -0.06309013004979729 -0.0037558503573702218
4.75 0.09954680646721559 0.09897929227750239 1.9290350917027617e-05 1.8014307678933642e-05 4.046641314872758e-06 2.635689918970489e-05 0.033726225010732275 0.14810356061564162
5.0 -0.09512232200182318 0.0746519647888132 1.079364220073679e-05 -2.376161478814492e-05 -3.814570741016147e-05 -9.202634974096887e-06 -0.09416292107784982 0.04496109094188065
5.25 -0.16095319323583795 0.039694814101558416 -1.955080816865731e-05 -1.1593460962164641e-05 2.0726856476478726e-05 -1.6600761256817434e-05 -0.07517723573725557 0.14455282920907636
5.5 0.002368302259802335 -0.028853838928532487 -1.2481314516660274e-05 1.6121784247075508e-05 5.692230110677875e-06 -2.2267750814455634e-05 0.007295686588395911 0.017081517547966274
5.75 -0.04043412847411318 0.030980174573112338 2.404561588147694e-05 -1.1514978837180416e-06 -2.6606371118249424e-06 2.545966684918516e-05 -0.0931574611194819 0.006539049935439932
6.0 -0.04407392058782082 0.0997889772764201 -2.015546254149577e-05 -2.0206925502007632e-05 -5.433361909551895e-06 -4.2775582924726755e-05 0.11555999175806338 0.00820252899683768
6.25 -0.02592645079978501 0.017317611796209317 -9.223238820242495e-06 1.0257881588819056e-05 -1.3020802175656117e-05 3.792420308660656e-05 0.03900815136799797 0.06884346170459195
6.5 -0.14864865199850114 0.07002614012709539 2.6046915433376287e-05 4.512654095612298e-06 -2.660719670669678e-05 -1.7263432480346403e-05 -0.032712927436066484 0.2661429116877678
6.75 -0.05432064830342909 0.021703123225430776 2.5596584942720187e-05 6.760051457403914e-06 6.637801472174724e-06 1.9462230356485126e-05 -0.03712558998719974 0.015308471961018755
7.0 0.05706789294800278 -0.08093816592851033 -2.2659311845478464e-05 1.915271631472948e-05 -1.4241875377779745e-05 -4.474205307689226e-05 -0.03554030609637771 -0.06337970726893116
7.25 -0.020980717807090515 0.1352000106460482 1.6712437025113816e-05 2.04503890861291e-05 -1.9188255794325144e-06 1.4362674859442034e-05 0.23483001300404688 0.09705773318035679
7.5 -0.12473939722975116 0.18779185541862678 -1.436192494818546e-05 -1.627581165358109e-05 -4.961368887425549e-05 -1.6974860311257564e-05 0.18024775700306145 0.030665434674401096
7.75 -0.14454636756825628 -0.10720916557156082 -8.880645688624737e-06 3.102836559741115e-05 3.279988568390067e-05 -2.445321398105272e-05 -0.013000665404027834 0.082872966933871
8.0 -0.01058849085426658 -0.05262224638786377 2.853407863550043e-05 -2.7673804816873123e-05 -1.6110319736732465e-05 2.6478372495486106e-05 0.08226333179056475 -0.039123516576051995
8.25 0.09174519697347332 0.14989841472785512 -1.9281042726538416e-05 8.634011699102023e-06 -3.26411314743836e-06 -5.496655082192213e-06 -0.029581632752973694 -0.09580332585975661
8.5 -0.07980251041828236 0.04205026705109345 -1.0806547592834827e-05 1.8901971486820372e-05 -1.599764421090063e-05 -1.2733090873484607e-06 -0.015873036471439 -0.008739829372313115
8.75 -0.10528310405950723 0.004108989229537646 -4.780501816527102e-07 -1.632455989930261e-05 -7.053316069235029e-06 -1.814855336023576e-05 0.007342484346148148 -0.15352999138240891
9.0 0.058820467700722315 0.014363924139755025 4.628639108950721e-06 -8.343141685827451e-06 -3.935046830596555e-06 -1.869621266216276e-06 0.03653454891608267 -0.019124624646514515
9.25 -0.00415565772632303 0.007922637871900836 -1.916546444070321e-05 -1.8128518557829204e-05 1.1930749670797116e-05 1.673829716531847e-06 0.09504455048714455 0.11797555305069349
9.5 -0.025867650392563855 0.059571717269008506 -9.03171162380574e-06 3.962964033530739e-05 -4.7844955200405776e-05 5.5162026558246075e-06 -0.07924458079833493 0.07236044827425622
9.75 0.04580439208645416 0.018028502455316293 2.2853254303696522e-05 -7.214212832994144e-06 2.4061049460005873e-05 -2.2434039738634854e-05 -0.06949812588966617 0.024489713003541032
10.0 0.0021969880264240474 -0.04109828960638526 -1.9004430514458274e-05 -3.565798982811101e-05 -5.5914063461201775e-05 -4.5711951829980065e-06 0.051964644515939615 -0.089594527241725
10.25 0.04088637596314426 0.03333789453394814 -4.037872137201828e-05 3.761123382686671e-05 3.512868923867977e-05 -2.1314625258043745e-05 0.0016818008642867435 -0.014404648434354725
10.5 0.049848842323500675 0.11096742175631083 4.806877370017028e-05 1.2907413957167037e-05 -4.7563451511045184e-05 2.0802289404855883e-05 0.08554091450267504 -0.025575210504504044
10.75 -0.04726087292739589 0.009200501162408642 -2.448526596684899e-06 -3.9532458652573454e-05 3.163574124233106e-05 -2.4926534621130648e-05 0.03949921345376554 -0.028803120685625346
11.0 -0.03623252796644734 0.002587732178171231 -3.158782254865689e-05 -1.11133753345677e-05 -3.6657073218365986e-05 1.0516907981906403e-05 0.05654286726858458 0.10337724875995943
11.25 0.08004495094105467 0.0632517258841683 2.281277285002448e-06 5.429641971966658e-05 4.175511043113009e-05 -2.7588383328760475e-05 -0.03998091655696593 0.035482190677319864
11.5 -0.01752744206850919 0.08556130199109112 2.605870528601016e-05 -1.574874936893498e-05 -3.494849090833999e-05 3.414914280928248e-05 -0.05305877606917608 -0.05678833231629198
11.75 -0.0777748959223715 0.07859724359606256 -8.66897707640356e-06 -1.3895989112065171e-05 2.083875301005657e-05 -1.1904661603772913e-05 0.12226586323960811 -0.08040617942634452
12.0 -0.022150390043699182 0.021793316931892688 -2.1947812807342857e-05 3.828093316293247e-06 -3.5509604189950365e-05 -2.727919545936993e-05 0.11083138218930572 0.052991824803342566
12.25 -0.06793869109924183 0.009524703755255206 2.489873959120472e-05 3.062892100937105e-05 3.879944464261314e-05 1.5918104111203388e-05 -0.013681887310015378 0.09820001375690406
12.5 -0.059268248780179354 0.01515725353897202 2.4463312930785525e-05 -1.950443153173705e-05 -2.393193806403009e-05 -3.2351289569305684e-05 0.02337695473110344 -0.0551683416019625
12.75 0.0051761914549715085 -0.001894861124501995 -2.6876101475942637e-05 -1.5200720355941113e-05 2.8580032511919295e-05 1.7018429884484196e-05 0.07693270264077684 -0.03418712803845767
13.0 -0.050377707441899344 0.08228138677950138 -2.5034832710657753e-05 3.1951604107169284e-05 -3.4249415952170673e-05 -3.9500355075753506e-05 0.0994758178016256 0.040442086192060835
13.25 -0.15050900388627797 0.017302731522338258 1.8666299048076142e-05 3.031788663698828e-05 -1.3074166335129658e-05 4.410090168181157e-05 -0.0037924495437991618 -0.005776293409398517
13.5 -0.041760275276686576 -0.10162680984242697 4.041284973060215e-05 -4.4378792170910304e-05 -5.7420548598100205e-08 -6.325831442142922e-05 0.028837741806258407 -0.012585466283791397
13.75 0.018196226445031695 -0.018540986398194806 -5.1823621639883885e-05 -2.7323941711336717e-05 1.2158874617728425e-05 4.246243270680603e-05 0.059858047660171304 0.0007174194337149324
14.0 0.00870534728113192 0.08712442648506283 7.573824128003671e-06 4.529498059888561e-05 -1.919874288601274e-05 -3.1860283015242016e-05 -0.019733666214918344 0.0027197628246840504
14.25 -0.09319112017549289 0.03453803187859246 3.901132537791407e-05 -3.7020798560632084e-06 -1.2854227772846322e-06 3.9300774032705626e-05 0.017307824730606387 -0.05629850239565458
14.5 -0.07609901625225718 -0.017590932567513887 5.934964130000772e-06 -4.329151527391999e-05 1.7671282312421464e-05 -3.888743431677128e-05 0.047921004645389495 -0.018493259313589284
14.75 0.016636184803644774 -0.038598237657788734 -4.791908841539224e-05 9.048865659927853e-06 -1.6773927353596007e-05 4.67046268386984e-05 0.010895495363797705 0.07679561190789258
15.0 0.01882668487827927 0.016940932955995407 9.049033851750051e-06 5.760475714683181e-05 2.974808204447749e-05 -4.054683881307708e-05 -0.07090481821093021 0.007827212568899677
15.25 -0.01438243171371648 0.10288879239669642 6.607422546193403e-05 -4.2621754721262785e-05 -5.2160160556445176e-05 4.781091086034331e-05 -0.08502228164356132 -0.008688851636953179
15.5 -0.0403832215562958 0.040830066848184826 -7.028969616879414e-05 -3.1103718543497e-05 5.227809779877467e-05 -6.942763268403808e-05 0.01203849573751585 0.02685060649888289
15.75 -0.06700482926337908 -0.027441835508533886 -4.97569709735433e-05 5.4219842145319866e-05 -4.4122977413129845e-05 4.088154567858807e-05 -0.038267683612029764 0.014099124275932635
16.0 0.013879194376329382 0.05081313673651203 6.047380922617453e-05 3.479291221521879e-05 5.5828474131709833e-05 -1.950271626350212e-05 0.0011799293448005316 0.07624365465474049
16.25 0.010263375805459806 0.028512358177284484 3.975123252718654e-05 -7.179527567838934e-05 -6.695382656092167e-05 1.711791633204895e-05 0.07108044012579161 0.0719217052965746
16.5 -0.056084429376920104 0.039665926554826404 -7.48074281645727e-05 -3.4194899780704485e-06 5.1182587067443634e-05 -8.63349867062377e-06 -0.02289803554209123 0.12614435144600242
16.75 -0.017568931308778547 0.0508204862498194 -2.940649149384944e-06 8.93456925730934e-05 -7.074005287915615e-05 3.206068144826992e-05 -0.02000490777278126 0.05581500575061202
17.0 -0.01949025729810357 -0.028836450318163148 6.30261748990825e-05 -2.237411910023735e-06 4.9595823837671966e-05 -3.95568319466394e-06 0.008515742499983985 -0.0661172984520269
17.25 -0.0646779528601127 -0.015914173459863137 -3.532270311442036e-05 -4.1632342530667354e-05 -4.958434120039651e-05 -5.122090345652182e-06 0.06420667978230597 0.03779867313584641
17.5 0.03267066291396413 0.017804585759467716 -5.3845012386696714e-05 4.8064781200186766e-05 5.06861334773054e-05 8.276584650002432e-06 0.05735414089492542 0.010813387032639617
17.75 -0.027593705135962203 -0.01006465516954681 5.609911400376809e-05 4.839205956953856e-05 -5.851144186711193e-05 -1.1561054265397773e-05 -0.03989522786649412 0.017403147771112997
18.0 -0.10709349042898827 -0.01752641578239419 4.9680851268187856e-05 -5.4146552971564744e-05 5.04714165451422e-05 1.4007196784171033e-05 0.07387121771606302 0.035619048026627534
18.25 -0.0005644394200291364 -0.0726476260449761 -4.577150689096417e-05 -3.7709196942351114e-05 -4.097493037644502e-05 -2.4834021822866647e-05 0.040161722745422665 0.05027681156706969
18.5 0.008340649269215907 -0.0978364379835987 -3.2560733168167575e-05 5.8298105969926075e-05 4.3960287571249155e-05 3.972988975358525e-05 -0.0319082998473187 0.13556156989710297
18.75 -0.03345294212147839 0.015166925424499517 8.589932496866477e-05 6.929555822061053e-06 -6.903973836670965e-05 -5.5386394380220024e-05 0.033546116172859596 0.004537435674668716
19.0 -0.010312190925447627 -0.03400927202146642 -2.62754895142818e-05 -7.121491525154599e-05 5.844429176578532e-05 2.892577044117999e-05 0.0011013632217962768 -0.02931377464836359
19.25 -0.06564699772723499 -0.13313196005577865 -6.213009106003652e-05 1.4871018693376139e-05 -3.291685798829752e-05 -4.6736106797579685e-05 0.1027955034284329 0.023322617869330146
19.5 0.003773644371808854 -0.06095865635797795 4.5548172107133603e-05 6.0866859128892624e-05 4.7122304599667504e-05 4.760286598325058e-05 0.10120333446369294 -0.04342243032038802
19.75 0.0940284340620069 0.016392761799939808 2.9605809738074476e-05 -4.6511097430555515e-05 -3.680073471364729e-05 -3.1135073949847276e-05 0.07751564847912637 0.011952875879735939
20.0 -0.04280345602916277 -0.050206549556918716 -4.3804420923055426e-05 -2.868490589942852e-05 -9.350917903461447e-06 4.161419222371779e-05 0.06746278694785564 0.048357665882641586
20.25 -0.029768954397072785 -0.05128967735474614 -3.794621041701722e-05 3.435312821786459e-05 -1.6028749619433316e-05 -3.555504949673933e-05 -0.08639777661481289 0.08384923784767809
20.5 0.12232909566110606 -0.02488067793524339 1.9806808974148635e-05 3.056083199341872e-05 1.547399335569669e-05 3.3771738288069764e-05 -0.03950301118498135 3.6358919079770846e-05
20.75 0.020163864336833592 0.017520953379817676 4.0250845199286186e-05 -2.7658228445987935e-05 1.8786553017194717e-05 -3.5612712427560085e-05 -0.011829907739516265 -0.10312596436341445
21.0 -0.05543792700768163 0.04194395151238682 -3.6966516084090175e-05 -1.1957175819460944e-05 -1.972183545880622e-05 2.1055266492017507e-05 0.0727018288977605 0.04438386235150152
21.25 0.028702745332534217 0.03387488212173781 -1.5871309299327623e-05 2.5782220742052822e-05 1.668161973520847e-05 1.4565573337680046e-06 0.071918693281066 0.02630045814245252
21.5 -0.029561456137947348 0.016881090682462248 1.3035942602002158e-05 5.441944183721618e-05 -5.834916989037039e-05 -8.50371842888611e-06 -0.02510553827650361 -0.014072309778158064
21.75 -0.06057827462211931 0.04105193232306957 5.9993820604883246e-05 -4.3155481833590994e-05 4.8485054926642296e-05 -2.269915081759747e-05 0.10337150937609049 -0.01434340778891155
22.0 0.030069741741120155 0.006778935653788572 -6.301802025737431e-05 -5.571679021822456e-05 -8.03595962593435e-05 1.1043447221008225e-05 0.0697247485403185 0.009160529536425648
22.25 -0.014447896725723962 0.05341967611518874 -3.214328174339128e-05 7.782936653832427e-05 6.515326864573705e-05 -8.184640747480749e-06 -0.023115332107351783 0.07977753361238259
22.5 -0.060546110463412336 0.0928296280189918 8.812911663980306e-05 4.2111198842004233e-05 -8.814784545747247e-05 -1.6537483579327163e-05 0.00808095611610445 -0.052677056885132065
22.75 -0.02233670474873635 0.00010876570053978962 3.689871757304655e-05 -0.00013500783993415449 0.00012015468476096614 7.810610468068052e-06 0.009357255366949984 -0.047341504155145334
23.0 -0.027927756081732678 0.010090240233237903 -9.856007949797974e-05 7.403237455869105e-05 -0.00011075793539022012 2.4276391647026963e-05 0.04375355616164109 0.003670515061056638
23.25 0.006694511009718473 0.07958141614397486 5.644109912205407e-05 0.0001021287482581082 8.582643072452819e-05 3.4171448319301674e-05 0.007435228327669241 -0.0887676133563772
23.5 -0.012481748188135536 0.013002622506363748 4.648711572621637e-05 -0.00013441340636964762 -0.00012049326129769423 -1.4613948821643836e-05 0.046322157960651575 -0.04596386230897956
23.75 -0.047090437966103814 0.02271475289938721 -0.0001131204241936985 -3.954390006594961e-05 9.953374154824013e-05 1.9682987816713117e-05 0.10016149103688232 -0.0028083910103463908
24.0 -0.008384047532154527 0.03855089814971955 -5.67229312102569e-05 0.00011311584465627861 -9.569668446499757e-05 -6.716649749588933e-05 -0.06996295193249599 0.031211924993590136
24.25 -0.018566080855847808 -0.0325385077787942 0.0001282458203016661 4.318543262285758e-05 0.00010067925007803822 6.57807644120156e-05 -0.08234588799665882 -0.039090394229576816
24.5 -0.03621875710357025 -0.0037178048775787405 1.7800941044767392e-05 -0.00012446009546288395 -9.031065315817198e-05 -3.886245217710207e-05 0.004246381707003713 -0.121688466746279
24.75 0.011630264268418913 -0.009353303433712908 -0.00010805912413241053 1.1210802738524032e-06 7.104933407730269e-05 6.762076697880288e-05 0.03006964915320575 -0.03909578572333314
25.0 -0.02126878506040468 -0.052929320026361276 -9.019921921725663e-06 9.59225792919961e-05 -2.3392079704740077e-05 -6.995973942014553e-05 0.07595019756548865 0.009060701052224111
25.25 0.008892138226247008 -0.004576359120930858 8.501806475408955e-05 -0.00010329776565794022 7.818725694699156e-05 6.577984237824627e-05 0.03706904477978531 0.022010183710229506
25.5 0.0036780285495529386 -0.03674995575873667 -8.583277370285875e-05 -3.268764789809419e-05 -7.175189915324662e-05 -3.904816729854693e-05 0.047106369172738895 0.06331744382845932
25.75 -0.05195991574710443 0.002775046707861273 -3.4734485775488936e-05 8.258475893341627e-05 4.733850494228751e-05 4.6009976906180935e-05 -0.04126823746874852 -0.004171037342351289
26.0 0.025850939581345392 -0.03084202926958774 0.00010875875854110682 2.9989109061989705e-05 -6.532172841098334e-05 -7.343247269585854e-05 -0.05447551280406237 -0.028513443250529093
26.25 0.04779355308113638 -0.055063323428683864 2.2790010984260366e-05 -8.33053635913814e-05 2.0699175772665126e-05 6.861521321919705e-05 0.06897697252430898 -0.12275734788931368
26.5 -0.010089088201620515 -0.010356135636387098 -7.983951399244838e-05 -6.695678281369672e-05 3.704616717072401e-05 -7.999723380210397e-05 0.04535593786861123 -0.0416139820878733
26.75 0.06447791123946896 0.013609645623900818 -7.508854770075305e-05 4.928386907281192e-05 -4.6126716273621346e-05 6.457389920841733e-05 0.021968251249914725 0.03628386345145953
27.0 0.04448860280765743 0.00145064656475824 8.332507245022208e-05 6.988538231190834e-05 7.130492798283186e-05 -7.155255630123448e-05 0.051601082413054444 -0.039802764761900845
27.25 -0.015091595076766412 0.07144295180202723 1.3542435241202766e-06 -0.00010789979700833057 -2.9185424728358765e-05 7.673201924979025e-05 -0.021527109835121072 0.025984052487644675
27.5 0.015834264957550956 -0.02926403984483701 -8.943027942626364e-05 1.62022633705003e-05 1.8277575023680196e-06 -7.724530626530223e-05 0.006968056177805677 0.030540651623351848
27.75 0.020252134164133663 -0.06253009047607903 1.8639744335179873e-05 9.528662464565983e-05 -9.814771321328664e-06 7.586653288595638e-05 -0.09797234161670158 -0.017350697930494995
28.0 0.08570821655115893 0.07733312329768856 7.818230776196738e-05 -5.22914913690379e-05 7.494072518216809e-06 -7.238202300826807e-05 0.014640282517307451 -0.04104801210412709
28.25 0.03353518519318596 0.05794880991010974 -5.540938952450194e-05 -8.696028364270245e-05 -4.099250578488176e-05 7.267291983604237e-05 0.049417711633526186 -0.09344515785724436
