# GHz S RI R 50.0 
!freq ReS11 ImS11 ReS21 ImS21 ReS12 ImS12 ReS22 ImS22
1.0 0.07584218419726622 -0.22907678921724514 1.8287478106191709e-06 -4.6029699758990786e-05 3.238371027273063e-06 -3.4788739575582393e-06 0.13534103016977922 -0.8191259367591537
1.25 -0.005508085248881106 0.15134609115457245 9.083524969668083e-06 3.697538137059102e-05 3.4892256445731413e-06 1.8146327934929024e-05 0.4589348867052857 0.6759136875837186
1.5 0.06245561670541164 0.023050975893298603 -2.4790187364869416e-05 -1.0583824573819032e-05 -4.5102668116794727e-07 3.500466375537053e-06 -0.6652973412939033 -0.39429535820805417
1.75 -0.05012267306430209 0.007040470995347905 3.654994814629944e-05 -9.98757906315513e-06 -2.2761507992011587e-06 3.5105424179806906e-06 0.4806791985904957 -0.1795490059840405
2.0 0.08089754644331264 -0.06250079913772384 -8.619983934955735e-06 5.532926613233616e-06 9.068079424840103e-06 -1.3717293298244141e-06 -0.21869037594672452 0.18010686385736557
2.25 0.040971982719989156 0.08729327528224567 8.438653600340721e-06 -2.0682306036498575e-05 -8.99900111428271e-06 9.417601112162648e-06 0.30797200020608595 -0.24487521939706375
2.5 -0.04678824375143803 0.07599718612337583 -3.6328254236035522e-06 4.5458490399537145e-06 5.163962791918795e-06 -7.5460630118160665e-06 -0.33563549141620125 -0.381281387152983
2.75 -0.03373800255334275 -0.0032424713781326747 1.568219816219787e-05 2.096804702617712e-05 1.5356001895771985e-05 1.6216961701150833e-06 0.25996649489046153 0.46965136422606535
3.0 -0.043082711443282976 0.06611387945753014 -2.0302470493305255e-05 -6.549620931640646e-06 -8.449974295772664e-06 -5.703162296501176e-06 -0.23218193208996218 -0.653834599899892
3.25 0.08913633790251037 0.08886332829050658 -9.37864346719314e-06 1.3663198764665327e-06 1.2371331519235789e-05 -9.609777902527711e-06 -0.16567908109641202 0.6919154957289938
3.5 0.01805861451204993 -0.009762637335690522 -3.472875803428047e-08 -2.641505156100764e-05 7.682452405615542e-06 -4.4020708147523736e-07 0.5243702134779084 -0.5903666124567241
3.75 0.007583217003220271 0.1501403828113017 -9.291775575727652e-06 1.1762615302912588e-05 -9.739032053260053e-06 5.41846651528673e-06 -0.772588289800597 0.0789601760800509
4.0 0.03555075070149934 0.07088636892784304 3.064474652284626e-06 8.087928919260376e-06 -2.497700021493592e-06 -9.089897025385704e-06 0.5845033909782583 0.10307836110216353
4.25 -0.14335629728385219 -0.05197566907200514 1.3059070826146327e-05 1.5837094817681373e-05 3.294410578846855e-06 -9.877874670634834e-06 -0.4416328987257587 -0.6763063682015632
4.5 0.013640423666673285 0.019156630586876548 -1.9201494240293916e-05 -5.629212726924847e-06 -2.8285593412655282e-05 -8.602070577849988e-06 0.1440290044335853 0.6898195248522964
4.75 0.1016294539788485 0.05604750782468226 1.056720871316527e-05 -3.323063495021309e-06 -1.92904070339272e-05 5.804526750531232e-06 0.37410760227430395 -0.6851501981819759
5.0 -0.12461586098683398 0.10670564234862524 -8.90170650766625e-06 -6.986113914192821e-06 -2.291417011513425e-05 4.280756969531923e-06 -0.6766082800231856 0.4788509157865616
5.25 -0.1138138938498558 0.045925408325213 -1.6663868739024212e-05 2.3837898370895167e-05 3.3444554571137426e-05 -8.763406087150855e-06 0.7889425209952939 0.2175471932913438
5.5 -0.026691051125353568 -0.064219045691951 1.3797737517400318e-05 -5.245891554008999e-06 -2.6862519849549165e-05 6.09361044103451e-06 -0.5991518613040351 -0.4830830981370581
5.75 -0.046732551757046395 0.07615848385663908 2.0330565095207746e-05 -2.549474197336519e-06 -1.4206793206170127e-05 2.6656236011415014e-06 0.056763281736675664 0.7815071749801918
6.0 -0.003413433254696771 0.07806888281182998 -9.244069243928694e-06 -3.6091531806804144e-05 -5.646548141104876e-06 -9.699217591025804e-06 0.5727102721863636 -0.5177640884342453
6.25 -0.0721606851262724 0.0009620312852694768 -6.350006239389542e-06 2.363964735210833e-05 1.3987362360948898e-05 -1.0332068508604397e-05 -0.5820674925515447 0.14363330874235736
6.5 -0.12463376928842079 0.11842802156755343 3.8557660618280914e-05 6.219282943147504e-06 -3.063099057871741e-05 -1.466320578478045e-05 0.44130213523497064 0.598094785991629
6.75 -0.025094357415868837 -0.02617734756293659 -1.3886226729032164e-06 -2.6838584647883362e-05 2.7375607157252014e-05 1.869572609679123e-05 -0.0780098636944338 -0.5834720956348876
7.0 0.005034758263192166 -0.06218561370326238 2.476740613703258e-06 1.0360336846660447e-05 -1.022605476117364e-05 -7.273308511398892e-06 -0.25986649137293394 0.4743284440122273
7.25 0.022549533074916486 0.16398984683117007 1.94185106737363e-05 -3.3530646315046295e-07 2.7334940155365888e-06 1.726379362740464e-05 0.6477729736592497 0.013151233356117897
7.5 -0.12043072524816557 0.13081370026357758 5.273052070078858e-06 -7.465624321766561e-05 -5.150630022042371e-05 -1.788907044016362e-05 -0.3564352655973637 -0.14693819982564493
7.75 -0.18835125041924258 -0.068396268528011 -2.8929404771097466e-05 1.8949347083433877e-05 4.731365533409945e-05 -1.0154926354832365e-05 0.22990288368360212 0.43915256562254534
8.0 0.04569597433319847 -0.032334535165281994 5.020291334912549e-05 3.7495457082901747e-05 -4.7227290210350014e-05 -1.7962176195110363e-05 0.1930488418152357 -0.5106856188737918
8.25 0.061601369893290396 0.09813069787931654 -3.802852388741237e-06 -9.33723573861865e-06 2.1794261375371245e-05 6.792440852503058e-06 -0.3691637400902189 0.09826727360605092
8.5 -0.10239315236864463 0.0935694463527285 -3.5403686904179336e-05 -2.3942790601456168e-06 -3.462621946738429e-05 -3.845105201831408e-06 0.3760708417739494 0.02445902028786967
8.75 -0.05384682691268696 -0.010466486905301317 6.465831971415405e-06 4.043540990604692e-05 2.436095070393832e-05 -1.2521330120895197e-05 -0.26396073715114465 -0.42887320996849
9.0 0.016215453665598775 -0.01589957216628501 2.5137306987801628e-05 1.1574912904134517e-05 -1.1746494426750717e-05 -2.6028722012323127e-05 0.03940073043782738 0.30336275394746787
9.25 0.0009789793271191838 0.06093304250236449 -2.8716118995227437e-06 -4.932437160041906e-05 2.4453113692952935e-05 1.785214540802679e-06 0.3532983959507788 -0.10819975446879315
9.5 0.018545624448622462 0.026543687851517297 -3.45428988024915e-05 1.709492738486673e-05 -3.246811008324923e-05 -1.4848196167275343e-05 -0.33990943470394547 0.18329184476017804
9.75 -0.008010720884074223 0.014740643677472512 2.6102585737139003e-05 2.754722262439395e-05 3.4784624837765077e-05 2.18141853318396e-05 0.16527883992163284 0.19258733784289245
10.0 0.017446733604822434 0.008881493024986427 2.5288589852500084e-05 -2.334319292789533e-05 -1.0129864075214168e-05 -2.9197907468839126e-05 0.011906856006138944 -0.3475794643705736
10.25 0.06912786026399434 -0.009317246555708474 -3.125386119560988e-05 -1.564886375353595e-05 3.537817744690188e-05 1.8311477874968005e-05 -0.01135980199761938 0.26268670160661445
10.5 0.00305068856620265 0.0971063669487349 -1.1812514588826487e-05 2.4752686353603078e-05 -6.788445916718328e-06 -3.1414383902455515e-05 0.2380569576034844 -0.18194367779196152
10.75 -0.025100709840929464 0.05512165478151156 3.910527587929809e-05 1.1802539118056233e-05 4.883330633058052e-06 5.062246766033264e-05 -0.21283010142334252 -0.014710513949644483
11.0 -0.01403770381507021 -0.04671937565720247 5.0520383817349225e-06 -4.1513028385119695e-05 -4.0873231254735345e-05 -5.253344328945748e-05 0.2341430527777864 0.2747287047094909
11.25 0.028719245051739895 0.07770077126005462 -3.920780742110341e-05 1.1020349432417747e-05 2.580581204591143e-05 3.354273424415553e-05 -0.06643508368571355 -0.17669216034377816
11.5 0.02918103245660461 0.11008610142395273 2.2618333127238637e-05 4.1367514054415373e-05 -2.5589713922955254e-05 -4.6589165624571936e-05 -0.2075423152327776 0.13485601873606787
11.75 -0.0863358719201203 0.029320327463730908 4.995446441536942e-05 -3.2956934127262386e-05 1.9229468171351992e-05 4.5074951096017355e-05 0.3491675056447089 -0.1251963699801906
12.0 -0.0617381720541299 0.05194459276091028 -3.71760131798258e-05 -3.545229317564114e-05 -8.674433190069392e-06 -5.1419369921120533e-05 -0.06400614321280268 -0.10140097016638633
12.25 -0.020880080650216244 0.02372193056322735 -6.0418347048176875e-06 3.617881841656972e-05 4.423076903992177e-06 2.220974985229073e-05 -0.02779977884683088 0.27348954192473973
12.5 -0.0838503822332819 -0.027413798768486788 4.775670180923892e-05 2.4934153326711284e-05 -2.690558970606564e-06 -5.956720896823751e-05 0.2121948189088795 -0.16595815227346294
12.75 0.002136310604111444 0.04843556491925162 -6.706955546974316e-06 -5.738284173474331e-05 -1.0650737683894961e-05 5.750878066765222e-05 -0.14291723880959106 -0.05686222283452634
13.0 -0.00897598649472383 0.05692522692081561 -4.7157445084823404e-05 2.0135377950011636e-05 -9.820208155851773e-06 -4.808607962049603e-05 0.23587828590362667 0.1511912214595122
13.25 -0.18275885472553874 -0.015841363426168313 -4.961045886964322e-06 3.6562294333659855e-05 -2.2934447335339497e-05 2.963243647719118e-05 0.08052147286767308 -0.17328794631301817
13.5 -0.04632420672049514 -0.051043854049957524 3.98078961089776e-05 -4.559441339540111e-06 3.427581577897404e-05 -4.367631108456568e-05 -0.17093080679478878 0.047457585276245634
13.75 0.04844861260728394 -0.05667973217219246 -2.353410528227821e-05 -4.6837817151289836e-05 -1.5736351043824177e-05 5.5983270132971116e-05 0.24642954462628497 0.04990069210137461
14.0 -0.038363021306613336 0.08888685714974232 -1.013265887979884e-05 4.314558199678649e-05 2.3265101762155277e-06 -3.572442797835976e-05 -0.1281139460647279 -0.14065525589661526
14.25 -0.0637192451543823 0.07416910504654518 4.86990234701262e-06 5.878026779182645e-06 -1.0803959865480281e-05 1.4833218983228393e-05 0.025685575538184846 0.14684048273005382
14.5 -0.06203469914804155 -0.062076587662578855 2.9043499023877057e-05 -1.4679948032848662e-05 4.046603900705563e-05 1.4165823119314805e-06 0.2051406498278889 -0.09204518565194239
14.75 -0.029379567297021514 -0.023536945783581537 -5.964756013163237e-05 2.696825002901145e-06 -4.7352727287290305e-05 3.0844712757776965e-05 -0.20094746437424224 0.036242805251512356
15.0 0.059493137976090724 0.041693541601870845 1.56614293373945e-05 3.337034706126276e-05 2.8163980370822942e-05 -2.036087563002428e-05 0.07556001413639146 0.12643045787982232
15.25 -0.01602038408849009 0.055981421274974616 3.610830619749099e-05 -3.7880987056573205e-06 -3.6102588272277016e-05 1.9245065998128047e-05 -0.10536099298548567 -0.1741923038026585
15.5 -0.07190039163179365 0.07716851692578958 -2.9613118487239418e-05 -3.78533750525407e-05 4.2544150366729096e-05 -1.649331360186944e-05 -0.15497496601988126 0.15834134047469
15.75 -0.018691376200651692 -0.018127007354898708 -2.87594690322659e-05 2.2180096841991065e-05 -3.146355598106177e-05 1.8439697028672974e-05 0.15059918394171024 -0.013810770610524936
16.0 -0.0006992662938831162 0.004657715508416635 1.1369993167107927e-05 4.333832292002552e-05 3.1946313331989066e-05 2.0919208987706112e-05 -0.1332517991953193 -0.049880652254495436
16.25 -0.01017753728809196 0.06945422372274661 2.9470857602356017e-05 -2.1712128853042214e-05 -3.138178481130135e-05 -1.0845604753460632e-05 0.09239893571327543 0.2431342591131275
16.5 -0.016537345265499943 0.02650411230199428 -1.65606233572438e-05 -2.2636351340456438e-05 1.9035880335250826e-05 1.1319548531004782e-05 0.09301765892579536 0.001505653079646646
16.75 -0.05146627286247121 0.023991985082576477 -3.4304625661867003e-05 8.527613778711265e-06 -2.1183353981920517e-05 -2.201269792025696e-05 -0.19650074077299748 0.04416499182220539
17.0 -0.02290228246747819 0.01025406781264907 3.525875634395458e-05 3.537169771548007e-05 3.4230069307234196e-05 3.101846964129431e-05 0.163788064092633 0.03845290045236302
17.25 -0.0326295985429813 -0.039072332714600734 3.271377875008122e-05 -2.470711578611763e-05 -1.135783827084827e-05 -3.253584864104777e-05 0.03614440170131772 -0.108015819121556
17.5 -0.003578913760750601 0.016052217579246617 -3.9585741599650526e-05 -2.2306143135368175e-05 -2.9317877239815766e-06 3.772621588240384e-05 -0.02018409639350579 0.17470434795168155
17.75 -0.0106982985128637 0.015570667188601686 -6.625506879334199e-06 7.545482229960989e-05 -3.7312328236082884e-05 -4.869732261953009e-05 0.1047457574170353 -0.09736067284766664
18.0 -0.09331418134834352 -0.04437601860170968 4.1992570242560515e-05 -4.958453807441077e-06 1.0482904571118163e-05 2.64546484338106e-05 -0.06445195558164471 -0.004297596567868725
18.25 -0.026094338355719032 -0.06124344256584165 -6.466132671327851e-06 -7.366312404584314e-05 -8.047749046703924e-06 -6.086444159875075e-05 0.07392852924728366 0.21727460921333078
18.5 0.028560292295422167 -0.08384746129082805 -2.3215203835856455e-05 4.908509803131384e-05 3.184798121448536e-05 4.000172596298739e-05 -0.029486787804292425 -0.05106178010041676
18.75 -0.03343314378701714 -0.010248891629867016 3.26765705193091e-05 2.3096799978017803e-05 -1.2968633527677525e-05 -3.3637622595037825e-05 -0.05700297458200506 0.12854450185292143
19.0 -0.025629481393519296 -0.018767742533906104 2.590828413984788e-05 -3.327466372921942e-05 -7.790073464845372e-06 3.5459873421233586e-05 0.1700272444848493 -0.03443444525593989
19.25 -0.04752182014416564 -0.1289542895777926 -7.141550447155163e-05 -2.3305473165450995e-05 1.2572024923868266e-05 -6.288642492104466e-05 -0.03084846979466549 -0.11957151378112568
19.5 -0.011479504652629764 -0.07552376866950519 -8.455795555444492e-06 4.766842948329441e-05 -5.8495741111224705e-06 5.2820879674352525e-05 0.08498749072187439 0.11017014907987856
19.75 0.08461305586988968 0.028990648973674094 6.55219043860091e-05 -1.1613163720437773e-05 1.5036276856788478e-05 -5.094568011421608e-05 0.16109094122320897 -0.16448452783210116
20.0 -0.027219286693748915 -0.04715861707304167 -2.894812666242547e-05 -4.3911337498436106e-05 -2.1471179629915873e-05 3.671848393009008e-05 -0.09165738727981645 0.103613864693375
20.25 -0.03892969320478876 -0.0620797391270085 -3.682387647697765e-05 8.691982031117173e-06 5.663258443905999e-06 -3.084547502430236e-05 0.08050472248420745 0.07096763464749431
20.5 0.11811440907346343 -0.015011746864368854 -8.826335929996873e-06 4.396587003704004e-05 -1.8850266681263926e-05 3.4305021026499834e-05 -0.20055990104133348 -0.09033794446361249
20.75 0.03134824553750323 0.016817685464311373 4.2794792870284046e-05 2.321693603471106e-07 3.2948933182342804e-05 -2.4443012009150974e-05 0.047919967272021136 0.03188512795279916
21.0 -0.059053281260401914 0.03680427160992228 -2.5227485041821114e-05 -3.26428173904705e-05 -4.066694628469088e-05 1.3468541325263905e-05 0.14699724730032832 -0.0845390562100869
21.25 0.026685048827904442 0.03927571613022194 -2.5876924870847606e-05 4.202672366974374e-05 3.776593600921356e-05 -1.1269917195460894e-05 -0.05966830552290861 0.1225504922043967
21.5 -0.02605979217127219 0.014089531825852344 3.394335180778481e-05 5.011184912164224e-06 -2.0805303734022845e-05 3.298227328175496e-05 0.10578309669255115 0.001479570641913841
21.75 -0.062157626955445786 0.040852676342037535 4.29010381347918e-06 -2.8949025827450015e-05 7.111609806649855e-06 -2.2608836720082744e-05 0.023820380995414517 -0.13814341194963137
22.0 0.030947061017794264 0.007103688779453034 -7.300620403417774e-06 1.2293772251245447e-06 1.8148339797128905e-06 1.389239785039857e-05 0.07718948330968228 0.15570971885991208
22.25 -0.015344832613094148 0.05401123099643103 -1.2535546161452184e-05 -5.348316609418391e-06 -8.610118138271512e-06 1.622311485364494e-05 0.06632231625789754 -0.005942764879667217
22.5 -0.05738390440459205 0.09339879905630362 -4.511377620678306e-07 3.401139972453458e-05 -3.247847523599137e-05 -2.117539104268771e-05 -0.13844056589291187 -0.07310097487566379
22.75 -0.025138735386649576 -0.0038543078912913337 2.9676170829237676e-05 -2.8501164077271555e-05 3.081030587381191e-05 2.795196017595021e-05 0.1063010717079497 0.046385693448789955
23.0 -0.027564985144238274 0.016162818989001123 -2.4615476526529367e-05 -3.119193883403804e-05 -1.0858471504551775e-05 -3.427081401273917e-05 0.05372471032524378 -0.10559113971303682
23.25 0.013631997433102228 0.07473876663809564 -3.184664599257103e-05 8.121667978940322e-05 2.3549563904919824e-05 7.120134556616669e-05 -0.09751682195536615 0.006882888135335066
23.5 -0.02368165828054307 0.012425648460242265 5.881826242929172e-05 -2.6241704123051323e-05 -3.771046766532739e-05 -3.888206870120797e-05 0.1395054901417639 -0.08401557680239428
23.75 -0.041010162815561205 0.03333833380978516 -1.0953507983390509e-05 -5.735897323571023e-05 1.191505608070209e-05 4.725540305725605e-05 0.009715365050325386 -0.06770193922690992
24.0 0.00011926458023602676 0.02433892197372656 -7.996577887049966e-05 -3.4861115668474965e-06 6.822327134817563e-06 -6.855839994261126e-05 -0.05695635993609577 0.169646430394095
24.25 -0.03583460117481782 -0.02779293724426152 2.896787191368506e-05 7.081340954829946e-05 5.492303854711709e-06 7.406499830509945e-05 -0.011977360514589384 -0.1202464639202229
24.5 -0.01999871745820697 0.010458847864767081 7.684536950832658e-05 -1.1914740115575293e-05 5.191309583916462e-06 -7.033815105140077e-05 -0.09606507193325496 -0.1438565715325658
24.75 0.007371456234344188 -0.033655418426537825 -6.529743801578522e-05 -5.770215564455664e-05 8.78544519300712e-06 7.219432433739087e-05 0.10882896665753648 0.04097946126363056
25.0 -0.032747021351020374 -0.028846495597646283 -3.7991245658136814e-05 6.963504050816214e-05 1.3966277091932088e-05 -7.196268450550337e-05 0.10494577778780959 -0.08840280491706219
25.25 0.03279730486069945 -0.024085122474506716 8.967451658519856e-05 -3.5061634517625286e-05 3.5767602579195056e-05 7.231057352508905e-05 -0.026404244395185628 0.10204614550350695
25.5 -0.02554916240611159 -0.033325846141271716 -5.3161386773046914e-05 -2.967166147620148e-05 -4.113675070022659e-05 -3.766246688888715e-05 0.12242498730132564 0.024652476457846642
25.75 -0.028463786948127096 0.0267639110650007 -3.476728157987486e-05 4.4254825232824865e-05 1.798594367948491e-05 4.6509435069920735e-05 -0.11938281182234389 -0.02433218510452559
26.0 0.032320838144727 -0.06310803831983146 5.641179705624829e-05 3.388932260911556e-05 -2.435374803326533e-05 -4.841725316270644e-05 0.012783604273803859 0.028197741848901437
26.25 0.007543052195437574 -0.05372743725507577 2.2713477224244982e-05 -4.243491259953323e-05 5.1269839816378196e-08 3.355022315070111e-05 0.09468352592706059 -0.16686647698388962
26.5 0.0111476225963507 0.027142563693720465 -1.705046668232633e-05 -6.273492534813285e-05 3.0130573904512863e-05 -2.8385608145057133e-05 -0.02560347319904041 -0.06541232856610385
26.75 0.081621324753904 -0.018688672504712886 -3.874536284099698e-05 2.597248357292949e-05 -2.9253730649352862e-05 2.55352104463918e-05 0.05548063204304351 0.10196262610049497
27.0 0.0033886647953762783 0.016525026636245985 2.8018419224808373e-05 4.6610594925681096e-05 4.516258434092454e-05 -1.2901284981041373e-05 0.08718295918109548 -0.08000354931959787
27.25 0.027683962530769116 0.07110591200283074 1.6476766034905392e-05 -3.2886960557257226e-05 -3.367043956531326e-05 2.722657818589826e-05 -0.07688948514522712 0.043606308276296094
27.5 -0.014322453470565488 -0.0647177020276712 -4.39057478457379e-05 3.290878189306862e-06 9.975642013589805e-06 -3.8085628426854105e-05 0.06637307148554145 0.029742722310014055
27.75 0.018999500102934677 -0.010512695956788318 -1.5766419696279064e-05 2.202799724817279e-05 -1.1675129894811947e-05 1.6704650293407516e-05 -0.1482850819256709 -0.05390443646174979
28.0 0.1210773600426409 0.040727208394313236 5.374392887400669e-05 3.836496948740949e-06 2.3437059803594747e-05 -2.0281457825325202e-05 0.03387236216032821 0.017275009331068826
28.25 -0.021526473399805277 0.05028589421742081 6.054080883914265e-06 -3.904129945566755e-05 -3.344542325304688e-05 7.416888287654592e-06 0.07038698234853029 -0.13151837016908258
28.5 -0.08428730511430797 0.06267210843541098 -8.477034122853657e-05 -2.5727879990198264e-05 6.548044228186462e-05 -1.4761808269314119e-05 -0.020235234298839055 0.04125970367520662
