# GHz S RI R 50.0 
!freq ReS11 ImS11 ReS21 ImS21 ReS12 ImS12 ReS22 ImS22
1.0 -0.2364771718416529 -0.7644204336359379 -6.432086696519581e-06 -4.1460044376694274e-05 1.6611338426483222e-06 -3.4743189968895306e-05 -0.08156347333940972 -0.7722240585893911
1.25 -0.2943877074607226 0.8084115016520528 1.7771307550073343e-05 3.368220933425695e-05 -1.4012223720420753e-05 3.0160860508525075e-05 0.7127078895308042 0.4785505369971761
1.5 0.6539127267489724 -0.05831310049388272 -3.095372958875363e-05 1.5289895072425515e-06 1.2946727371796244e-05 1.2698234987747108e-05 -0.7769414401515653 -0.061338226861029466
1.75 -0.39215764103444484 -0.2900455730051773 4.116442014607078e-05 -8.547447563444972e-06 -3.114513748326964e-05 -6.85023989339672e-06 0.3117363611380074 -0.4485097755153528
2.0 -0.004294006281772289 0.3442925922265857 -9.274265019326545e-06 1.4978391824252473e-05 -5.999625120906538e-06 1.3302239649275551e-05 0.08833633181949518 0.3596167260935913
2.25 0.3789339046570978 0.014693162217546407 -3.4193171616693342e-06 -1.6953874873149524e-05 1.5689818949480904e-05 -1.863240861343854e-06 -0.012664855877040262 -0.2769462882351421
2.5 0.5106944284594617 -0.17798252504604462 1.0696573330617103e-05 -2.843669821801389e-06 2.4291070910011754e-05 1.451940705079347e-05 -0.5055872805367257 0.07729041785783486
2.75 -0.7050885422559041 -0.17615766017695159 3.9511979089118606e-07 -8.918893292831356e-06 9.652109292584397e-06 -2.8706785178230782e-05 0.579967859328711 0.0530606734129634
3.0 0.4987787089675054 0.661021786191735 -9.163262745437476e-06 -1.2475270441287816e-05 -1.262284339586167e-05 1.9305302995346395e-05 -0.5764305503140308 -0.20287243332911337
3.25 0.016868567866893336 -0.9629438368198988 3.556539492245174e-05 -6.666138360746936e-06 2.8587194130649218e-05 -1.267081477352042e-05 0.6169251711544137 0.36494861108297494
3.5 -0.4801199412914138 0.8654772816264753 -3.213886074433735e-05 -6.629747060132263e-05 -6.209530155708263e-05 -1.250476820744721e-06 -0.47022837082089475 -0.5175024233164911
3.75 1.0006007594022515 -0.07794897473494233 -2.716985842354266e-05 3.849308363037801e-05 5.226003444216237e-05 8.00559228313287e-05 -0.12267961468995853 0.7754931283344484
4.0 -0.7196867413894883 -0.2858475467982451 1.989066886810187e-05 -2.066227878154845e-05 -2.7618525003447148e-05 -2.2182445575099358e-05 0.07483581118631775 -0.6910122178928891
4.25 0.12325947433125639 0.7434182832337397 -9.807654599962339e-06 -5.019062562280745e-06 -1.4217366738869712e-05 2.8477327407561747e-05 -0.5529479450456325 0.35616928664413416
4.5 0.3601649950182788 -0.762790154154853 -1.2981379163229681e-05 5.4557007592722464e-05 -1.4453162238268029e-06 -6.471480924873553e-07 0.6909567859966294 -0.33820656365957613
4.75 -0.6454111584968596 0.22761430828948326 4.8586915376285986e-05 3.653856612966376e-05 1.8288777753981957e-05 -2.4587790100032217e-05 -0.7216686968452144 0.0982490042961553
5.0 0.5496143631424953 0.6344625937044793 2.3372377634440787e-05 -3.254678078108449e-05 -4.2531057859992056e-05 2.335231818130932e-06 0.5433898217549937 0.6021491184568555
5.25 -0.24860274547387673 -0.7178780279583666 -6.426438052015836e-05 5.532618809707816e-05 6.022095891021624e-05 -2.7836647633981565e-05 -0.4416272336233593 -0.6407372972483556
5.5 -0.4946763586717635 0.4459492827630218 4.989316953292403e-05 8.119826018337024e-06 -0.00010010701581032382 -1.7887260643160134e-05 -0.18217072307587256 0.8609576388711034
5.75 0.5799332998425553 0.041077479598970734 3.0413444633066868e-05 -3.4340868205310474e-05 2.9705481349310645e-05 5.5688205422571775e-05 0.48941478186856535 -0.44224458812920686
6.0 -0.5004378126601676 -0.35648643708281824 -4.838854321698339e-05 -3.026823674298175e-05 -7.101644789944162e-05 -8.303992916057746e-05 -0.6588668412106173 0.12012114066334695
6.25 -0.21732543167213314 0.5911109065292341 -3.257666447329343e-05 9.425949609087214e-05 8.272536591877151e-06 0.0001166982458393795 0.47320118902094166 0.6335981594754261
6.5 0.3691169817751516 -0.3230298260981732 0.00015989177349310518 -0.0001254923356536951 -0.00014093194133530559 -6.033789907426075e-05 -0.35946589929256456 -0.37951253697855947
6.75 -0.6195979210049144 -0.22768309946568815 -9.56224159267245e-05 -0.0001017417488879834 0.00013957232740392678 -1.618593235537847e-05 -0.4281927323694427 0.5001691826290968
7.0 0.3818845931386543 0.4069636388916529 -2.238229639609589e-06 0.00014366029719507274 -9.057265923399812e-05 4.5538741126210136e-05 0.4108148729263839 -0.4249661944847596
7.25 0.19854069996935964 -0.4090309342766568 0.0001470178163607788 -3.819069283644936e-05 0.0001614575491734713 -3.783297378617267e-05 -0.3691211076967357 0.091854895186391
7.5 -0.6043251925370051 0.22498627434733104 -4.011941477376636e-05 -0.00011455773652281096 -0.00012207917136665647 -2.1947440330671138e-05 0.5373418133940466 0.297770072714851
7.75 0.3027393973914215 0.20571981513159854 -0.00013581716385655448 0.00011494018369458453 0.00017787029593335958 -9.380547605152828e-06 -0.18663671789318115 -0.43216841165003234
8.0 0.06764252947959129 -0.5398389744118233 0.00011075866968325972 1.736270328489709e-05 -0.0001065610299441475 5.735844647307107e-05 -0.05863161275378834 0.4019014973031484
8.25 -0.24395277721395622 0.4649189947958786 -4.706814585348896e-05 -6.660861118223215e-05 1.8790354109890297e-05 -8.239341498188967e-05 0.27125648803835756 -0.38349702268309527
8.5 0.32216211470315836 0.2065116753849376 -0.00011026429130902099 -2.4540446627161828e-05 -8.109384191882896e-05 3.938289099477676e-06 -0.44062976955575667 -0.09702478928542962
8.75 -0.2593789572484085 -0.30562563733124326 2.938345985303228e-05 3.91610138141873e-05 4.1075774322447126e-05 -2.9275346526741167e-05 0.3325380386171896 0.06059938015036391
9.0 -0.11850011099846361 0.34493416147720146 8.052087616818032e-05 1.3088170787656875e-05 -4.999869536792899e-05 -6.282211125163872e-05 -0.08710322854621783 -0.37674456082292906
9.25 0.32357049894682716 -0.02541002729108388 -3.053899503489413e-05 -6.446676319621075e-05 4.898018659956626e-05 6.725108782707993e-05 0.008603144679551311 0.40114300554533844
9.5 -0.2538942924157287 -0.22666718313597095 -0.00014441697796240856 8.471155365591579e-05 -0.00014017110299498268 -0.00012032057614956118 0.19828591365099113 -0.15043653946195962
9.75 0.038021789205614664 0.3170285467032263 0.00010043412860620128 6.176205055003728e-05 8.360508555856725e-05 5.924560511066408e-05 -0.37210710565547955 -0.005517438764762794
10.0 0.2774090199484299 -0.12860494530921812 2.477011906855148e-05 -0.00011161064551680285 -7.49949205042834e-05 -7.476402348383505e-05 0.26767709096232173 0.045018533767629446
10.25 -0.21672142205902606 -0.16687199977705433 -0.00017682902906369748 -1.3468738292730622e-05 0.00014210274547174392 2.3532308029386155e-05 -0.13156312231449258 -0.25102169540420877
10.5 -0.01769071499883254 0.3318914283035145 6.670171044311673e-05 0.00011842936835227392 -0.00015079373745686628 -1.948535229630579e-05 0.12932450973633666 0.2451094632687283
10.75 0.19989460105096116 -0.07383634424683105 9.226949621966493e-05 -6.96885276485843e-05 0.0001189466761519777 4.558605115548677e-05 0.19026036757033504 -0.22077191107530875
11.0 -0.2710297569052901 -0.12824486608763908 -5.746704526356762e-05 -4.843092683176903e-05 -8.01092093614256e-05 -5.104134550186704e-06 -0.16599379925777252 0.1858282409676778
11.25 0.11943942958236575 0.3197065082666115 -5.765345274821458e-05 9.784203008206335e-05 8.258754687701304e-05 2.297695829414252e-05 0.21992026218672156 0.11571677993715052
11.5 0.14524906896242284 -0.08804423376619847 8.033480770375541e-05 1.868183024525756e-05 -6.665038547509941e-05 -2.5184082518447734e-05 -0.1793746597686722 -0.2923794651514846
11.75 -0.28170169565194925 0.08368525031261907 -2.5228316051372773e-05 -3.8612194505338135e-05 2.8943767939220783e-05 -3.3804483953591777e-06 0.12519768348890029 0.16886147686272746
12.0 0.05312238069754438 0.24449510702022942 -3.489107245756446e-05 -3.738831117747966e-05 -4.809587100417582e-06 -5.726922999912617e-05 0.2806034922965433 -0.08543632371911986
12.25 0.03313293223691223 -0.1678065092682106 -1.799136414151574e-05 7.245436500762651e-05 4.901448389620315e-05 7.510693220025644e-05 -0.242502266455405 0.09424933099166105
12.5 -0.24777087947638565 0.036053984105961806 4.247212478841358e-05 4.543531596288081e-06 -1.7549364586238496e-05 -5.343111193021032e-05 0.15347226710734777 0.14170034278046845
12.75 0.1932344567216458 0.09306680679996274 4.239981530337516e-05 -2.9844694700259023e-05 -2.181261357601802e-05 3.491442425822207e-05 0.06703999844072128 -0.23809392049335848
13.0 -0.10648295337984884 -0.09976804753393817 -6.175594056082585e-05 9.266695596198743e-06 3.468941508328167e-06 -8.18873501536928e-05 0.02697060820879691 0.2448918497453322
13.25 -0.31686532293236375 0.046346632093756016 -4.556285486689547e-05 5.070883705007611e-05 -9.301697449468287e-05 -3.549955388939703e-06 0.1851033618348662 -0.009354551284295659
13.5 0.14295809750744332 0.0040070729556477 0.0001318012012445664 8.360711283001656e-06 0.00011174598316840793 -6.787269975259185e-05 -0.11419329942226028 -0.1955531027973972
13.75 -0.05567967610144445 -0.17683074627398682 -1.54854826208307e-05 -7.381204104958016e-05 -2.4828655178964196e-05 5.1584969085456887e-05 0.13548666405460463 0.18599059619852093
14.0 -0.08508377861671193 0.23408334560092586 -8.439168969645232e-05 7.947929307726146e-06 4.058829428546966e-05 -1.5161990937990361e-05 0.00746205144230247 -0.17585003577156094
14.25 0.12143124999672641 0.016561489100031496 0.00010403523086728113 0.00015230505363416724 -0.00011246534849005886 0.00012533652694038703 -0.1518089608957715 0.09457654238772134
14.5 -0.1704562349263541 -0.13732082877077775 7.483157866589095e-05 -5.687884066846231e-05 8.708759618248234e-05 -3.969007362933995e-05 0.230628930865391 0.011481678047062668
14.75 -0.05220280843172856 0.14395392027275425 -0.00014476478255724367 -9.413906776852355e-05 -0.00017510359762387955 4.7902492190698635e-05 -0.13659763519139423 -0.0690015924987214
15.0 0.18596734994318365 -0.05410095197051226 2.1280597886673885e-05 0.0001347652884868211 9.775937574948925e-05 -9.2907232710653e-05 0.008790243862416308 0.18792258563068798
15.25 -0.14221159802117309 0.005118067175030147 5.68884441848324e-05 -5.344257285477339e-05 -5.425298617736406e-05 5.072035251163966e-05 -0.04729537728124826 -0.18242818180735906
15.5 -0.02704834066860587 0.23295136963259191 -2.070621491538335e-05 -8.839854754261042e-05 7.309552825818247e-05 1.5490001953752998e-06 -0.17675355969256887 0.11051278878169202
15.75 0.06206574333207093 -0.14147320315716408 -7.372952806443757e-05 -1.1668029568128786e-05 -4.5887286313864656e-05 -1.8727187526845634e-05 0.1532858217049425 0.01511580910050804
16.0 -0.14683574871374339 -0.047854915273649656 -3.418825843342554e-05 0.0001017276755807894 2.8501492582539425e-05 7.536103550747858e-05 -0.1247962111863421 -0.05369141606540475
16.25 0.06574658981922543 0.20017658397118188 0.00011541255994030845 1.5883502196306387e-06 -6.84335389169619e-05 -7.136116128092255e-05 0.09899642580789796 0.23624371903509708
16.5 0.0142421094453044 -0.09371053078121702 -2.4725393989754983e-05 -0.00010783007171027963 5.415884963773775e-05 8.554695045005244e-05 0.06920027905618406 -0.008220364967338467
16.75 -0.19933486490399485 0.0398086185484814 -0.00016328567038879758 -2.2188457551965878e-05 -5.4999570233848035e-05 -0.00013800301841562266 -0.1868094755598145 0.0841891841425216
17.0 0.08065499864672834 0.0934723551387123 0.00011119312095232673 0.00012739895343079084 9.257728759776855e-05 0.00010969054158832024 0.16620937240767478 -0.026014442261259776
17.25 -0.008482474019816222 -0.15607047952142603 0.00011465574676471192 -9.709689554514726e-05 5.3527212160165e-06 -0.00011558033862336107 -0.009018263734085319 -0.08023141089031088
17.5 -0.11711805858715056 0.10653353395487858 -0.0002059129455146228 -0.00011661871365476082 2.6667520091723585e-05 0.00018186274815404412 0.08586749820414052 0.18470301401938638
17.75 0.09493826863615958 0.0302871183179826 1.156089009058799e-05 0.00017757216969562325 -0.00010168609132919044 -0.00010648325367648207 -0.002010808213749299 -0.11931846037099686
18.0 -0.10097724856326162 -0.14185132985362658 0.00013549893951493849 2.506096818886031e-05 1.587288009586496e-05 0.00011256740701607725 -0.04479947985250885 0.07034070785902882
18.25 -0.09498572133861544 0.06190582700950559 -3.487328935931956e-05 -0.00028836985546685004 -5.727688568272262e-05 -0.00023685858868393575 0.2020299315696691 0.13394110094519385
18.5 0.11861375795834189 -0.09386183874712632 -9.337070502545868e-05 0.00010388272505068238 4.5881383501700926e-05 0.00011342253779447105 -0.12019653986035869 0.058846561885866275
18.75 -0.06671806952720429 -0.11073452805877392 8.356731946478792e-05 0.00014001802458629914 2.320100653399918e-05 -0.0001457227502042334 0.048902650990784335 0.1324462692055859
19.0 -0.05243177880637848 0.10122852903339531 8.534859661933706e-05 -0.00023490792356083547 5.931842347621456e-05 0.00019743809845770434 0.06832829457635499 -0.1812017314958213
19.25 0.02946132886060277 -0.15544629437022855 -0.00010959726204359872 -2.395470308594417e-05 1.4769483526707247e-05 -9.92508481968256e-05 -0.01422752815554916 0.05904437027522516
19.5 -0.1107425166077298 -0.1554606234295223 -0.00011356128982206364 0.0001432246808819765 -8.496543114643615e-05 0.00012125149657485049 0.20167757292712224 0.03881373065075892
19.75 0.07094010955214437 0.12450577844677987 0.00017400265997722443 -3.503211420857513e-05 2.3960620354591055e-05 -0.0001436648614090526 -0.048708166694768684 -0.07139642664067153
20.0 0.06932455942645879 -0.048881974264531294 -1.4132586702305533e-05 -0.00012557620500268233 -9.279699651998221e-05 6.529246924739872e-05 0.05861553174802084 0.1725073029204719
20.25 -0.12541997980103123 -0.14989320050460206 -0.00019201546297873003 9.643945921324548e-06 4.557325511343043e-05 -0.00016923083829460938 -0.0883289269754284 -0.06770368942918434
20.5 0.10742672340588516 0.06997187816777517 5.106835021187654e-05 0.00012478069907133859 -1.3304333304493699e-05 0.00010876221573186167 -0.0981561600850411 0.08629646862921155
20.75 0.14842224188355496 0.03684717352217383 0.00015591063004848608 -5.174409207760221e-06 0.00012071841832193949 -6.441401286609637e-05 0.10705747917275538 -0.11385860747376318
21.0 -0.12075345432391354 -0.026138947468424392 -0.00014608974587777064 -5.83304189181534e-05 -9.395102213367628e-05 9.844956116344687e-05 -0.05814615474412711 0.029158243791822344
21.25 -0.018328155061099527 0.11054564856986933 -4.4786299012140326e-05 5.1148409599710424e-05 5.7354093667577675e-05 -1.587991886892721e-05 0.11454647945346183 0.09749280477077611
21.5 0.0972110185668349 -0.019392603146579368 5.29144794486683e-05 0.00011916497488516419 -0.00010441136515892041 -1.454561250441079e-05 0.011506212902384141 -0.1266561646698003
21.75 -0.13161794254800446 0.007382924781982471 7.341577523035277e-05 -9.428772348938525e-05 8.575777431698327e-05 -5.324922047101106e-05 0.0561532042848455 0.09615807641388327
22.0 0.012731430585603165 0.09422697184797584 -3.9636075589492725e-05 -8.813936340916382e-05 -7.979380571918968e-05 -1.0401687771683597e-05 0.1597921325912122 0.005520200159949293
22.25 0.06117143174806131 -0.03774350219902385 -0.00013888237392623349 0.00013257566605855955 0.00015221497852004002 4.8887579526117905e-05 -0.12699567839466733 0.007272154183508116
22.5 -0.13146217705230356 0.08141356492788845 9.712688287529428e-05 7.59951329861659e-05 -0.00010163441798111125 -2.8861739865500497e-05 0.05703987880170652 0.03787997712718629
22.75 -0.00033885130948171915 0.08754424922948396 0.00016851890761500763 -7.803514509243352e-05 7.84068424700736e-05 0.00013760935630052862 0.06732965958463705 -0.13823733681860204
23.0 -0.01217464963283857 -0.08754194535886968 -0.00030425675069221925 -3.7753806270713404e-05 -0.000229933525980531 -0.00012789242356769375 -0.061616750438412304 0.06960214468627776
23.25 -0.06337260639060725 0.09890618013382865 2.4048173547150376e-05 0.00013944343659349736 8.162377353371613e-05 6.562638199388785e-05 0.08380681692716711 -0.081547394598986
23.5 0.0708766393885316 0.07752683275738914 0.0002925066248841406 2.9397684300355113e-06 -6.427796892117076e-05 -0.00022658478137452197 -0.024650333053922127 -0.12978963907122243
23.75 -0.052604160238451186 -0.06566851128311996 -0.00017954695699243695 -0.00019378114165854722 0.0001697445512859642 0.00013831098009756463 0.14266076964054922 0.09825060236457714
24.0 -0.0969006541677262 0.06651744416808918 -0.00021783223656131413 6.817753067043126e-05 -4.178049421084691e-05 -0.00018005477543676576 -0.015353078494496408 -0.038515666816658564
24.25 0.07646500903760435 0.014588263233708203 0.00010552330095154084 0.00033225068965677757 1.89266209885983e-06 0.00029094268772501494 -0.195433879051262 -0.05601786616458519
24.5 -0.04528325397116584 -0.09594109434233708 0.0002632807238315465 -0.00023579002784388165 -0.00011948773441513491 -0.0002646147060797349 0.09431059770919453 -0.05831057676841706
24.75 -0.07793097312056425 0.07197483884061144 -0.0002078079624178511 -0.0002526473856523846 8.087831120486065e-07 0.0002550571027036553 0.03623326358692584 -0.1429172492684576
25.0 0.07704358059032436 -0.08202602345201176 -8.146547544574925e-05 0.0002733391343520088 -6.30306881772677e-06 -0.00023045749587313568 0.0014419748605667346 0.10109845638314705
25.25 -0.09123930813495196 -0.04606545613596274 0.00036160982437705836 -1.5292594546182064e-05 3.409944897916631e-06 0.00028332053175505003 0.14705379068245583 -0.017247816455084858
25.5 0.07579068035932338 0.05744363854055129 -0.0002979683426938412 -0.00032901152486713466 -0.00020280657365286591 -0.00030329939537608667 -0.08105940999088945 0.07564269281221846
25.75 -0.02784100862837248 -0.08782082774703517 -0.00010651277904936174 0.00026252727049697283 0.00016245525480582416 0.00014897371548448118 0.06957328612633727 0.022991444872107872
26.0 -0.08993624845765225 -0.01922603318098426 0.00020826285800400765 0.00025134515256189106 -3.8092769150360766e-05 -0.00027441452673823924 -0.09980568906409955 -0.12419879957830918
26.25 0.10383900440213717 0.03478110220703784 0.00015112390330547035 -0.00038406055827014206 7.797193387999028e-05 0.0003214048404511576 0.02438126490620446 -0.0038362245450507954
26.5 0.06680308578299354 -0.0872041722357161 -0.00017794570252786272 -0.0001613572703567646 7.500925469283988e-05 -0.00017977453979516734 0.15989236524253808 -0.05096925022405464
26.75 -0.04791284525496839 -0.0036695724312850037 -0.0003288130050152912 9.172094369087013e-05 -0.00025049934572128987 0.00012758921463619743 -0.04478149826722688 -0.06868086309156725
27.0 0.09933227594668496 0.07194671986051888 0.000237617502184868 0.00020077888610219572 0.00020869990295981972 -0.00016624860647415074 0.04109402910799851 0.07924014522954008
27.25 -0.029350056280379275 -0.03598770908650299 6.155138685148335e-05 -0.0003640535597286244 -0.00012604978506584947 0.0002647578585305703 0.023605417200593438 -0.07102572772983964
27.5 -0.03434170181853901 0.059084454990184714 -0.0002922230660631737 8.120965544079745e-05 1.4067538416298998e-06 -0.00024082405178798189 -0.07794284326804456 0.12040998024616043
27.75 0.13091439481383196 -0.07325642990335814 0.0001280057508286301 0.00026965354577471 3.0658945305406025e-05 0.00024815945242651625 0.005736197535858509 -0.06698745345767342
28.0 -0.00787274871775151 0.012196303624579519 0.00023768928011440028 -0.00023268516465150803 -2.461363774832535e-05 -0.00025758038741479397 -0.10698850534155008 -0.05248196503744578
28.25 0.038930619511135765 0.15318389397917603 -0.00020380374501730304 -6.637667099319567e-05 3.4571874787580256e-05 0.0001726819481154877 0.13132391797706006 -0.04322343032630193
28.5 -0.006626007127647597 -0.04014810523939208 -0.00021310839758430236 0.0001915015946304845 8.830604613621299e-05 -0.0002200795776863305 0.0529132443946419 -0.07231372815296273
