# GHz S RI R 50.0 
!freq ReS11 ImS11 ReS21 ImS21 ReS12 ImS12 ReS22 ImS22
1.0 0.7062790357004688 -0.015332939185790985 -9.934406976727318e-07 -2.7285321988917724e-05 2.6772830176676488e-05 -4.386133638955499e-06 0.13906509897936484 -0.8196306272439235
1.25 -0.15967029797547083 -0.5025076282507335 1.5060328822352102e-05 4.7237561831394784e-05 -8.194768304178683e-06 -1.892679405997143e-05 0.4552455674703668 0.6788729528398452
1.5 -0.18550194522299654 0.548851869950633 -3.8418267890221356e-05 -1.4502622449691478e-05 -1.0347203872602439e-05 1.9751745034804054e-05 -0.6629117310808967 -0.3989927957752679
1.75 0.42426183424974784 -0.15081589022462227 3.0009050387723077e-05 5.224049173908592e-06 9.400369201124542e-06 -8.077608531305964e-06 0.48257914839447513 -0.1748767921687849
2.0 -0.19229911312536274 -0.343582334531529 -2.7449871224089817e-05 -4.341710101366947e-06 3.3522867805453435e-06 -1.2233702366043565e-05 -0.22216397422902157 0.17594110957161005
2.25 0.04836711958398279 0.4269813726728094 2.8163108350344394e-05 -9.48231584476851e-06 3.199840701098386e-06 1.7697563817287112e-05 0.3124779387931479 -0.24239078091689895
2.5 0.05097189734941356 0.5307885042267094 4.6011737297592015e-06 -1.447294626510999e-05 -1.960372267541269e-05 6.586001567574183e-06 -0.33061646326039834 -0.3859126505085248
2.75 0.09432003383185242 -0.6997487346652463 -1.8376212161935432e-05 -2.1869272417901927e-05 2.4151011672057438e-05 -1.7665524489374767e-05 0.2540284072315825 0.4732475834682654
3.0 -0.5160114444970505 0.7198204255700726 9.213012077174257e-06 -4.115550493357475e-05 -3.3976004294801915e-05 -4.953974068544145e-07 -0.22470833931982226 -0.6580453430965637
3.25 0.9778275839746347 -0.053378324234223395 -7.055018402590755e-06 3.303336133980895e-05 4.368390407756912e-05 5.682841056801245e-05 -0.17669353739788882 0.6894530945545423
3.5 -0.950040048298562 -0.16415884288679655 -3.990954624220214e-05 1.9874604143378736e-06 -2.5991008138518636e-05 -2.5221646993999955e-05 0.5363648396483849 -0.5813803060893726
3.75 0.5529761351742031 0.7826548426364404 1.7203643517052767e-05 3.2325984251470026e-05 -3.859076929644009e-06 6.049925890502579e-05 -0.7732144698356265 0.06841734217776674
4.0 -0.13343525148298374 -0.6900182834803807 -2.4916360312047586e-05 -1.347466530610969e-05 1.845071100078361e-05 1.28148767967738e-05 0.5826613674119819 0.11583601374088523
4.25 -0.5241367302780421 0.6405141172329271 -3.4785214418128712e-06 -3.7694149105365894e-05 -2.4925872595459742e-05 -2.374071286198095e-05 -0.43203814718850486 -0.6842747799429455
4.5 0.7139923547269883 -0.33623254111373135 1.8210398269249055e-05 2.9684504100156538e-05 2.5925338474237963e-05 3.42353219035399e-05 0.12947399235985035 0.6926663474036521
4.75 -0.6438064049269407 -0.16873817981512915 -9.30971084278583e-06 -2.5453256117201928e-05 -2.8988470511624424e-05 -3.54199077937798e-06 0.3943155291661265 -0.676259224608719
5.0 0.24048773011817526 0.8043859393204077 -1.4958854767380292e-05 9.510813745114297e-06 -5.240617465869072e-05 3.4194249390357844e-05 -0.6851755655546226 0.4667189760257048
5.25 -0.04603449405531554 -0.7231463770400063 2.283517046437787e-05 1.1318532300967922e-05 6.047407849087114e-05 -4.887429955703073e-05 0.7851804903825396 0.23829203992780532
5.5 -0.5346957802638624 0.37420465917728973 7.444343600312924e-06 -4.154784478900113e-06 -3.910420171626456e-05 1.3263320922973653e-05 -0.5859271342652934 -0.4967238879391548
5.75 0.5677143561965978 0.030328679732469832 -2.122386454889869e-05 -1.9510038777098653e-06 1.4781402290558125e-05 3.1492235171136887e-06 0.0368856469944282 0.7857574079799894
6.0 -0.5419530669089888 -0.25990337052924367 1.3804631888369163e-05 2.245536973280535e-05 -6.560929602806941e-06 2.1534240903318155e-05 0.5840201828760421 -0.5036669077145797
6.25 -0.04158259603957559 0.6242426758445154 -8.217208024412438e-06 -2.499227232801932e-06 -1.4095175369100802e-05 1.2098157832269366e-05 -0.5846225386829441 0.1287137637573652
6.5 0.12942359992465524 -0.4753882368744572 3.0582044162136045e-05 -1.6952346585635706e-05 1.0525012522282632e-05 -1.919724612056952e-05 0.4302238919117972 0.6081654140908763
6.75 -0.641036961352341 0.11730582336896139 -3.785717214043602e-05 -1.7255145904160952e-06 -1.6436366294075397e-05 -3.2495126130578624e-05 -0.06155374367510452 -0.5846971231431151
7.0 0.5592450789492135 0.0616688872057344 8.978499297952993e-06 3.626268356082038e-05 -2.677702943561695e-05 3.139327646129935e-05 -0.2750881441331302 0.4664339849400665
7.25 -0.2808731314090076 -0.2857426653302697 2.0924033012377694e-05 -8.904210832830776e-06 3.021364412430765e-05 -6.407443868732103e-05 0.6479333068377093 0.024242296526074902
7.5 -0.3761530168172254 0.5739828662550801 -5.1229646841708296e-05 -2.0825812016734816e-05 -5.1582819867714634e-05 3.9316998899433994e-05 -0.3491492401428403 -0.16451698480605986
7.75 0.23513107184079302 -0.32304735828946163 -2.3141772232126034e-05 4.7548355883581474e-05 7.10800594195263e-05 -8.562360967407397e-06 0.21928776584696058 0.445324977305428
8.0 -0.3802418167077647 -0.2646472687292468 6.136852728301726e-05 -1.019950295641091e-05 -3.613520402736047e-05 1.256167489662061e-05 0.20807126059690523 -0.5054247685575455
8.25 0.27266117143132473 0.48178295068334087 -1.3911384505124866e-05 -2.1761695154316567e-05 1.292604063605804e-06 3.3115971680300177e-06 -0.3726434034410417 0.08658982422456096
8.5 0.05726228795102031 -0.33750471676135696 -2.1092460275924763e-05 4.174669959197515e-05 7.662560866790617e-06 2.2930301855366615e-05 0.37514040116233144 0.036694926377060184
8.75 -0.39083056370668523 0.12017091151094456 4.139363815682606e-05 9.98581108690917e-06 5.274811124827678e-07 -4.222346072114288e-05 -0.25348362034905947 -0.4367507766518915
9.0 0.3425504859002525 0.0930031805870377 -4.574473961033913e-06 -3.687589055882391e-05 9.65418298375332e-07 3.693811907501505e-05 0.029367647225252314 0.30245164418691656
9.25 -0.15612503502550829 -0.284516844608634 -3.10307891745167e-05 -1.4576585845473584e-05 2.9475525908825987e-05 -3.262752808533e-05 0.35909587534851195 -0.09737650297013817
9.5 -0.11767487500246226 0.34224432515117986 -2.4344213287707638e-05 3.764200813715153e-05 -5.069334272497613e-05 1.4390643538043644e-05 -0.34360832981948225 0.1749864508328946
9.75 0.2969867094139416 -0.13509984772109868 3.79517173258348e-05 -2.3313677544402106e-07 5.986579859640964e-05 -8.905545389739799e-07 0.15880097398563303 0.20021141635562062
10.0 -0.2377794505404645 -0.17039570964242365 -8.107911179480753e-09 -2.432416462129029e-05 -1.6887621363687482e-05 -2.7641246410932052e-05 0.020856118564336334 -0.34719601704024866
10.25 0.15358669683262255 0.250296673510051 -2.6522630025380297e-05 8.797760424196824e-06 4.555851713844254e-05 5.4887605608097855e-06 -0.021387139215672705 0.26213292817168293
10.5 0.24706535244358913 -0.0499023756256905 1.7453465747823918e-05 2.0829744084425463e-05 -1.7417182813463267e-05 -6.790682505774379e-06 0.24273158813746132 -0.17672791231562512
10.75 -0.2988996308606841 0.03609314652600361 1.485699238585697e-05 -1.6170914801511502e-05 9.704747641953684e-06 -5.679117334515087e-06 -0.21304670329987516 -0.023942398604050452
11.0 0.16531380714835953 0.1630571288498654 -2.1882758356705617e-05 -3.939151715771754e-05 -3.119853587435784e-05 6.451047736008818e-06 0.22693419449114252 0.2803532925119647
11.25 0.03899941854508829 -0.18084535586927164 1.2618643668383249e-06 4.117640415296925e-05 5.1585513357023145e-05 -8.77639278452886e-06 -0.05973599859215395 -0.17771084213702665
11.5 -0.11034208645143972 0.3273070201551338 2.651783789427325e-05 4.290109024652961e-06 -4.568218701157133e-05 2.2365194584832446e-05 -0.21413241027841232 0.12928111546766066
11.75 0.17128320942325642 0.013925570639593654 1.5186231007113872e-05 -4.633209296129598e-05 2.7634616554901596e-05 4.3269509997894775e-05 0.3507717473521656 -0.11711899204954618
12.0 -0.19923710654222182 -0.09755131690536702 -3.8589869971735106e-05 4.6702461844617876e-06 -4.821969735974723e-05 -3.189840773386703e-05 -0.05816264320139253 -0.10700617639070546
12.25 -0.05783288377145249 0.2388198542606551 3.474991854495157e-06 1.9317069072716274e-05 9.481305451468013e-06 3.236074356418879e-05 -0.03325502831793635 0.2733873569691141
12.5 0.03450655577824304 -0.19446352758665095 3.2964967611327866e-05 -6.2417892340593895e-06 -6.297047263166856e-06 -4.2795712706954854e-05 0.21616266970600173 -0.15995383924239043
12.75 -0.17146555433483524 0.1135732307128565 -3.142660226297885e-05 -4.80420577298301e-05 9.786542346432733e-06 4.976434688891304e-05 -0.14160746250304934 -0.06432603171549454
13.0 0.15027899736269434 0.1797260203148453 -3.708045352916893e-05 2.930539189362327e-05 -1.8874716573759652e-05 -3.4455876079476936e-05 0.23298036574315895 0.15563231672889105
13.25 -0.17891106680226407 -0.16265596241440963 3.676713091806105e-05 2.0285379780752605e-05 -5.243754493691017e-06 2.5425669948792712e-05 0.08525578951658652 -0.17081350642474435
13.5 -0.19542299694952284 0.027982890874450383 3.57754463259227e-05 -2.7841736186781427e-05 -1.0688339095597904e-07 -5.445379694804972e-05 -0.1736308569436435 0.0414535839946909
13.75 0.2230128800528444 -0.08775086198224975 -6.586655621528e-05 -2.525293514619494e-05 1.8974248717038276e-05 7.490225884524633e-05 0.24539124884113334 0.055439186892855465
14.0 -0.1565253575088609 0.01152989249467222 1.3436889186419629e-05 6.16075076270442e-05 -3.845128837708694e-05 -6.09841217393139e-05 -0.12431390742706666 -0.14360121172305682
14.25 -0.08470409021271122 0.22389594907367266 4.4130165529864215e-05 -1.5264950127606117e-05 1.0781104601067409e-05 2.7097560686215923e-05 0.01995323799046729 0.14823827297872919
14.5 0.019871715298460754 -0.18049772421789628 -2.3356971571711075e-06 -1.4814083922613634e-05 7.263618112161023e-06 -4.645714124619916e-06 0.207391533243314 -0.08862386534135014
14.75 -0.16667590589064296 -0.04948831106175286 -5.442491506205194e-05 -1.0098753393978487e-06 -2.6771061326785953e-05 3.0847519304477314e-05 -0.20017821481545847 0.030532523332049283
15.0 0.15742369085825936 0.15671800874350048 3.842125558372439e-05 2.0781059654118586e-05 -1.3829045858718362e-05 -3.9484491561343384e-05 0.07318187276915875 0.1301380319474151
15.25 -0.007212715980055823 -0.07522750427363181 2.3667108187580512e-05 -2.7152617753039776e-05 -1.325136428207781e-05 2.9880444285055846e-05 -0.10185224117081758 -0.17584883327070164
15.5 -0.181116801564971 0.16250505887369893 -3.199326020612e-05 -3.779669907947556e-05 3.8613291764246644e-05 -2.5259637303593948e-05 -0.1578508920353283 0.1548155250123545
15.75 0.13348120653950607 -0.016661290421473934 1.0090647359134783e-07 5.3023440305545656e-05 -7.535160527318626e-06 5.31623572636859e-05 0.15185590016308612 -0.010069361036238456
16.0 -0.051596320929487655 -0.12247218380489572 2.918155028676016e-05 -2.7349049795618087e-05 1.3819147413982044e-05 -3.7598718645497665e-05 -0.13154260588877348 -0.05278221035009746
16.25 -0.03496523115606741 0.21167259358597568 3.2422758957366296e-06 -3.335951258433933e-05 -3.621716356505585e-05 1.560123751071503e-05 0.08930570862693632 0.24445226691556077
16.5 0.06439212832157397 -0.0624538053583758 -2.395628041132544e-05 5.394939522755333e-06 1.8568140004079126e-05 -1.0094651708821361e-05 0.09495424408880303 0.0034507867177926144
16.75 -0.18420873402880408 -0.007146566767655793 7.712885444278153e-06 1.9699877680962917e-05 -1.5775820163706614e-05 1.3890493682561193e-05 -0.196697787432915 0.041451432058354026
17.0 0.06345604493891055 0.10490261327312123 3.071011206357677e-05 -1.1049987122685365e-05 1.70082574345229e-05 -8.234553556244745e-06 0.16287012577631427 0.04166772900175058
17.25 -0.013862497462016829 -0.15106288755581382 -1.0086053617192335e-05 -7.43090559069907e-06 -3.774686041232254e-06 -9.81410740694024e-07 0.03805966183666168 -0.10837551600513362
17.5 -0.08524352010498959 0.12370633715911633 -1.0622568458187302e-06 -1.2902931655970537e-05 -8.66837300236831e-06 4.57215871832199e-06 -0.02253142776194343 0.17379967576965574
17.75 0.08204694902119769 -0.006536051066845863 3.486853912138979e-06 2.5195875048399577e-05 -1.5109952059319167e-05 -1.7314065397364123e-05 0.1068805178946011 -0.09585814209968269
18.0 -0.1500622747853686 -0.12343693074967656 2.037858598104911e-05 -1.122889949653888e-05 6.4944238683627865e-06 2.4194196361163e-06 -0.06433970435065547 -0.005661826904402714
18.25 0.0140717151463996 0.041434156744159595 -2.2883310349757575e-05 -3.2892885509612504e-05 -2.471043129111464e-05 -2.5627546578461555e-05 0.07200382984590348 0.21778222421355564
18.5 0.07719612914141868 -0.1465732856657608 -3.3049633378495215e-06 1.5846286504355583e-05 2.2725427417436076e-05 8.359689485617945e-06 -0.0276134221656303 -0.051613450604040795
18.75 -0.1401157654289481 -0.01940748635922379 1.8888657064981576e-05 1.524415825857815e-05 -1.7185281655589015e-05 -2.1526188830258044e-05 -0.05847259509795766 0.1281336840730619
19.0 0.04762080318316697 0.02071199406472673 -1.0055321275897072e-05 -1.969268425815658e-05 1.1096169693571759e-05 1.3440664901220877e-05 0.17016075290496038 -0.033031612656600456
19.25 -0.04582212186504019 -0.2001603806185983 -4.4988094099635605e-05 -1.2462881355824257e-05 7.280591668688779e-06 -3.0342054042083568e-05 -0.029516298093710425 -0.12081892229964192
19.5 -0.05167769342003718 0.02705670012475203 1.355630045534061e-05 3.867837192529505e-05 1.707162178817789e-05 2.335322017442677e-05 0.08410499729469191 0.11068890075167695
19.75 0.15329439348678947 0.04065503027275341 1.977815767753216e-05 -2.3369797528222898e-05 -1.095097793415372e-05 -1.2340699341999841e-05 0.16282392176133123 -0.16339939630998288
20.0 -0.052456541530437883 -0.1345688428119508 -3.22918524406416e-05 -1.563637331128529e-05 1.1994934644706926e-05 2.3370045813382474e-05 -0.0921734732686714 0.1030139613263511
20.25 -0.055450643517747165 0.02287758038903484 -1.3464109457038626e-05 2.270904812444665e-05 -2.2720226179117616e-05 -1.7460695748612062e-05 0.08015414796687298 0.07174930688593882
20.5 0.18909012295027602 -0.03296944428740996 1.3273462968515663e-05 8.872248171097109e-06 3.952287033272488e-06 1.2769001502993597e-05 -0.2001924847094328 -0.0916577612977494
20.75 -0.05621151346441433 -0.045446618226277255 1.9569333700607022e-05 -2.7714371310599678e-06 4.395794696255705e-06 -1.4306913896506147e-05 0.047531793908628106 0.03209643875800067
21.0 -0.06531310702941082 0.10014102303637572 -1.10809215961175e-05 -1.587854208708779e-05 -2.8818391487339133e-05 9.76003215348399e-06 0.14760941700491392 -0.08401800585263872
21.25 0.11220060527433251 -0.010849645664887803 5.680552720722413e-06 2.9640522124420224e-06 -6.242801364431067e-06 3.0381950056919e-06 -0.06026523495021596 0.12220647476954671
21.5 -0.10570032865519159 0.037860712160313024 1.2694157249980289e-05 -1.0363392158296766e-05 -3.6925053328845286e-07 1.212413489402741e-05 0.10598833254143497 0.002029101111075432
21.75 -0.021668505056186435 0.0952367661810343 -8.328879099291301e-06 -4.930066723348011e-06 2.78656890983913e-07 -2.5398210839910787e-06 0.024552956364536457 -0.1380743915563495
22.0 0.011085388541279637 -0.10074739940823844 1.821118579354497e-05 7.930039173101022e-06 1.577471884808208e-05 -1.2485633584564784e-05 0.07655309297037484 0.15625098373289312
22.25 -0.04920162250903956 0.11480564846317978 -5.401943397024791e-06 -9.673010326345976e-06 -9.625967201070811e-06 1.120173793983581e-05 0.06627869999528518 -0.0056771506927144055
22.5 0.03453179997721776 0.09973708629783072 3.1254499691869877e-06 7.919983105266931e-06 -9.810404001348449e-06 -3.4910695008311013e-06 -0.13837042303214467 -0.0738110167811793
22.75 -0.11136177308276632 -0.038391549699921965 1.5940486963530975e-05 -2.5565473391993215e-05 8.778580624045267e-06 8.878812470068534e-06 0.1064225510061109 0.046809301664389444
23.0 -0.004779852122151984 0.08962906793584552 -1.3279305601652246e-05 -2.2522595304614766e-05 1.5317089021778307e-06 -2.1278187229071313e-05 0.05425219887437091 -0.10549031020807054
23.25 0.05248924079059471 -0.031140662548564 2.6696347922488623e-06 5.25945577986e-05 2.980655793910849e-05 3.495767736850566e-05 -0.09752642051893315 0.006776645031884354
23.5 -0.10325112591092067 0.06272086140299143 1.268742344788344e-05 -1.8445553730317984e-05 -2.0616169304115148e-05 -3.568899280697994e-06 0.1400256404314009 -0.08360271565102217
23.75 0.053994148257295 0.08060833708909225 -5.584676396402795e-06 -9.373246261216947e-06 9.704269310890185e-07 8.781605430959407e-06 0.009957183303213879 -0.06770943763352309
24.0 -0.03717623055402465 -0.0710813477174131 -2.0981952295222673e-05 -7.38195317189472e-06 1.7798613877527338e-05 -1.7605082181284203e-05 -0.05743103488352603 0.1696342289805483
24.25 -0.08996980309204008 0.05865974745672167 -1.3991916916967363e-05 1.664331832617534e-05 -1.694668414147496e-05 1.3174404042993029e-05 -0.011631871757281309 -0.1206241563855733
24.5 0.08731204984954455 -0.023357461617430478 3.497158532492939e-05 5.522591814298523e-06 2.0279649303223716e-05 -1.6966462909364046e-05 -0.09558944204456118 -0.14444491321666045
24.75 -0.0742195023458461 -0.08203741758314119 1.3342251300785013e-05 -3.089246210444918e-05 -2.0176893665898103e-05 1.4518304228486491e-05 0.10897277525944583 0.04136389611237137
25.0 0.03171281024992792 0.06446841967741972 -5.3746691658325716e-05 1.7146696359170815e-05 4.277907945537493e-05 -3.310358963828676e-05 0.1054405996742047 -0.08814089905305002
25.25 0.011457113673763068 -0.12358373434323555 6.201725195470136e-05 1.398140276163209e-05 -4.335281560561716e-06 4.411197275076061e-05 -0.027050031840977387 0.10211734364942679
25.5 -0.07235384206187638 0.05272953330784273 -8.726463872602247e-06 -3.985929017319525e-05 -4.813825011199319e-06 -2.9117981821617726e-05 0.12256321334986683 0.02536698006441035
25.75 0.0619860696883696 -0.023276045993027912 -4.618955973234757e-05 7.379463480246063e-06 -8.32164819534496e-06 3.6352291217842586e-05 -0.11951604072189756 -0.024969836190548052
26.0 -0.0337568761644966 -0.12076293232832336 3.1329826298818815e-05 4.554147345621241e-05 1.3498945368265938e-05 -5.282515315016376e-05 0.012510692676168611 0.028399102453623346
26.25 -0.01146927662366748 0.06363316549379347 2.8480564678571678e-05 -3.071090763302636e-05 -4.3774128466532e-06 3.4955267543636286e-05 0.0955997231980817 -0.16684685953167716
26.5 0.10763472353933479 -0.00478615186641726 -2.89976814104724e-06 -3.298776385843007e-05 1.6052676557490188e-05 -7.995071119086911e-06 -0.025271947238403203 -0.06586483386471284
26.75 0.013712351544558299 -0.09014723734388144 -5.744888840316724e-05 -1.9743218872287055e-05 -3.8113920174151535e-05 -5.171882762912946e-06 0.05488423906361724 0.10258356795264352
27.0 0.04561978883252513 0.10612325858764321 3.420672821477508e-05 3.197002183987193e-05 2.7491991439796334e-05 -2.028236179972516e-05 0.08796631255984932 -0.07957970876066327
27.25 0.03867347319612949 -0.023035380094994784 2.1788595681894723e-06 -2.8334923126421973e-05 -1.7839493565583623e-06 1.638928278294555e-05 -0.07745815518519387 0.04281956985756165
27.5 -0.08819187254616614 0.02586183314411709 -1.0508583933267081e-05 9.095406080567854e-07 -7.603187875572016e-06 -7.566205111831869e-06 0.06642187053375635 0.030764162387438693
27.75 0.12948549400198067 -0.02552816726056498 -1.4488106445457006e-05 2.5794559159427437e-05 -2.520808134327717e-05 1.613892640512518e-05 -0.14818105324858932 -0.055301359241214126
28.0 0.018466239836747445 -0.019585842035476923 1.6772770778680598e-05 -1.5150213277198262e-05 6.236958136625266e-06 -1.06062114915264e-05 0.03315966080199778 0.01784551441060253
28.25 0.019870453627556413 0.1555357803737245 9.381760463650185e-06 -1.285067193758158e-05 -1.1768821355897057e-05 -2.9797847341759234e-06 0.07167248449330277 -0.13145611932741155
28.5 -0.0050620107571788635 -0.027197376620471503 -4.770336882619416e-05 -1.6345717645950092e-05 4.4694237382009404e-05 -9.154812997531119e-06 -0.020977175621724117 0.04020577650473056
