# GHz S RI R 50.0 
!freq ReS11 ImS11 ReS21 ImS21 ReS12 ImS12 ReS22 ImS22
1.0 0.6266576925760907 0.17914689023869676 1.3160849085034564e-05 -3.7022801045194686e-05 1.8648039182148203e-05 1.5769635785813012e-05 0.13608929133256406 -0.8192661670166153
1.25 0.08423043250406592 -0.5070710564897656 2.088324439774604e-05 4.2341218756695945e-05 1.2575958292551592e-05 -2.2178696171786427e-05 0.45823991552827126 0.6765347774375892
1.5 -0.3972731953339804 0.4098007313347982 -2.8100690008439134e-05 -2.3826156624442133e-05 -2.0852255591298756e-05 1.0574438608399032e-05 -0.6648935112298449 -0.3953055681463089
1.75 0.4485127745261512 0.12038408556518487 1.5270781320571007e-05 -9.34509987958634e-06 2.3469488886022243e-05 1.2551596899489157e-05 0.48116187878700645 -0.17856380414482767
2.0 0.008569509994723334 -0.42909444471405245 -4.268288769003796e-06 1.0637916083791329e-05 -9.271826032193238e-06 -1.2899238654862506e-05 -0.21931441224139164 0.17931214248184338
2.25 -0.1597649321851804 0.377128985234673 2.160770940178386e-05 -1.0598149619358433e-05 -1.628856152425056e-05 9.198996315893865e-06 0.30881484992006697 -0.24438591870298515
2.5 -0.22301328127028586 0.4795432975819179 4.086572621140169e-06 1.5820217055488886e-05 -2.2925343222695133e-05 6.420898762763409e-06 -0.3348433877317049 -0.38213583477006774
2.75 0.5780831996995242 -0.4341311139660307 5.119668340036126e-06 3.372078772560246e-07 2.17517226051731e-05 1.2959393295073774e-05 0.2590064750923929 0.4703097001722789
3.0 -0.892626771866049 0.1693731884650257 -3.0948825107021574e-06 -2.8904715428113335e-06 -1.9902352912717306e-05 -4.4290690513176204e-05 -0.23088372129024426 -0.6547593413616757
3.25 0.6967586364386232 0.6043897650715739 -6.453633607344268e-06 1.5706481708589286e-05 -1.9237631879894883e-06 4.329694582295907e-05 -0.16756555798589692 0.6915337794141362
3.5 -0.3923940905892581 -0.8804817066358549 -7.214685730154453e-06 -2.686523502796513e-05 1.7133160158821684e-05 -3.0513116949326333e-05 0.5265098523788985 -0.5886395446910743
3.75 -0.1469010545497692 0.886698876613395 -2.2773901647770423e-05 1.992868611027233e-05 -5.030240629017614e-05 -9.151799592868392e-06 -0.772789929074881 0.07716099447649749
4.0 0.5995268263102129 -0.44405923736982034 -1.3726570867159466e-05 9.822489930792794e-06 4.081632193083857e-05 2.8093887529169438e-05 0.5841446290558476 0.10553131291800354
4.25 -0.8758077238007412 -0.1100345993561258 -8.564151351697313e-07 -2.2176174084696e-05 -1.8713513038129783e-05 -3.0458070742024172e-05 -0.4400716928358469 -0.6778143803374399
4.5 0.5474404827796588 0.47889533240890103 3.038495513208941e-05 2.45930516983143e-05 -3.028538372262922e-05 1.4830585852134568e-05 0.14167387767099426 0.6902363974565799
4.75 0.17803021172830935 -0.7606909222374856 -2.262159629415348e-06 1.255244404781871e-05 3.6030650090821146e-05 -2.4638023331510067e-05 0.3778030761400838 -0.6835793233443795
5.0 -0.5916540176499412 0.5370394998557398 -1.1285493616301088e-05 1.541555519332707e-05 -4.829313860707442e-05 -6.658487364651609e-06 -0.6781402883396149 0.47682983947929125
5.25 0.6538692656295401 0.09318156161075136 -1.0336454967472187e-05 3.0843711807255813e-05 8.449176151158032e-07 2.09567257694312e-05 0.7883822959672554 0.22107847464006136
5.5 -0.475036047855963 -0.4563834485992444 1.3377846926789983e-05 -4.018368375405498e-06 1.7246956307563975e-06 -2.7067439988862503e-05 -0.5970073442570454 -0.485454760909132
5.75 0.027030543078474856 0.637044215749397 -9.371094412272109e-06 -9.930730966999974e-07 -1.3045114522728812e-05 6.455377017530685e-07 0.053316239418561895 0.7821937067466129
6.0 0.46735406135408286 -0.351147834639144 -1.3310765994379232e-05 2.6526988585726352e-05 1.383820587542443e-05 7.271342241766648e-06 0.5745754037154343 -0.515249227657842
6.25 -0.5687016675574069 0.0150623472506341 7.780577139519933e-06 -5.972099189289635e-06 -3.234183246063801e-05 -2.9058766156627367e-05 -0.5825676749813851 0.1409698561482723
6.5 0.3375263540137151 0.49821300600108936 1.070926045212467e-05 -6.466181598303965e-06 2.2266150717165494e-06 4.412081757993334e-05 0.43930028672501387 0.5999934300493871
6.75 -0.015666074588804813 -0.5834204802055158 1.549855549560472e-05 -1.883096017508332e-05 3.8900500192635815e-05 -2.393731189432053e-05 -0.07505042155378905 -0.5837099317596632
7.0 -0.32863732517183425 0.41099174282966455 1.7796912733146954e-05 8.79973633642841e-06 -1.0773358855174146e-05 1.7249371126453662e-05 -0.2623898157511577 0.4730306243542608
7.25 0.5430240105945718 0.18468665232777773 3.731679464483724e-05 9.610464482908192e-06 2.9413904992433692e-05 2.4684443833059805e-05 0.6478609625333379 0.014888741166138308
7.5 -0.4458020646893499 -0.20623464208125458 2.4159693820233387e-06 -4.0996855189753294e-05 -2.346971832899796e-05 -1.703837614674626e-05 -0.35498447553810897 -0.1497993482406792
7.75 -0.2262640581758497 0.4770137846080875 -1.673968750849243e-05 3.146597534899785e-05 -1.832906468288001e-05 7.931050214571019e-06 0.2279569715635248 0.44017740028526664
8.0 0.4609825811334418 -0.3040023332360461 3.7098820036698156e-05 2.5543750891504424e-05 -2.704653180955369e-05 6.692906915569275e-06 0.19553663118450262 -0.5097665777155563
8.25 -0.41726975677006206 0.08466502343949622 -2.386459771003678e-05 -3.284512442544059e-05 1.7031631543868234e-05 -2.6305322948641187e-05 -0.3697519935334449 0.09628439082803775
8.5 0.09166027771049345 0.4346810980810052 -2.677622770409498e-05 1.5365356733486487e-07 -4.572035334084442e-05 1.3369122505670163e-05 0.37586400861438196 0.02645225545750543
8.75 -0.025003169265469527 -0.3747854069843452 2.8972060555485793e-05 1.782435374401163e-05 4.592547580012973e-05 -7.822731096166524e-06 -0.2621500536838621 -0.43006796087374977
9.0 -0.31191972661817313 0.1616451224974046 2.8450606549388427e-06 -2.6728943852447228e-06 -2.7139712864506634e-05 -9.318802521045106e-06 0.037722738974547254 0.30317025861567204
9.25 0.3000593588986184 0.15201963561874215 -1.015175557003008e-05 -1.1757619030105185e-05 2.1369975439167564e-05 2.564098160072696e-05 0.3541006537584881 -0.10639594992916207
9.5 -0.06934607895541822 -0.31202299752188745 -1.16390315573471e-05 1.127276705597321e-05 -5.057571723034813e-06 -1.6016509482897108e-05 -0.3404634146325254 0.18192802743352476
9.75 -0.09104059401638115 0.2998139522854441 4.2708065485509713e-05 1.0358689798012856e-05 7.142810042264635e-06 7.887800821985901e-06 0.16421427351217222 0.19376911617052167
10.0 0.3005389554656539 -0.018743233725416197 5.74517538719179e-06 -3.095857127303892e-05 -1.8949613788016218e-06 -2.0751427389260387e-05 0.013364115428455309 -0.3474447936984509
10.25 -0.12464780980448237 -0.24516809740260576 -4.346199511812572e-05 -3.735350503647032e-06 4.479205417897683e-05 1.774666643782235e-05 -0.012840260756962278 0.26255260680136794
10.5 -0.07193680653890383 0.3148967048925685 1.0736423390899326e-06 2.9345512628824292e-05 -3.608508033170459e-05 -2.1356919238480362e-05 0.2387471234825948 -0.1811292206714069
10.75 0.2122642829174769 -0.022813239055991086 4.405203667562401e-05 -1.8777259422034754e-05 3.441218673631063e-05 4.245711548840236e-05 -0.212785773816326 -0.01610789405516752
11.0 -0.25138836463349434 -0.15990176880773058 -1.2722827337421389e-05 -3.943556077385673e-05 -3.377496293494799e-05 -3.328988250540201e-05 0.23301115015676815 0.27557100212008917
11.25 0.1000953309951535 0.31995441043948153 -3.3279830401537596e-05 2.7300193815468028e-05 3.2914667904996064e-05 3.434510048174017e-05 -0.06543400861554732 -0.17686075373576732
11.5 0.1434349220354772 -0.08484465718209672 4.444847807153002e-05 2.4819570399184283e-05 -3.986155457537463e-05 -2.2899046351129463e-05 -0.20846003803823632 0.13393811559742377
11.75 -0.275435832740407 0.09442127994648361 -5.967312663322972e-06 -2.5335291026201026e-05 2.505059908156271e-05 1.934969169190878e-05 0.3494068630451087 -0.12388564135251684
12.0 0.0812338798357572 0.22680807632089914 -4.73882410169996e-05 -1.6876550329455745e-05 -3.404343059639609e-05 -3.48683983815741e-05 -0.06309850551965812 -0.10213656739863036
12.25 -0.00655573970136912 -0.17433061255535873 -1.7276162604997445e-05 2.7628898535019014e-05 2.232536441294844e-05 2.0113466008817373e-05 -0.028651302410693143 0.27345489523541333
12.5 -0.23232012132699104 0.08080803807814449 3.4335433355029164e-05 1.0078320669937856e-05 -1.6831698374792002e-05 -2.5954101733618233e-05 0.21277207502029907 -0.16502799261161477
12.75 0.20648250426482015 0.019452884397109182 -7.823807777420937e-06 -2.8916976647356787e-05 1.2838949993051077e-05 3.955668909543656e-05 -0.1425343823404388 -0.05796067052483317
13.0 -0.16049541516191063 -0.04481604572877526 -3.128963325547489e-05 2.357323572826954e-05 -2.1934186851737733e-05 -5.339214303782566e-05 0.23546348991194851 0.15189468847876064
13.25 -0.28749183157982416 0.11957886193849801 -1.9040808000991605e-05 2.6918216242630653e-05 -3.460988868613475e-05 1.616080419921002e-05 0.08115782814111669 -0.17283970097829776
13.5 0.1457185588852578 -0.125990288516181 3.5214474288495405e-05 -1.7184281972030706e-05 2.9526524866475845e-05 -3.630329983828862e-05 -0.17114481339397136 0.04652652246707928
13.75 -0.11811737863418323 -0.09421481916476485 -4.225823768492222e-05 -3.5789548603609005e-05 -6.6464261908590125e-06 4.673166351535732e-05 0.24615684106335076 0.050697139628209764
14.0 0.0391783950977853 0.2525686561118492 -3.865714721274736e-06 2.9705577698946807e-05 -1.5749836950817185e-05 -3.4828824111324165e-05 -0.12746100649395092 -0.1409742095706088
14.25 -0.008476089639477491 -0.12297488814269619 3.0234285462132674e-05 1.723191671798432e-05 -3.3227817491169714e-07 2.114236824045825e-05 0.0248693153370253 0.14688866541992524
14.5 -0.2148028790681883 -0.029393755353068277 1.0492627562990944e-05 -3.029316704704781e-05 1.704568007685679e-05 -3.7276266299317626e-05 0.2053981227883372 -0.09158097984633345
14.75 0.13701605318210414 0.08124145100672636 -4.338825723965251e-05 1.1791041950432355e-05 -1.8627457350053198e-05 4.189307602193582e-05 -0.20075235712049522 0.03531862664908984
15.0 0.023430460426703284 -0.12848713670102496 9.16795340440563e-06 2.8774596049716402e-05 1.9306688357693784e-05 -3.327994340963954e-05 0.07505729408364706 0.12683187127228998
15.25 -0.13752541754799263 0.1703821389859045 1.8512260432260577e-05 -3.354351410426998e-05 -1.5511876640560763e-05 3.7885005582459246e-05 -0.10481676687806989 -0.1743618359823793
15.5 0.11825692042773861 0.049672242438808384 -2.9209978053934233e-05 -2.2895442112667816e-05 2.373769628894289e-05 -1.349968051005037e-05 -0.15526943946699598 0.1576938350177207
15.75 -0.12205925370064047 -0.14772683545715182 -1.6376681214881833e-05 4.62573129595462e-06 -1.364784729046049e-05 -5.912435216874278e-06 0.15060991524565084 -0.01320726353421478
16.0 -0.06377699372001827 0.1889906691168811 1.7935540486975437e-05 1.1665147737166784e-05 1.3288465672914746e-05 6.610385740074915e-06 -0.13293265316132563 -0.05025481125644107
16.25 0.1365017356507317 -0.014576690655929925 8.623032598321524e-06 -1.5765886381480037e-06 -1.5554506639888927e-05 -4.077310026906898e-06 0.09192955517584242 0.2432556167516897
16.5 -0.1607816319496988 -0.01535316820419859 -2.3667150390800943e-07 -2.7547420454853028e-05 3.426675935270413e-06 1.802513934294383e-05 0.09311040824656935 0.001881555233740978
16.75 0.024842057798347722 0.18429681081104438 -2.5697771078884755e-05 2.666373158222595e-06 -2.18930551376794e-05 -1.094012892559879e-05 -0.19639466418924745 0.04381181390452536
17.0 0.05073693464547171 -0.10358334926761995 2.2932233503920613e-05 2.838333590454407e-05 2.3879916425892837e-05 8.617897043608962e-06 0.16354190922986075 0.03884110945530222
17.25 -0.19976465285647846 -0.020038846354510823 3.29457524143289e-05 -2.9788011797190554e-05 -1.2123883121388737e-05 -3.274973162390474e-05 0.03652320832187361 -0.10797175791212033
17.5 0.12739168883491533 0.06584691920675624 -5.0507364115311154e-05 -2.6344264401035266e-05 8.201421002180744e-06 4.748810765113398e-05 -0.020430057433863023 0.17455942921846485
17.75 -0.02579157264759152 -0.09682980833786078 6.233510023896786e-06 5.7057544767575566e-05 -3.830354077136405e-05 -4.1402846429911933e-05 0.10490733912361559 -0.09699180906455274
18.0 -0.20696110765156256 0.05352654966363135 3.61838211510228e-05 -2.247389649740415e-05 2.6341656460906316e-05 2.4465908041705552e-05 -0.06431177690291313 -0.004510042071537088
18.25 0.07583192071684758 -0.08115499357219091 -3.6012019273872137e-06 -3.7949372693767244e-05 -6.44193381753778e-06 -2.2452758883847498e-05 0.07356361910764872 0.21729132148597075
18.5 -0.02733147926239604 -0.17799778323787954 -2.6806691421161855e-05 3.473883066193032e-05 1.9370548927604525e-05 2.8374006173075366e-05 -0.0291441707411228 -0.0510190749459587
18.75 -0.05784897564027747 0.12302328541305083 3.939769173071575e-05 2.3962900247380032e-05 -2.3549766221037967e-05 -4.126232807218919e-05 -0.05728716667978573 0.12843732524338944
19.0 0.05229173297888954 -0.06659806348059308 1.4240418085625113e-05 -3.1177149780977073e-05 9.903302304313547e-06 3.411674539161785e-05 0.17000096328421546 -0.03424138533376747
19.25 -0.13542721725251702 -0.18663521670233765 -5.264271717081646e-05 -1.8035974449376525e-05 1.1491942266427294e-06 -5.594056392717027e-05 -0.030476692625542368 -0.11965660262547548
19.5 0.0708600825736769 0.011587881686153989 7.17673580949441e-06 3.719900271021811e-05 5.470660632293795e-06 3.97842595170391e-05 0.08480638211720956 0.11029198579161649
19.75 0.15803664466296052 -0.026679624462956616 4.928446106498465e-05 -9.654600940034435e-06 1.7618225765480874e-05 -3.880343617373019e-05 0.16142921712356745 -0.16415821009698486
20.0 -0.14519930145699378 -0.09096172595405846 -2.333732033936509e-05 -3.203214823506526e-05 -1.715007984666686e-05 2.16548207517703e-05 -0.09165789045691114 0.10349835794793266
20.25 0.019295631357439058 0.02508656843629116 -3.653579792998199e-05 1.6961469166085338e-05 -9.814619106547959e-06 -2.4160288201965652e-05 0.08026300170094369 0.07112839062359358
20.5 0.17986789267404202 -0.0998513684148493 1.144044099097947e-05 4.657200997242889e-05 1.119004765548713e-06 4.015523700004047e-05 -0.20041559938626777 -0.09066019490368603
20.75 -0.09134713064856181 0.03206385535190144 1.091761692948524e-05 -3.2880216929557376e-05 -2.4106252720932454e-05 -3.225583656972301e-05 0.04783862066012473 0.03186794272274132
21.0 -0.024307476227867122 0.11290886606515646 -2.1550085159799567e-05 -1.7432176837802965e-06 -1.5504581768748897e-05 2.9425067259942228e-05 0.14709206178368373 -0.08439482976298959
21.25 0.07615911832844376 -0.07978964671649683 5.326329610250741e-06 -4.8706904223325756e-05 -1.4496007882012878e-05 3.088956733810807e-05 -0.05968822589934636 0.12238539335783681
21.5 -0.0975188220194099 0.07477846992243628 8.446744911894077e-06 2.009326571653722e-05 -2.1637201097918404e-05 -7.471045585223893e-06 0.10574609160972484 0.001579030773840251
21.75 0.010508026798932119 0.08779509144358918 2.2421663494144366e-05 7.313555446339416e-06 1.0119215126480055e-05 2.3673495906800123e-05 0.02409028657827844 -0.13795130693698035
22.0 -0.03225035245259444 -0.09343794930152702 -1.9278808700290897e-05 -2.460780333541489e-05 -2.7437278717530997e-05 2.078178920116918e-06 0.07689154807765791 0.15574789506587644
22.25 -0.03956673127795187 0.12732545960101743 -2.63597551578653e-05 1.2329514529746937e-05 1.6862679878539933e-05 2.0481521956849754e-05 0.06627270074038212 -0.005807615632984764
22.5 0.04695352073559755 0.08108306376741964 4.1203207652113676e-05 4.0164609384348935e-05 -4.238074518187017e-05 -1.1852755341280348e-05 -0.1381315608142229 -0.07337330008670523
22.75 -0.11763500897534593 -0.031031819355496884 1.8765663196699764e-05 -2.3818729175107523e-05 2.2103797146334647e-05 4.9499885202188885e-06 0.10614744385065689 0.04652167684540563
23.0 -0.0028177122090184137 0.09186726950201425 -2.9662720618113716e-05 -1.8508991842719216e-05 -1.5470892886079004e-05 -2.041928280444577e-05 0.05395738374275505 -0.10540100598524953
23.25 0.059706278103293466 -0.030990594390555515 3.453175694309486e-05 7.323488835966514e-05 6.76276791468508e-05 3.0704727411050695e-05 -0.09758256090840378 0.006537960624691072
23.5 -0.10722895880042851 0.05411433419210607 1.4528043513934444e-05 -1.8381535968481117e-05 -2.338623295200115e-05 -1.0752731724786321e-05 0.13967377580819246 -0.08380024157290748
23.75 0.03971985064455279 0.09567049645529055 -2.3545867751375017e-06 -2.553787506624411e-05 6.270482755716515e-06 1.9998045004985802e-05 0.00998763375097858 -0.06780972052805104
24.0 -0.014703900419763521 -0.07581444668725705 -5.65703413067016e-05 8.795367380154926e-06 2.1433066131467506e-06 -4.4611764936477126e-05 -0.05731752480305263 0.16960856322480514
24.25 -0.10653527442236455 0.0355779945621927 2.3674968049274297e-05 3.091212994146751e-05 1.326435449016658e-06 2.9555507303023703e-05 -0.011779737421464917 -0.12023013669551852
24.5 0.08795628382861995 0.016686728383633206 3.7097423299529855e-05 -1.0473490676419173e-05 3.7860056039406254e-06 -2.824387134490415e-05 -0.09573796030457694 -0.1440857209063312
24.75 -0.04738908011270958 -0.09887528791082241 -1.3361045596616424e-05 -4.140710204149516e-05 -1.4591699176656943e-05 2.8525568986546957e-05 0.10861347833261871 0.04107639445646985
25.0 -0.018990400189550394 0.0720001103212128 -4.9266615476014716e-05 4.9125510401160736e-05 2.307384629704732e-05 -3.9519534802741384e-05 0.10523561924975354 -0.08812098921534468
25.25 0.05419877604273994 -0.11259151845724748 4.920559806545376e-05 -8.350750471394772e-07 3.197777167391114e-06 4.9926869780992424e-05 -0.02675027099050252 0.1018243170746293
25.5 -0.09176204187154108 0.007988541214273642 -1.5664988315717308e-05 -4.78079504131528e-05 -6.7646580581382086e-06 -4.257928947581422e-05 0.12252108639106088 0.025021796461291684
25.75 0.061279002528211 0.03625593186034863 -6.14283006207563e-05 1.2768519340571135e-05 -4.532054989407462e-06 5.482575206958432e-05 -0.11924906118410901 -0.02461544717468787
26.0 0.013426982268989113 -0.12672946112924416 4.2566811241237976e-05 5.4956913172077404e-05 1.3752287255003372e-06 -5.877306750394384e-05 0.012406159416084458 0.028320615853276287
26.25 -0.06793845876323963 0.0024244147690482276 4.8240841518761215e-05 -4.655787349973141e-05 -7.657073957696568e-06 4.888136240774189e-05 0.09503432261494105 -0.16666506310416374
26.5 0.08373383963562125 0.056079485355595315 -3.133370248020832e-05 -3.265557014917053e-05 1.3472209295709686e-05 -2.2267137299540405e-05 -0.025224187864502104 -0.06575535061658441
26.75 0.0848457061646849 -0.08134367009148558 -3.277064719663709e-05 6.766436417307995e-07 -2.4554038682594287e-05 1.0917956630142506e-05 0.054973969868759215 0.10222035604356129
27.0 -0.027763511953736095 0.08650607734764897 9.891238250198938e-06 3.861491628335586e-05 3.7289365370378566e-05 -5.905230113953647e-07 0.08753193282744041 -0.07970139937089184
27.25 0.07665896247977519 0.03871395329386792 1.8139417072023372e-05 -2.754965931758851e-05 -2.569454133429121e-05 1.450707188035728e-05 -0.0770362186391177 0.04317735886274188
27.5 -0.09035523352551204 -0.08249038204493205 -3.4062600751284995e-05 -2.2469742089704266e-05 2.814683897740241e-05 -1.8170628569016678e-05 0.06640128604128451 0.030278057849070828
27.75 0.0627656306705701 0.041595635944529405 -3.43250769825591e-05 4.687312564140717e-05 -3.7224035760018544e-05 3.4508908002773585e-05 -0.1480517139025503 -0.05447239052188915
28.0 0.1308280010493623 -0.02509447065794631 5.097969949968005e-05 9.972140203229586e-06 3.03672052237486e-05 -1.639055764715903e-05 0.033399310476351834 0.017534663079505505
28.25 -0.07781635638393053 0.10505299535593716 8.528543154856985e-06 -3.4304167756188785e-05 -3.8645466769728385e-05 8.043076332415304e-06 0.0709402134554413 -0.13146468082277551
28.5 -0.032605234861444635 0.08927799661447598 -7.52603565551799e-05 -3.796490208918046e-05 6.463100123808281e-05 2.027806225502555e-06 -0.020505384238566654 0.0405613787583414
