# GHz S RI R 50.0 
!freq ReS11 ImS11 ReS21 ImS21 ReS12 ImS12 ReS22 ImS22
1.0 0.4787026657422882 0.3496676665553435 9.170260870036714e-06 4.8557474299190176e-05 2.8153837446123728e-05 3.105198019898906e-05 0.5479681158311586 0.4690417752639463
1.25 0.3136777313178396 -0.4262840129814313 3.556998694697412e-06 -3.0507308296489193e-05 1.792083168680753e-05 -2.371526432753394e-05 -0.5091801223634133 -0.26671077404969246
1.5 -0.545166901321965 0.17281718872656887 1.0255884706842768e-05 -7.363341859393814e-06 -2.5213175400722766e-05 5.452338436231186e-06 0.5595239606807909 -0.21093113956131215
1.75 0.3117269115055866 0.37333571242680097 -1.3244350295566043e-05 1.4854452218944217e-05 2.5132205279932646e-05 1.1289093897607712e-05 -0.47053649569172906 0.2281923797477753
2.0 0.2139261058874397 -0.3981819046488656 1.0395318125955998e-05 -2.9619156433766747e-05 -5.795370936732208e-06 -1.5939618548101036e-05 0.3380245867407897 -0.4809912526113893
2.25 -0.314496338256042 0.18873381780141102 2.4695797104699147e-05 5.089831241054066e-05 1.95781079325552e-06 5.237970612797245e-06 0.26118543713833997 0.5121718534642625
2.5 -0.43325630002761956 0.29514754033182494 2.68814517194486e-05 -1.65537970176661e-05 -1.1942936913041153e-05 -2.6122091857443383e-05 0.4787015923542271 -0.1454645984588785
2.75 0.7273276724753324 0.1939469984867549 -2.1331394614841742e-05 -2.2968781629080972e-05 -2.749200235505676e-05 6.246917937410601e-05 -0.6263670284412819 -0.032708779437329374
3.0 -0.666842756542961 -0.5970260982546776 -4.101593471227432e-05 5.0698318925225863e-05 2.018770206904894e-05 -7.456624288443583e-05 0.7529517711441963 -0.0016255443008664529
3.25 0.10049612791299412 0.8532658904064256 4.648403361619831e-05 -2.137500199314519e-05 -4.602274033418771e-05 4.813271757061318e-05 -0.5631949743251852 -0.3012196429267934
3.5 0.5519129932608184 -0.8043267215605291 -7.306640905710299e-06 -4.9470470955669806e-05 9.758561795434244e-05 -2.034446836022387e-05 0.48859231364539046 0.6056925697388458
3.75 -0.7119499436717882 0.4568013769811391 -4.236543133974143e-05 1.1914732243407335e-05 -2.8096635637310117e-05 1.3391145872623982e-05 -0.25180219634463763 -0.5929875688387855
4.0 0.7719409412470988 0.39006983324608036 4.117610415720464e-05 1.335846515306626e-05 -8.391699315119086e-06 3.8427631750028724e-05 -0.1909328513733163 0.6775055158546681
4.25 -0.3589604713142127 -0.7503581976857976 8.547486389306914e-06 -3.1283083391553115e-05 1.5339193248801493e-05 1.7135060470147598e-05 0.4173280987616773 -0.6620400180899367
4.5 -0.24439226483536403 0.6889454423622235 -6.567862490201435e-05 -9.920814497493533e-06 -3.9806300375027746e-05 -5.8224087017830716e-05 -0.6173885551363294 0.3392487019088959
4.75 0.8774735020934457 0.06807523231384072 -1.9113365199298894e-05 6.879694454969957e-05 -1.3127720239584666e-05 8.581150191612231e-05 0.7505208120355285 0.33052495073648247
5.0 -0.6690526704595297 -0.22095086260483687 6.369805751676457e-05 -3.8871946849060014e-05 -3.692955118550801e-06 -8.249512777988337e-05 -0.717907797539035 -0.273695699365726
5.25 -0.1687332129082888 0.7386855500559926 -4.55123362994464e-05 -7.602688100196404e-05 -5.1075067773117076e-05 3.4642753064098234e-05 0.19549753834434214 0.8331520178762641
5.5 0.3737133160583672 -0.5580083446416747 -2.6759585909051117e-05 6.680783381428717e-05 5.774425595860396e-05 -9.665224132296527e-05 0.07445537974558179 -0.7101631202541261
5.75 -0.6442971980668073 0.10466694221474204 8.171876246451358e-05 8.614245029728491e-06 -1.757958262996454e-05 0.00010602186917740927 -0.6333240156368217 0.5613603992272242
6.0 0.2582090943788188 0.5271843394411554 -2.8506060736602584e-05 -8.793602703746106e-05 1.4216153456017039e-05 -6.176829103300238e-05 0.7182618560573241 -0.04060337482733112
6.25 -0.02787835164039565 -0.5509332361345317 -4.714592189022127e-05 4.187379259904328e-05 3.282901723031761e-05 3.422808583124376e-05 -0.49740544601670733 -0.26519247948653485
6.5 -0.5870617521410754 0.4168641533545083 5.8119430913193295e-05 5.025756770510232e-05 -3.770299217956933e-05 -8.170153163879204e-05 0.16588396040244308 0.7395606399829509
6.75 0.49663974924310583 0.1864929056105848 5.514140028135956e-05 -5.050559067928175e-05 -1.0666122173312732e-05 9.327300627099033e-05 0.2203780710011086 -0.5112299455320967
7.0 -0.19869940549643328 -0.5321885193838902 -7.31479600475612e-05 -2.287434651313165e-06 1.8409063914269845e-05 -8.751628835133063e-05 -0.4415141381647594 0.3064748006372453
7.25 -0.1800516972416192 0.52545103990911 8.48072746800764e-06 1.8902517828693245e-05 -3.123814327455884e-05 3.1085178869235576e-05 0.6273112016478151 0.1283310691348061
7.5 0.4093899100617665 0.10098784211107836 2.5939132213571725e-05 1.0584490337421493e-05 1.585030177847274e-05 7.792119784345416e-06 -0.27214817251366097 -0.2659920633743832
7.75 -0.47995091726872446 -0.3981929657603783 1.1186730750133264e-05 -6.54418971532665e-06 -2.3145851023530044e-05 -2.943642053059166e-05 0.18226385439404325 0.45503477773958106
8.0 -0.10345821998214089 0.41752236499862266 -1.949248558544926e-05 -2.6360134036695102e-05 1.809783398097426e-05 -4.5283982141246064e-08 0.20195771455656086 -0.4975490482525163
8.25 0.4439115361278295 -0.10832795041379828 -1.4743363963276887e-05 2.2464980188858482e-05 2.2002436761370543e-07 2.2494928648009448e-05 -0.3525731538387602 0.12438735709705362
8.5 -0.48053074614151314 -0.031728212657547175 1.851372069681994e-05 1.0748022313841277e-05 5.454419890180117e-06 -2.3139883496228284e-05 0.3700403316594556 -0.044576162754312004
8.75 0.028894096052983875 0.3846707177207083 -1.3902408475412664e-05 -3.403064223981935e-05 -4.8654660794923213e-05 -9.432659409371908e-07 -0.33806348060626523 -0.3418857383297085
9.0 0.22325887299734948 -0.26962942360539327 -2.0296143869084845e-05 1.5679334611112517e-05 2.3933316151057966e-05 -1.4986484881250452e-06 0.16129299684011228 0.2905706623590917
9.25 -0.36234519860349423 0.1068998941431537 2.5299194962416853e-06 2.7628452493108874e-05 -4.4281785806600804e-05 -2.8962238874177398e-05 0.20451148467637356 -0.2431149731176347
9.5 0.19571644371579028 0.29319401021046176 1.633413830867985e-06 4.824320825497618e-06 1.1047008217831287e-07 3.265680051092302e-05 -0.24145273030381062 0.3050438678142396
9.75 0.045762265094336174 -0.333640948847862 -9.604140261407137e-06 -3.178764755747719e-05 6.101695685830209e-06 -3.4768302214778474e-05 0.23129634230939058 -0.007035319655920913
10.0 -0.29188959055949976 0.06666215462680375 -2.206891372139096e-05 1.961574927868531e-05 -5.113172173123384e-06 2.093281869507252e-05 -0.21198430823942074 -0.2513872876768309
10.25 0.2695572631329864 0.1502838573048589 6.4181044936198745e-06 1.0262324031586637e-05 7.168627952491287e-06 1.53413465505662e-05 0.22095574725860076 0.14802163230387666
10.5 0.14093550136490307 -0.16891762564187587 3.0931450163322484e-05 -1.3350102856374674e-05 -9.271488679152245e-06 1.852370467021608e-05 0.03647280731633176 -0.26942483596853484
10.75 -0.2859101899450919 0.1365168205708963 -2.1875446591419583e-05 -9.492908358355327e-06 -3.0780610316982364e-06 -2.4308905259190737e-05 -0.030739386019081924 0.22211883247632452
11.0 0.211932449641614 0.12127359147611239 -2.4649992392301698e-06 1.6644199564908515e-05 -2.1897786052369852e-05 4.5982698607753306e-05 0.2939627243942787 -0.06287286404506573
11.25 0.017693331493897818 -0.18769800036045542 -8.206276364198125e-06 4.1059338630583604e-05 3.974034391987326e-05 -3.6967105538347545e-05 -0.27699534886751637 -0.0011530823680773253
11.5 -0.12975537081070831 0.3287839131856437 1.4520327744002041e-05 -2.965324987451549e-05 -1.9522118243562816e-05 2.7066324696878523e-05 0.14023338498749283 0.11488878228149858
11.75 0.17831545124992515 0.07445106943461938 -1.2738767267367373e-05 -3.226937235790429e-05 2.599587989296417e-05 -1.0058617349203663e-05 0.0477136070281316 -0.3415962996724904
12.0 -0.1539652999809675 -0.15021640745462336 -8.20194623540925e-06 3.914771413387386e-05 -4.368589109429786e-05 -1.4485512562995737e-06 0.02192936082601166 0.2801257449575684
12.25 -0.16498551928879437 0.2069336774832788 2.4964494372452233e-05 2.3790652374121474e-05 3.4524458137609335e-05 9.138907669086815e-07 0.1992453611837319 0.09254199829832604
12.5 0.1555912713147408 -0.10144294707935206 1.3521993746147808e-05 -3.886321220658475e-05 -3.233790699116904e-05 -2.1517742733777043e-06 -0.16981069983344155 -0.18829100368770813
12.75 -0.20367231282283113 -0.02853852266950685 -5.8177318232140206e-05 1.2977065916026585e-05 5.416333501303355e-05 -6.147291766889036e-06 0.21364026545908837 0.138599831061243
13.0 -0.006270049989343218 0.26502151646464933 6.680492996845696e-06 5.480694212617513e-05 -5.113935437858893e-05 -9.984346417008717e-06 0.1427285262241065 -0.16135834772872235
13.25 -0.002631373614520409 -0.13670043687803768 4.630966452009575e-05 -2.927303981844281e-05 5.676564821238344e-05 1.2420576797872472e-05 -0.21142353310160358 0.1008068980271048
13.5 -0.21126830836264018 -0.15376466945889175 -3.740747734190227e-06 -4.252323376771403e-05 -1.3963478171960288e-05 -3.913734379219411e-05 0.19044349199300178 0.06880434850457243
13.75 0.13369469867973385 0.14915417527283645 -5.480291396369315e-05 3.8040238089883504e-05 5.4189983572506074e-05 2.9382313512518522e-05 -0.10205034897842663 -0.14533789390604607
14.0 0.028171497014139374 -0.1026579168783043 5.1694329736201265e-05 8.44920645425349e-06 -4.447431239550343e-05 1.407624367636252e-06 0.05735364418827339 0.1976372357881817
14.25 -0.23631085237256752 0.09343604475126036 1.3852385118511804e-05 -3.041160410030802e-05 1.4488732368343089e-05 -4.834304228231191e-06 0.08500748508691296 -0.19890113255586153
14.5 0.09613655473866115 0.10863147635466196 -3.231016172748974e-05 -1.6126134604898294e-05 -3.701944638781967e-05 -1.932981521723644e-05 -0.15225217019624943 0.01620747278572751
14.75 0.0065684245959962695 -0.1990022974176049 -4.272071567065085e-06 1.4694356807923484e-05 2.3600692371714118e-05 4.115552483587871e-06 0.18133248624540474 0.09394641314646977
15.0 -0.11373119541706467 0.11534381491967 1.5879171521785092e-05 1.5605478156312844e-05 6.069432026540233e-06 -2.3592492625781114e-05 -0.18590740907392975 -0.10513499696654721
15.25 0.15711843517908636 0.1632511147156231 3.040646818052443e-05 -2.6941173429351685e-05 -3.2226000071219004e-05 4.266257970656211e-05 -0.09405290861307963 0.15672422395222166
15.5 -0.11948060042878253 -0.09492057276501054 -5.4113417283970156e-05 -4.15136434198462e-06 3.4654779534494705e-06 -6.109775228280943e-05 0.0912686058643642 -0.12377670008876665
15.75 -0.19293926091703684 0.10749128169361102 -2.6731144512568398e-05 5.189645935559257e-05 -3.41076460337231e-05 5.372835672482691e-05 -0.19417649540674858 0.05692465932360423
16.0 0.1795623089067752 0.061312982028171585 5.543393291649743e-05 -8.715644495008984e-06 2.0241162616209443e-05 -4.143093501060534e-05 0.15108000393366192 0.14570323884347292
16.25 -0.07792395310090344 -0.10501737723217483 -5.746605963158044e-06 -5.5376617062836246e-05 -3.106111134551203e-05 2.9827013377349695e-05 0.002316245898571767 -0.06510786968326604
16.5 -0.09793406839599571 0.19690467391008726 -6.736274708206309e-05 3.361058328675994e-05 2.6651857417436922e-05 -3.679568523577978e-05 -0.03744098716234403 0.2610005760051703
16.75 0.11473039638727751 -0.012874015882931578 4.310452351275566e-05 4.139735163277335e-05 -2.2877560682212563e-05 4.721138350555339e-05 0.09171091361393632 -0.039969700526095
17.0 -0.1141371173744795 -0.1351415007651409 3.234195281184619e-05 -2.4047973990181987e-05 3.646983277597801e-05 -1.8821755788302956e-05 -0.12004161951612421 -0.08616614986079907
17.25 -0.04686516699513778 0.15325717164415747 -8.687499947188155e-05 -1.6231186040056313e-05 -6.043142959002019e-05 5.031370080884036e-05 0.1999368781102246 0.09695149915473006
17.5 0.11210922352369869 -0.07663090819878329 3.6800928684720325e-06 3.165976909558784e-05 1.8595582529404143e-05 -2.1987494934416603e-05 -0.010527055640600608 -0.07276966159778234
17.75 -0.15179463286625067 -0.04970485801481095 4.330615440529296e-05 6.7502008206445355e-06 -4.4464902014643106e-05 1.3833832433741568e-05 -0.06791868697439322 0.1313147087531449
18.0 -0.0275524524180268 0.1071155182947337 -3.418046698127467e-05 -4.293718090775603e-05 1.3832101964308401e-05 -2.4092949013474026e-05 0.18306293401512025 -0.06676614130754013
18.25 0.0407410569091816 -0.15912658217187153 -2.043124912331623e-05 -1.7132669876705875e-06 -9.166238947908333e-06 6.644824799203541e-06 -0.059178159248806234 0.06523082336958061
18.5 -0.1326998607044855 -0.10001586492328415 -1.541788508429089e-05 3.95010750540215e-05 3.273743592328945e-05 2.0764753330605687e-05 0.039885422235261384 0.21676122309991136
18.75 0.06539764363685266 0.09155973877462266 3.617727392935126e-05 -2.840167733777338e-05 -4.6487283486490085e-05 9.328619193682572e-06 -0.069446829812283 -0.11591789408364536
19.0 0.01493633750833484 -0.12456278281162059 -2.5952222661902315e-05 -2.9531127607469122e-05 3.270293931395438e-05 1.2119120758851558e-05 0.012480100440878869 0.07715067911002843
19.25 -0.1996304916059787 -0.09176548112482903 -5.466343189096854e-05 4.069581713539635e-05 -5.1465318575694724e-05 -5.809982156027182e-05 0.2175596648922563 -0.018165739532024036
19.5 0.11598725694706571 -0.05754274548254898 3.243502852580829e-05 1.142122522157334e-05 3.5692748610223456e-05 8.345529640225675e-06 -0.040055850268226806 -0.04807960236166238
19.75 0.127908566738312 -0.08875225953120129 3.764463180239677e-05 -1.825075926032681e-05 -6.877387331280299e-08 -3.369604717529847e-05 0.18729236191285994 0.04940482280831743
20.0 -0.1748994077024749 0.00250517935247295 -6.402912332622512e-05 -2.805438507565704e-05 8.536266635487284e-06 5.268065963604587e-05 0.008890349793304553 -0.08289670144991307
20.25 0.06958961390220036 -0.004012826555958156 -1.6446317171511567e-05 3.5002905662313524e-05 -2.3755302953239798e-05 -1.8166160502048415e-05 -0.035568960535246635 0.18328847788053215
20.5 0.13720880788093978 -0.15472611722709326 4.474414418445903e-05 -6.343605156698295e-06 3.5378701287914566e-05 2.2824268761017897e-05 0.013307568089266926 -0.10832544047089451
20.75 -0.0828360715355044 0.08649672971357769 7.43260364261651e-06 -3.566501010080286e-05 -9.682945664580402e-06 -2.263207400114195e-05 -0.09934027645041751 0.005517398908972959
21.0 0.010044670317675836 0.11257662363688566 -3.382961306383396e-05 8.254652890290814e-06 -1.937557544665998e-05 3.5121611266833e-05 0.1633336956765179 0.0331893620694787
21.25 0.02920408324571848 -0.10651426207450175 2.5239095393141472e-05 -1.1837456478045874e-05 -1.5579785830930805e-05 -1.1255635512608175e-05 -0.02865650759958302 -0.06243186481232561
21.5 -0.08969670543346338 0.0926676190441474 1.41128064411905e-05 2.7148095057419738e-05 -2.8145179796036172e-05 8.438313003102142e-06 0.05178361164776746 0.08319260602320003
21.75 0.026764097656647848 0.0817391790063217 2.392805180667541e-05 -1.4103331836832806e-05 2.5257484382817726e-05 1.5537911223875744e-06 0.11990813174566804 -0.11079665413486517
22.0 -0.04504202882891059 -0.09028844033930906 -6.345968238181427e-05 -1.6824368824811973e-05 -3.227522715743052e-05 2.891582753633554e-05 -0.030925445362998807 0.10378141184013574
22.25 -0.04013230106822119 0.1299848439261545 -4.497490113377049e-06 3.889905105716994e-05 2.014873575044326e-05 -8.162903889939551e-06 0.08048612832597998 0.05605281516603336
22.5 0.0477336862577966 0.08964065429779292 8.961173817568943e-05 1.8291654231228814e-05 -7.983307390080349e-05 2.0661013640837176e-05 -0.07687253481884612 -0.12709653525529038
22.75 -0.1146513068648001 -0.0433024296973096 -6.236471692494372e-05 -5.647511115686753e-05 4.099727357468332e-05 -6.04226410772436e-05 0.05093377128925318 0.0701525362055567
23.0 -0.018017120996149938 0.09029303834166218 -2.701597437148589e-05 2.0137844566051664e-05 -4.197913594035824e-05 1.4199799861765598e-05 0.08040206532752865 -0.08274928767350216
23.25 0.09033034403508261 -0.0036047546486510096 8.786188558539385e-05 8.911555579466713e-05 0.00010359760074099791 1.550162235636816e-05 -0.1051046177205422 -0.04525236482493846
23.5 -0.11099044501207622 0.024264172517767704 -2.0888646757174665e-05 -5.9830135047761346e-05 -4.9388224226716034e-05 3.172268294948656e-05 0.13945923789636033 -0.06673738955512698
23.75 -0.002399139353647703 0.11260625748764666 -5.8391793709650864e-05 1.9592603177633937e-05 4.077806166830326e-05 -7.401928874947166e-06 0.022285845969207352 -0.06938646332401893
24.0 0.03466829086199185 -0.06518866034200162 -4.611870832324993e-06 5.948107984520034e-05 -4.9699208251776236e-05 -2.06221520476734e-06 -0.05882561294285324 0.16275540200241922
24.25 -0.1158646289038292 -0.013870997711273383 3.803195825034117e-05 -2.3831946330691228e-06 3.0609538471134866e-05 -1.2383743024773488e-06 -0.019944003309661472 -0.12412909981336773
24.5 0.04763419649701543 0.07710430087304486 1.067095101667862e-05 -4.28083957690451e-05 -3.1493576129234867e-05 -1.379191600983556e-05 -0.1016961340771145 -0.1253000780487654
24.75 0.003676885827446026 -0.10570473745370725 -2.9923282491897368e-05 -6.452225477942102e-06 2.267137001151224e-05 1.3408875198634703e-05 0.12767138642649484 0.014731976445563122
25.0 -0.08598437988425658 0.031793531485071316 -1.0606387079104544e-05 5.664627120017289e-05 -1.3840524686833335e-05 -4.1771413377299497e-05 0.06591560168155391 -0.10099432979549766
25.25 0.1014644923489259 -0.05809048199771126 3.340434070852443e-05 -3.666098916504173e-05 4.0230592876872473e-05 3.136852520384883e-05 0.017485438879424615 0.1286917743980902
25.5 -0.07931312980458353 -0.05284370410881688 -2.6815499707859e-05 -2.9414844959038633e-05 -3.321417164778023e-05 -3.0507011359111918e-05 0.09695268609381985 -0.017158768429140547
25.75 -0.007561474774610555 0.09326298193954884 -4.2190764705962216e-05 5.901907102824787e-05 2.0628257550019458e-05 4.745473968804012e-05 -0.13283127923875815 0.04008400883084544
26.0 0.06589703668675106 -0.09878145351557464 4.885632558715374e-05 6.077041410070451e-06 -3.714367684871375e-05 -3.395174607470708e-05 0.03539055284997461 -0.0412255304588393
26.25 -0.039623956327418816 -0.09603371967317895 3.9147864350403876e-05 -3.9801443358249264e-05 5.750418878066053e-07 3.2844031516655326e-05 0.05134826823470248 -0.18857916404789785
26.5 -0.0002313577894799898 0.08471786401299888 -6.114822362672019e-05 -4.8128137463762064e-05 2.226569181664065e-05 -5.0709221002591605e-05 -0.02700464857794039 0.03520834120635244
26.75 0.12168167791594553 -0.02322839015587086 -3.459550510290571e-05 3.461716397453703e-05 -2.173549572200626e-05 3.299412254566326e-05 0.10789458305918675 0.02754764874930944
27.0 -0.04157886253973089 -0.01537644510487673 3.151852180577409e-05 5.7564158233978125e-05 4.969052568819352e-05 -2.586315561145732e-05 0.011470350556374131 -0.10663775975264801
27.25 0.04663791564515194 0.10771931791048224 2.516680708978598e-05 -5.691055348417142e-05 -4.7557908338131625e-05 4.3664486250375916e-05 0.00409249434915496 0.11041381044408731
27.5 0.013329603784434936 -0.10404400494038393 -6.472177088506606e-05 -5.8729802470952535e-06 1.6649423535974768e-05 -5.467703688822362e-05 0.00014412486668259443 -0.048286952820351656
27.75 -0.02752658317798233 0.0019403065015238807 4.279981780354366e-06 7.959640583873244e-05 -1.755119858796865e-05 5.8693223852508926e-05 -0.12347901974760668 0.06696642770063732
28.0 0.1549396705305061 0.0691103761356746 6.75500773013578e-05 -3.3227830729472e-05 1.423722778376829e-05 -4.9234702750413265e-05 0.0722383779920035 -0.09571720502875593
28.25 -0.015184636077393593 -0.004453739912593985 -3.5180409990236854e-05 -7.827635055329598e-05 -4.519777489989887e-05 4.868916800909685e-05 -0.015064690180180168 -0.09516951265417696
28.5 -0.12153305701671298 0.07720679578800985 -7.615885648818205e-05 4.4047993660303284e-05 3.6185314159915726e-05 -5.961190062572943e-05 0.11887909348662572 0.06770860848105682
28.75 0.07026996816367713 0.02561144374096211 2.9276589340383212e-05 8.838507289848619e-05 -7.586881562823415e-05 2.734505091636731e-05 0.07771936719328232 -0.023249947915279817
