# GHz S RI R 50.0 
!freq ReS11 ImS11 ReS21 ImS21 ReS12 ImS12 ReS22 ImS22
1.0 -0.35536890911412244 -0.676894290871125 1.6523458753876803e-05 -4.685178176171705e-05 -1.3755140173674329e-05 -3.1927414465096054e-05 0.13587741753966961 -0.8191696331528169
1.25 -0.06595922338070304 0.8553199568646076 1.4845279508859203e-05 4.461212413720338e-05 -1.8803175073715395e-05 4.507450082302839e-05 0.45868838944318413 0.6765350189476667
1.5 0.5949911727352255 -0.27798672292602533 -3.201499539375625e-05 -1.4197250271069629e-05 2.364216195946279e-05 -1.9288447352194414e-05 -0.6652336103826915 -0.3949978962220215
1.75 -0.48106241134603756 -0.1242900915410548 3.6481169194921317e-05 -1.0518851067241046e-05 -1.9044308620588404e-05 3.5150937778702986e-06 0.48105518915619505 -0.17909611072801096
2.0 0.20961798704664292 0.31173585517199875 -2.190697875446607e-05 3.864984149842694e-06 1.1450024201717264e-05 2.4262680689889934e-05 -0.21902620051134847 0.179897149745504
2.25 0.29305501760576846 -0.16230836563991374 1.9672868835582527e-05 8.767100888703608e-08 2.0068958839840257e-05 -7.793869606796689e-06 0.3084523697533944 -0.24453300631120642
2.5 0.17355820878773237 -0.496255431869703 1.9784380088312975e-05 7.1695121600173995e-06 2.581509448315292e-05 -2.5279841689757035e-06 -0.33524736279637773 -0.38177354082175513
2.75 -0.6815748661088706 0.2865213868064472 8.6391487791642e-06 1.8990291890192144e-05 -1.3328536121520725e-05 -2.7916275011500696e-05 0.25984197032133416 0.4700086408340253
3.0 0.7853883992786539 0.14151435681430333 2.091547878753585e-05 -7.26473995571741e-06 5.294397267705847e-06 2.4163279113053767e-05 -0.23183330549275866 -0.6543628438707025
3.25 -0.7510301700525532 -0.40472736176443846 1.6280010069417647e-05 1.7600467599473533e-05 1.249283928324425e-05 -4.090369548705874e-05 -0.16613481723084816 0.6920739305181612
3.5 0.40507884900816615 0.8978233934117623 2.1037048440462025e-05 -1.5320477442612913e-05 -2.2989250085487773e-05 3.763979414266843e-05 0.5251916759771724 -0.5899269362338809
3.75 0.20254133849379324 -0.8950338157335024 -1.6193652268075244e-05 -3.3236017930659316e-05 3.894604773673983e-05 -1.5095273904782627e-05 -0.772886539919315 0.07867370093324955
4.0 -0.6582364743609548 0.5855130704835584 -3.264419583822718e-07 2.3699359216723002e-05 -2.9756239554815896e-05 -4.671009586639874e-05 0.584585607418381 0.10372248782299294
4.25 0.6721794529787989 0.0016855779581335106 4.760533823814442e-06 2.771273270451034e-05 -9.697806910808704e-07 2.874717205346007e-05 -0.44155201864729243 -0.6766916271035172
4.5 -0.6454826972842265 -0.5292940666326382 -2.2235025683252518e-05 -1.4288925730139188e-05 8.89121646286431e-06 -3.853352334960204e-05 0.14361661914360346 0.6900156914693416
4.75 -0.02541267518139334 0.767970552067095 -1.6352868580468223e-05 7.546703707517932e-06 -2.0219040894195752e-05 2.4872782972791503e-05 0.3748674735156179 -0.6852577301245208
5.0 0.407357427240905 -0.5385842783131788 3.326588582621727e-05 -1.1001130105574492e-05 1.7795547433019937e-05 -3.145658940856901e-05 -0.6772930807245556 0.47849294431522205
5.25 -0.8085546013574985 0.002552611538738536 -4.334036264156101e-05 4.448054420022146e-06 -5.366359284858814e-06 -1.8435003349470497e-05 0.7893505230709678 0.21806825012847886
5.5 0.49469953916402176 0.4449481596903011 3.0394541438836163e-05 3.5968318795894866e-05 -1.2884278981075282e-05 1.5031183308565242e-05 -0.5986982787625921 -0.4835722033634311
5.75 -0.07271750047079162 -0.5739682919487017 2.043586192371174e-06 1.920149635575682e-05 4.4987591076558874e-05 -7.444058742736822e-06 0.0564054177733585 0.7816453911673564
6.0 -0.3730162582961224 0.46571680191734177 -1.4819236001220778e-05 -2.3311319939351905e-05 1.281734442478185e-06 -4.931072296611299e-05 0.5730573669265691 -0.5175189160883342
6.25 0.6087703953127175 -0.0032818349418317627 -3.133974621609416e-05 4.343028608965328e-05 4.669976743148087e-05 6.979621564648311e-05 -0.582473500205063 0.1434323829418509
6.5 -0.5890397461552781 -0.2521341577207339 7.959459058953729e-05 -9.422859534318827e-06 -1.2929196466102099e-05 -7.950165425089238e-05 0.4412627424654202 0.5981819434157938
6.75 -0.0695742516356268 0.5919275001500566 -4.110793870887509e-05 -2.2324078198218915e-05 1.9505735963863505e-05 5.198568534232438e-05 -0.07797079520090405 -0.5838042991371168
7.0 0.33977912019620404 -0.46710685046453837 -3.216172131163981e-05 3.2408496583512394e-05 -1.7651064394008617e-05 -3.420237788151735e-05 -0.25993710434835293 0.47446325055631455
7.25 -0.429794641845554 0.2037371385249785 3.091161948051095e-05 -6.0300415299198245e-06 2.8656941358591743e-06 -1.7711171411246742e-05 0.6480538173709908 0.013159305338921401
7.5 0.14396552040845167 0.6016621929321715 2.2804560518929222e-05 -5.720042250232849e-05 -4.930614176295071e-05 -3.291617519328717e-05 -0.35684235429412625 -0.14650731195653618
7.75 -0.12479521381738012 -0.5138022009918619 -5.850176315348287e-05 1.8100478197715407e-05 5.617820593867719e-05 2.260095079251481e-06 0.23017358994594678 0.4392177025678502
8.0 -0.3977015405044564 0.13918365626448836 3.140261258804192e-05 3.350847542007927e-05 -6.765325890795048e-05 -2.7921576762784656e-05 0.19290186261021847 -0.5109466551276753
8.25 0.4721680712964994 0.22120499860002807 9.348948666027704e-06 -2.9996795049199113e-06 4.2727973366209844e-05 3.9207870124276504e-05 -0.36919439135702803 0.0985306593641424
8.5 -0.3033773295439362 -0.2889860922709664 -4.924483901855812e-05 -5.159622204373294e-06 -2.0327854542469715e-05 -2.948286452078695e-05 0.37628564490288013 0.024013014936346153
8.75 -0.23935759375074867 0.32285787438559255 -2.1478237312912932e-05 6.632671731830077e-06 1.010533109032629e-06 6.905412916525251e-06 -0.2642758775041223 -0.4286673266668387
9.0 0.3321278162664679 -0.11564908866039797 2.671117265280653e-05 1.1602047263336511e-05 2.0953590686193325e-05 -9.693761834935516e-06 0.0397051031716113 0.3036775412840868
9.25 -0.3357905208416389 -0.11278069564507669 8.167208782168378e-06 -4.476964034725336e-05 1.7669410888304724e-05 4.143184960706354e-05 0.35295872012008606 -0.10876406470748334
9.5 0.06053879388725808 0.35280258801034076 -4.577355714941544e-05 7.857882426460959e-06 -4.008084251139127e-05 -3.2638778852494084e-05 -0.33982629118805247 0.1837446422446138
9.75 0.18878528972800201 -0.27302970664877907 1.0446096840230782e-05 5.604952850970481e-05 3.217058828885564e-05 4.471871327791834e-05 0.16559944977775615 0.19218384782448564
10.0 -0.2915079403120199 -0.04453410933303828 6.169990925990178e-05 -2.2814185716286183e-05 1.3885295816479243e-06 -5.8950541332652244e-05 0.011313724056455587 -0.3477544679024107
10.25 0.22780680055751995 0.19848639275712843 -4.748747079104065e-05 -1.4820530922863772e-05 3.8326739519891496e-05 4.72920701122369e-05 -0.010412844245151938 0.2628199789525957
10.5 0.19277851282473854 -0.1268078254280245 -4.592588655149781e-05 1.3451876885360771e-05 1.642056625428005e-05 -1.838792053821606e-05 0.23773211847471937 -0.18245132124694757
10.75 -0.29324606616139737 0.10087274034366178 3.698001966443586e-05 4.848512944815762e-05 -2.5433619473511582e-05 4.563728338489313e-05 -0.21291131265793153 -0.013746496766100014
11.0 0.1985655935453759 0.13232248596204857 2.2056211699189947e-05 -6.396999244955858e-05 -1.7687037839416305e-05 -4.832463606231455e-05 0.23474121263497968 0.27426764985603397
11.25 0.014954247631214779 -0.18290261335403898 -4.079129086833626e-05 -1.2486054314349922e-07 6.427280977317142e-06 3.011932920585773e-05 -0.06724506816377004 -0.17674306528051398
11.5 -0.10650906858306072 0.3333983527741107 1.24143745447002e-05 5.362558084924198e-05 -7.312321091166443e-07 -5.905915486140564e-05 -0.20660911661700332 0.1354194375376906
11.75 0.17684882345587427 0.028291894832821796 8.365007765174189e-05 -2.0719860959264232e-05 -1.6502248159990833e-05 7.456954519800962e-05 0.3492172505609671 -0.12607149069741652
12.0 -0.1861893363568395 -0.11742465919679104 -2.733768162726529e-05 -6.485587612974054e-05 2.0197892008850373e-05 -7.84913016732024e-05 -0.06502356953095623 -0.10029613623686859
12.25 -0.10172422646728797 0.23391531801417426 -5.16817593785716e-05 2.7525323987656193e-05 -4.401746901125523e-05 6.47978817492869e-05 -0.027087267527934326 0.2735895764001881
12.5 0.08875129485657919 -0.1698196148473921 6.627663893934483e-05 6.411624143149901e-05 6.027628656352384e-05 -6.840050398214249e-05 0.2116667308479804 -0.16719502094809174
12.75 -0.19722234211602252 0.05870261155833165 2.192954877753592e-05 -6.809636232778855e-05 -5.449063071970694e-05 8.060164887712809e-05 -0.14306171223657818 -0.05533140744264643
13.0 0.08959533046724677 0.23750395359173643 -6.940129943975905e-05 -8.93701337568508e-06 1.9020643511838906e-05 -5.07362181553666e-05 0.2363863302835407 0.15060753350477687
13.25 -0.11015167059831851 -0.17286962366684164 2.1509232423790975e-06 6.396564806798732e-05 -4.990071655820006e-05 4.063824230252296e-05 0.07946637622421052 -0.17387561071848137
13.5 -0.2253761330796103 -0.051073268882724815 7.646668615549079e-05 9.112394741745818e-06 6.086214052241817e-05 -5.620746366218232e-05 -0.17016804879784422 0.04880164630458142
13.75 0.23030841324862547 0.03035662753612972 -2.304834418161703e-05 -7.458850771367538e-05 -5.007929936229556e-05 6.772384541885256e-05 0.24681353424330818 0.04881065862022201
14.0 -0.10066806758473912 -0.06425635465202434 -3.1247753430864173e-05 4.9409752455703825e-05 2.5387295244322608e-05 -5.889189816884114e-05 -0.12898336541611605 -0.13992973856743782
14.25 -0.1758891710171991 0.18522852410169827 4.862341209635034e-05 9.855099294025862e-06 -1.492985881048033e-05 2.5314903580502482e-05 0.0274352379511901 0.14632082736830393
14.5 0.12158542683722645 -0.09305610847270035 5.4466598365884724e-05 -1.1810920242383764e-05 6.323152377905468e-05 1.053901180538089e-05 0.20459434448172373 -0.09304436442952305
14.75 -0.11554964750269431 -0.15040360056409788 -4.40440998088747e-05 -5.5795038555411546e-05 -5.9659781618080025e-05 -1.0888283103788823e-05 -0.20142079282046957 0.037958209618153216
15.0 0.019359015477830727 0.2064788110229421 -1.9423359710435948e-05 6.380573329656854e-05 5.0819951463889924e-05 -1.9496886543171717e-05 0.07619145732174912 0.1248924326294711
15.25 0.12844523657519094 -0.0241564824096826 5.798645149686504e-05 1.4734914964715238e-05 -4.725670142297361e-05 9.230349522849819e-06 -0.10647901619571548 -0.1739202086782347
15.5 -0.21359913615613288 0.024013256399787748 1.0102549094317689e-05 -6.581234869073481e-05 4.46517370759097e-05 1.3783046150913669e-05 -0.15388912648448766 0.15968149955006025
15.75 0.0367000923755213 0.17161923561631245 -7.78979304649081e-05 7.57593421858912e-06 -8.231740714978885e-05 7.094802428629057e-06 0.14984976154487895 -0.015258225672653558
16.0 0.11152212727856553 -0.10143280954693293 -1.5348347035935622e-05 4.260139398932801e-05 3.4743618453709634e-05 3.318505432103628e-05 -0.13412904882016263 -0.048678293218790594
16.25 -0.1794925226889149 0.06898126845168191 8.061053921715688e-05 9.256279004167108e-06 -4.9824832253502973e-05 -5.611486370926119e-05 0.0935687937806409 0.24282683155596663
16.5 0.11254823957732629 0.12416722571292445 -3.180731761207336e-05 -7.371335503460055e-05 5.387469191154783e-05 5.941409210674631e-05 0.0917099682918738 0.0007830749123457492
16.75 -0.026429949859191074 -0.1182698100256226 -4.467596054838328e-05 2.048422106016219e-05 -2.9167173687957375e-05 -1.4266489630148514e-05 -0.1966670563421359 0.04555687933785371
17.0 -0.18457633193120135 0.09095349686194099 2.7538831721777746e-05 8.056948600785185e-05 2.644164104745859e-05 6.23957171473682e-05 0.16433909700108448 0.036850804813730924
17.25 0.10598370325680259 -0.00942259379272753 3.207003324571301e-05 -5.705661797833141e-05 -2.224621021034788e-05 -3.678766833236333e-05 0.03524822679113948 -0.10760821122121572
17.5 -0.06882078604668317 -0.11762587765740172 -5.429788776477963e-05 -3.587111079609966e-05 1.4166459833817334e-05 4.530236632082313e-05 -0.0187014617401665 0.17580017729472353
17.75 -0.04589654678364056 0.17378759805049873 1.8636860722025069e-06 9.255356510532765e-05 -5.763812266220961e-05 -6.280357853515858e-05 0.10320979074238623 -0.09836678271684934
18.0 0.012468934648220603 -0.0854159707446844 4.940438797050456e-05 5.611920308383481e-06 1.391806344535088e-05 3.308863926241258e-05 -0.06450647820449483 -0.0033535432890309663
18.25 -0.1437940753024257 -0.15829409073093526 7.052775939546991e-05 -7.03796424494585e-05 4.6139301750547285e-05 -8.361712307394899e-05 0.07533231558551994 0.2176233568062721
18.5 0.09132289584521686 0.03894712301693079 -7.216671704260849e-05 9.351426155672584e-05 4.8549007567944134e-05 8.560560969475434e-05 -0.03170925203208204 -0.05023989581865823
18.75 0.04765313518670551 -0.09105805376456158 3.558112074268706e-05 3.2444722945179934e-05 5.384980918259164e-07 -4.271176720227642e-05 -0.05623444145056565 0.12900068422110114
19.0 -0.18993768315154108 -0.030365944823206245 6.209141825572096e-05 -3.0442920184163625e-05 -3.806664123911198e-05 3.318499483476035e-05 0.17037936409748305 -0.03585811264568187
19.25 0.05089773566650041 -0.06707801277165827 -7.071199630505119e-05 -5.589976941157392e-05 4.1183696173931926e-05 -6.866434640475379e-05 -0.03192249085070037 -0.11759877849070924
19.5 -0.004224117195009154 -0.20597563201283403 -5.435739703295401e-05 5.683853748374494e-05 -3.467815281477245e-05 5.077383474687874e-05 0.0861415379486517 0.11043358601266647
19.75 -0.03570664089630762 0.10472622204494036 0.00010375292780921838 -1.0472874864184946e-05 2.2431784517178823e-05 -8.556466123106805e-05 0.1597147155077731 -0.1652774349697757
20.0 0.06515148164445653 0.024464317209692096 -7.750430729678594e-06 -6.631232483749173e-05 -5.3140515203692455e-05 3.4988343439258394e-05 -0.09103626402180937 0.10488744355578067
20.25 -0.04432361288351126 -0.20519257094431137 -6.916649014342077e-05 -9.66208873996079e-06 3.2623388983144586e-05 -6.469314222190575e-05 0.08049130827385893 0.06947166047884426
20.5 0.052559370939149315 0.0723314797161905 1.359155713567074e-05 8.678938554034283e-05 -2.0590109099905275e-05 6.599790854080585e-05 -0.20143535714100713 -0.0886172013389353
20.75 0.12957097422874814 0.09311326984897673 5.054070398768253e-05 8.766274749003825e-06 4.089135478652073e-05 -1.8721814778184618e-06 0.048878929327104054 0.03134213962402904
21.0 -0.0950905887061731 -0.06536034660929828 -1.5113365974821041e-05 -6.791294837766914e-05 -7.001292104999435e-05 -5.784765998085883e-06 0.14619209065186442 -0.08560646291088342
21.25 -0.04272380330589598 0.0989994514209611 -6.151241486847204e-05 3.971073030782357e-05 6.250027983087916e-05 7.341517517486167e-07 -0.05832404839588545 0.12379956358623324
21.5 0.10451081430436432 0.025112461086601395 4.7986996931140584e-05 9.353334983184256e-05 -8.263721762152044e-05 -8.794071632051164e-07 0.10599196345267112 0.0007188719627063134
21.75 -0.12939497295727026 -0.011059801136410523 6.373101813873322e-05 -6.032141217397345e-05 7.457990993241569e-05 -4.328932664775484e-05 0.022577991478910167 -0.13778396200193235
22.0 0.00022280465364854507 0.0915683090224406 -7.579166070665575e-05 -2.291973658919778e-05 -5.7400756528470036e-05 3.659790115599781e-05 0.07839550956561017 0.15567826006353397
22.25 0.07525402929689623 -0.02743962821412757 1.9559704114553223e-05 4.293629982034578e-05 2.281395333717129e-05 -2.6365239382369967e-05 0.06573221485137812 -0.006622342505313322
22.5 -0.13075585564972042 0.07777415128423204 1.99647554621034e-05 2.6043946988182032e-05 -3.190895309421126e-05 -1.2859672970213737e-05 -0.13908574033314042 -0.07183878599821152
22.75 -0.0003197773321944597 0.0855567884314035 5.597677462790645e-05 -2.6135114005199205e-05 1.961884456951109e-05 3.859932966013994e-05 0.10722971530825998 0.045710055835240945
23.0 -0.018935115678920363 -0.0826665310324438 -6.35531281781786e-05 -3.4660640755960216e-05 -4.7878929753533296e-05 -4.8101266738004696e-05 0.05314199387217785 -0.10592190964546111
23.25 -0.05731361736838711 0.10374822467984841 -1.581777694169059e-05 7.623148359612252e-05 2.083321152905738e-05 5.49378840081414e-05 -0.0964740356884368 0.008488013659147794
23.5 0.07536002390474256 0.057580917463460383 6.743144618113976e-05 -3.11402899024883e-05 -4.84945501806921e-05 -5.497920561033274e-05 0.13957444122532991 -0.08459303703065972
23.75 -0.06861483259912217 -0.052545757030418985 -9.480756313919123e-06 -7.54853342495639e-05 1.7863432775366218e-05 5.287808656078095e-05 0.00887283947781975 -0.06711666588751486
24.0 -0.07948390991033716 0.0850466430187063 -9.833687610078781e-05 7.425665514888008e-06 5.816707840821821e-06 -8.556816638593174e-05 -0.05546183076983793 0.1697885959981946
24.25 0.07237975583604436 -0.024546687328374242 2.9759020308463364e-05 0.00010874965878121838 6.975836409831739e-06 0.00010288097638587783 -0.012452104279248859 -0.121194854755484
24.5 -0.07291369666850694 -0.07430836275193707 8.955982973411551e-05 9.567441688283074e-07 2.181850492725714e-05 -8.906506696438781e-05 -0.09641052296144222 -0.14324346391082438
24.75 -0.016286583548583276 0.09177709348266712 -6.644524552881259e-05 -0.00016103190593936631 -4.509341525487531e-05 0.00015242798019382388 0.1098529358744615 0.04037794762646227
25.0 0.03408369047733448 -0.11272420978811845 -9.607645451628962e-05 0.00012919363828790888 5.7181785434033595e-05 -0.0001301107413281901 0.1042763291604881 -0.08885551596300352
25.25 -0.0785644005388848 0.01742153503493933 0.00019078344284384426 -3.096362199073987e-05 1.2052366528991022e-05 0.00016119768795343098 -0.025972539006409223 0.10294452353239499
25.5 0.08887790440223767 -0.02792143821001047 -0.00010364026486651712 -0.0001178424699119627 -6.559879321939383e-05 -0.00011975898330750893 0.12226092126812335 0.024156505784797472
25.75 -0.08374271900944773 -0.059409246779824273 -0.00010864601426786002 9.741878882467331e-05 4.186160455696533e-05 0.00010716235513084674 -0.11993109076287262 -0.023887028340196428
26.0 -0.008588817788987388 0.04588472590110477 0.0001837698211792912 4.834896861308603e-05 -0.00011001089021988179 -0.00011893598823107664 0.013441875529754774 0.027427306993422846
26.25 0.11517811780131056 -0.04806374071996153 4.1633436487179746e-05 -8.650978538614796e-05 1.7645441274578128e-05 6.901852941833608e-05 0.0947167516040581 -0.16714548089417822
26.5 -0.031351511412044286 -0.08279313357822167 -5.6731178056534316e-05 -9.049526790564584e-05 5.0360922136941796e-05 -7.205652184536017e-05 -0.025875391087871666 -0.06477494487189701
26.75 0.039733322459168684 0.06878992829086554 -0.00010628906336739225 0.00010825038070683932 -7.034941206105567e-05 0.00010829598656440736 0.05613346148210692 0.10179861787172934
27.0 0.09743373586078444 -0.011437985943008697 8.088987505961589e-05 5.8214707249451544e-05 5.97834333668444e-05 -6.203690139864998e-05 0.08707847813898455 -0.08022994333935671
27.25 -0.07487409240259843 0.0767903251588284 -6.157142248211693e-06 -8.861752441836631e-05 -2.2791290713735968e-05 7.148638202485324e-05 -0.07695176658129992 0.04402278695525777
27.5 0.051915948804992645 0.0011944792959946576 -8.313109954003809e-05 6.558332675378267e-06 5.188740929453725e-06 -5.648221467047636e-05 0.06627140510047667 0.02937018049929939
27.75 0.011531450057103251 -0.11868615291051904 4.1226757918571885e-05 7.819174864404576e-05 8.353783952117941e-06 6.916819863490197e-05 -0.14867293384199198 -0.05374785746240493
28.0 0.06678658771914894 0.12017736930531 4.01604697685689e-05 -4.2180133665567864e-05 -8.940398222218836e-06 -3.6564542679822775e-05 0.03429982630160899 0.017072975582368706
28.25 0.07618290218223085 0.0516621991086592 -1.9647366682598012e-05 -4.3473091079058184e-05 -2.108318935856664e-05 3.2029061124922196e-05 0.07045783911393913 -0.13160180282368253
28.5 -0.14311612644932625 -0.002234880522995336 -8.066588035530192e-05 1.490688290266875e-05 4.9509820124003326e-05 -4.9291693979554845e-05 -0.020159890799505628 0.041836131042416985
28.75 0.0021775046467111814 0.05978334231843346 2.214937821880093e-05 6.921916161138605e-05 -6.304432960973496e-05 2.744299650088053e-05 0.10058800905098898 0.07930473033932384
