# GHz S RI R 50.0 
!freq ReS11 ImS11 ReS21 ImS21 ReS12 ImS12 ReS22 ImS22
1.0 0.08122234849078393 -0.23426808484180606 -4.703766726106295e-06 -3.218368901206273e-05 -7.987582826286095e-06 2.4219878761066934e-07 0.13842316457533568 -0.8195507415942654
1.25 -0.015139126995888125 0.14954663543349012 2.3772470530230202e-05 2.8461749125570628e-05 4.077728524251673e-06 1.3589843699398283e-05 0.4557317402494905 0.6783482301591192
1.5 0.06652120562566331 0.032065028170032275 -3.523904336429022e-05 -3.0162992355754648e-05 1.1703245814433275e-06 1.0421730118600543e-05 -0.6631629534549932 -0.39829598372619524
1.75 -0.04610712930765984 -0.0013829800321903465 2.4469456639951782e-05 6.029456151396924e-06 -1.8794854715989265e-06 4.3073223323081205e-06 0.48225636662049554 -0.17551206426757768
2.0 0.07255624757013576 -0.06206213161522102 -2.565254712499822e-05 6.450527396885588e-06 -4.9572075544554715e-06 4.055134379907978e-06 -0.22158786461550362 0.17651265347084433
2.25 0.04602167528689477 0.09460282325873223 1.5206523225756548e-05 -8.481027118014146e-06 1.1631462626122816e-05 6.375610626134414e-06 0.31177596651851014 -0.24281774560103753
2.5 -0.036037938168811776 0.08446157877746013 -5.128635004385799e-06 3.2543656104094245e-06 -1.062165923433807e-06 -6.656920175098933e-06 -0.331258107274597 -0.3851762938257973
2.75 -0.03897772272397149 -0.02448537998570853 7.289367604893387e-06 1.4892691168046942e-05 -8.07112072337156e-07 1.1164812209483064e-05 0.2549392349618421 0.4727155608437698
3.0 -0.05095605048496227 0.09229600519361558 1.745892477603876e-05 2.791064154366808e-05 -3.7318423118451083e-06 6.325872383025324e-07 -0.2257802853512722 -0.6574096296210907
3.25 0.1142944056882822 0.07085681403706069 4.200961786897039e-06 2.1555292362181335e-05 5.4056031217093335e-06 1.0819134131984165e-05 -0.17514727613076567 0.6896151182067236
3.5 -0.01968214573105198 -0.005965460588031518 -2.1128727214761423e-05 -7.312421133110183e-08 -1.5915971907723768e-05 -9.947410344814124e-06 0.5345361597056656 -0.5826079756030749
3.75 0.03833687256167445 0.16865846390757425 1.3640980047268984e-05 1.362477886862605e-05 6.566553402926137e-08 2.1056172984073825e-05 -0.7730298326898039 0.06986395900626852
4.0 0.022689121834583114 0.03687915662180799 3.004768593286888e-05 1.0691153248599115e-05 -2.396560847697465e-05 7.078512894096464e-06 0.5828480026515066 0.11405003820689082
4.25 -0.15781887758024427 -0.018393724243122987 -2.6688468115390986e-07 -4.232727854802506e-06 2.283348779209979e-05 1.150111662858664e-06 -0.4330853676959949 -0.6830324742691175
4.5 0.04712428558336115 -0.0015250608323874974 -1.9036581403743107e-05 3.507582278784545e-05 -1.3809144979626472e-05 -9.222331288142936e-06 0.13165187020038094 0.6922318644249668
4.75 0.06320527148352367 0.037877110206487125 -2.7269488393260763e-06 -1.1195831880067588e-05 1.1590433160595096e-05 1.4133442096795883e-06 0.3916067325032082 -0.6775407574987684
5.0 -0.10451012537108295 0.14473865721803392 -8.044736329942958e-06 -2.8192885324810374e-05 -3.776585695409082e-05 -2.1748596432313573e-06 -0.6839859392025569 0.4682188520647578
5.25 -0.09832918742755448 0.0017133723614350949 -7.851031094979744e-06 1.8438349319658254e-05 2.3117152014985312e-05 -1.4319793182861215e-05 0.785432757419491 0.23564876630922899
5.5 -0.06534964301387727 -0.04114060576552668 3.3133114990354853e-05 2.706628676539645e-05 -1.6262734218935505e-05 -6.052122029941074e-06 -0.5879168574643873 -0.49453654600596164
5.75 -0.002400176932221401 0.08411497405202303 -1.6751668000602786e-05 -1.3335091392060857e-05 2.587434342110604e-05 6.897142659133857e-06 0.04006886272224952 0.7850912908344319
6.0 -0.027208118398632398 0.037631907047713624 -2.6256562259102254e-05 -1.021943428287158e-05 -2.8788518356713048e-05 9.917896060301593e-06 0.5821376173339822 -0.5057498712944503
6.25 -0.08361100521742909 0.048662960085500216 3.993834049970748e-06 5.9848860173841674e-05 2.650971998023646e-05 2.363753103268144e-05 -0.5841017758002279 0.13086672782307596
6.5 -0.08106546871904184 0.08388666943467121 4.3863715139183416e-05 -1.5327942076795315e-05 -4.915666044277801e-05 -2.7323619006925916e-05 0.43177378458448057 0.6066842717281844
6.75 -0.08105571166650648 -0.041274235940220144 -3.3503340819721e-05 -3.076714336378604e-05 4.0685618240740755e-05 -5.931592195869888e-06 -0.06416852874017825 -0.5843796248470561
7.0 0.04343428492142584 -0.018258956151792204 -1.1687869686759788e-05 5.9514245524707105e-05 -4.5128201498552014e-05 -4.49385563641742e-06 -0.2728894312316432 0.46747602462582283
7.25 0.03055221927325937 0.10912594773068482 5.74016854388876e-05 7.549216259124471e-06 3.9313787614405845e-05 1.8102760092648934e-06 0.6477841673263292 0.022651386669996387
7.5 -0.17476760377936404 0.15787119812534398 -3.749705604442453e-05 -6.54200414848244e-05 -7.211074542189039e-05 -1.1481045264385116e-05 -0.3500589219801695 -0.16180653261450043
7.75 -0.12721357385281462 -0.05253863620674992 -4.242809443877169e-05 6.847723798565348e-05 6.471535507367121e-05 1.600352477759161e-05 0.22076373276079764 0.44435082768352907
8.0 0.025166305473850542 -0.09330545888864826 4.467751115107954e-05 2.8023341204611324e-05 -5.63258519076915e-05 -3.0343654930741554e-06 0.20562981743679634 -0.5060998683657434
8.25 0.04347951754545222 0.15973707785405128 1.9307303686283047e-05 -4.3530574095262714e-05 3.595528955570746e-05 -5.6547550135231045e-06 -0.372055010742976 0.08829453079971095
8.5 -0.046162805660783235 0.07137539273155073 -3.848788037301845e-05 -1.5268687030921615e-05 -5.634688988210017e-05 4.174318366745647e-06 0.3750638107206666 0.034816795530600346
8.75 -0.10692160855157307 -0.03289886448811222 8.517478445070908e-06 2.465371107341444e-05 4.3519853088666556e-05 2.8835660281073032e-06 -0.2550984830952238 -0.43542035722425687
9.0 0.03432517105798058 0.03761950364744472 1.6804251574489583e-05 8.453813274396729e-06 -3.780586222897752e-05 -6.394968100475094e-06 0.030850126651018495 0.30256022453187237
9.25 0.02643136875101791 0.00947503628516078 -3.856389465266361e-06 -4.772394949171366e-05 3.7809724173433585e-05 2.2575176211992206e-05 0.35805229941074673 -0.09896342033459754
9.5 -0.04026365276849546 0.03562097089011299 -3.3856043084385136e-05 2.8675456276073496e-05 -4.120332208121781e-05 -2.2690938921022163e-05 -0.34285759359609547 0.17626412406703204
9.75 0.043507993099920705 0.04109390472775881 3.380705455806904e-05 3.02314776879557e-05 5.3065785430128e-05 2.921965735453483e-05 0.15977018618158711 0.19886485862739545
10.0 0.019939391701074283 -0.046902067110046616 2.6603188857977433e-05 -5.155990483860429e-05 -1.6260365664333025e-05 -4.4726296478855306e-05 0.019409097052578372 -0.3472345809078793
10.25 0.027230086178359425 0.026633459396259267 -7.669693737235714e-05 -2.3445770272591885e-05 7.116924297730627e-05 3.268702118327134e-05 -0.019686261523115277 0.2621179070283377
10.5 0.04900700411365224 0.1211558847902918 1.3463106405951097e-05 5.245115174696847e-05 -4.055413835324038e-05 -1.2706783847140383e-05 0.24192757828859027 -0.17749392555635118
10.75 -0.04212313523827458 0.003622235412483299 5.32698063271297e-05 -2.5728763188987622e-05 4.9488015368993924e-05 3.1376481101076884e-05 -0.2128694083703722 -0.02236706676514974
11.0 -0.040296522421512534 0.004428807209312749 6.825161469974222e-06 -5.154380252386473e-05 -4.561931324402084e-05 -2.8974773391105983e-05 0.2281321477217622 0.2792773245018222
11.25 0.08267320449342401 0.06123882342235577 -2.7372485470850865e-05 3.090682306700493e-05 4.622590216873297e-05 1.4984733658344038e-05 -0.060873535379009 -0.17750311076810515
11.5 -0.022712269336434734 0.0888494587869415 5.18037685154511e-05 1.9743354707431854e-05 -6.235343192152391e-05 -2.3780078315122697e-05 -0.21289889552249086 0.13012019133494004
11.75 -0.06859422575219284 0.07926797525074677 3.7045835459788565e-05 -4.795575563336892e-05 1.4786557628478092e-05 3.7132874085309215e-05 0.3503316721216231 -0.11863290997723433
12.0 -0.02873776469104291 0.010841634519363041 -7.513288937200798e-05 -1.8534434820965518e-05 -2.8719588815416656e-05 -5.651443887273499e-05 -0.05911212245275688 -0.10600704489394867
12.25 -0.07292992524832555 0.024693681817605957 -1.458993206661177e-05 4.0298410750281416e-05 2.4678191734041824e-05 3.0247433296319746e-05 -0.03227862252886027 0.27333118524065375
12.5 -0.04176694479142656 0.004576011223234547 3.628471763253915e-05 8.11145217014733e-06 -1.016347046164552e-05 -3.8190471232444394e-05 0.21539818402780003 -0.16096457471659908
12.75 -0.018968383586115033 -0.0004245855921371578 3.604828023711447e-06 -6.095674548846801e-05 -3.140241194441305e-07 6.576184341152189e-05 -0.14171899990585166 -0.06290598318087512
13.0 -0.03422146179261825 0.10206065592920227 -5.001591525420535e-05 2.7648488090174787e-05 -1.1800731727618358e-05 -6.632134598334749e-05 0.23353246697134425 0.1548065877541734
13.25 -0.1334090120846423 -0.008173192158384496 1.7140318717804876e-06 6.077364153150737e-05 -4.7507558116731044e-05 4.574986702654653e-05 0.08431793459944975 -0.17121711137723444
13.5 -0.07504522947134687 -0.09565869633013999 5.388246983995834e-05 -2.88212510632655e-05 3.7001772379562076e-05 -7.316607055296516e-05 -0.17298225022660252 0.042556652332121914
13.75 0.05269510496798574 -0.004093901742225889 -5.4850524205484154e-05 -4.51733747163589e-05 -8.395551694586489e-06 6.884894093315602e-05 0.24543345536047495 0.054312955742529395
14.0 -0.0068237344696623 0.05028938007423166 -2.602675465656051e-05 6.996168140933722e-05 -8.906910185008548e-07 -7.038137422522759e-05 -0.12493619961926247 -0.14291712517965496
14.25 -0.11458999725580749 0.07056816321733696 6.102704188060393e-05 -8.232260318770444e-06 9.115178541429545e-06 3.5649897501963275e-05 0.021131534481364067 0.14779326237821275
14.5 -0.02935049648366342 -0.022713836722812394 -5.833158079049054e-06 -4.761951420782838e-05 1.1547384320602242e-05 -5.135544310125581e-05 0.2068639975483346 -0.08925113309099494
14.75 -0.017647399193391436 -0.07159172753150408 -5.816717180950956e-05 1.7931090504778004e-05 -2.410180191318327e-05 5.669932596275582e-05 -0.20014938639087135 0.03169060987948749
15.0 0.01629729137046463 0.0675555742224204 4.622406783585704e-05 3.8744683545897314e-05 1.1712059204310283e-05 -5.3292610706718524e-05 0.07353440748879964 0.12926212739349274
15.25 0.030265562267565597 0.07242484185539727 2.4376314015839446e-05 -4.1102257698188445e-05 -6.8504160482106235e-06 4.643741876508614e-05 -0.10266216398511852 -0.1753977009619761
15.5 -0.09579819642968648 0.034371201429333934 -4.535135338193708e-05 -3.831590068351616e-05 2.7246347936754962e-05 -3.48939875809517e-05 -0.15717282515121553 0.1554334720907699
15.75 -0.04137092115764068 0.030320134141547706 -1.7116232516970183e-05 3.99941430567422e-05 -2.4181700942102854e-05 3.7161728146948314e-05 0.15136613900826726 -0.01089005791107786
16.0 0.04810501124152691 -0.0011904875312863696 2.4693892764417293e-05 -1.2267374123048191e-05 1.4175329168192143e-05 -1.3443846247778652e-05 -0.13182972178600694 -0.05204012529508844
16.25 -0.051033865287913725 0.04247994085802129 1.117879997447527e-05 -2.119467571539165e-05 -1.9171721345703035e-05 -6.823764368372066e-07 0.09000170743642052 0.24402196714940788
16.5 -0.0026433089203824756 0.06885006902444359 -3.175637713696074e-05 -2.398545772082068e-05 2.5760373798973295e-05 1.3203616873916434e-05 0.09437565190056811 0.0029945935927227496
16.75 -0.024915305908971112 -0.011418423018786594 -8.520215354928192e-06 1.13309339626675e-05 -2.486701610060924e-05 6.518352811785095e-07 -0.19655982132784933 0.04214353707652969
17.0 -0.06766898406170138 0.01146766244619006 3.153494389768661e-05 2.4883537504451977e-05 2.8025163272152648e-05 2.005122620672882e-05 0.16302808528477722 0.04080762722236125
17.25 -0.0007730067148933178 -0.012619586860233688 -1.9188962163531486e-06 -4.976528854550475e-05 -3.700032015941941e-05 -2.9558197514288986e-05 0.037598736925302884 -0.10818858462012135
17.5 -0.011170886526501873 -0.02325086407071493 -5.1442750689432016e-05 1.0758613092380128e-05 2.6942332552888527e-05 2.9372139771011713e-05 -0.02173476788642257 0.17398627926499155
17.75 -0.03137167380735826 0.04635678725591148 1.1510764943623353e-05 5.142844669982856e-05 -4.012756701898125e-05 -1.8756964085243968e-05 0.10612920965260382 -0.09612120583095232
18.0 -0.060419807905584245 -0.045600422585676266 3.761798523310281e-05 -9.164559902164877e-06 1.4241570672627034e-05 2.4063132955479186e-05 -0.06426168198066114 -0.005285891039849666
18.25 -0.052482810532361486 -0.08457433780336512 -1.2481225093032807e-05 -6.531050176386842e-05 -1.9475714963023984e-05 -7.357186803865902e-05 0.07254673838370086 0.2175332110304585
18.5 0.03253694469870865 -0.052393533986931626 -1.3486644565984702e-05 8.226429548820739e-05 6.81552152634609e-05 3.835714431235487e-05 -0.028234301709283524 -0.05126492188167356
18.75 -0.009606383416118587 -0.029246273602611797 5.6157217414742444e-05 -8.191226950314393e-06 -4.3821034899881975e-05 -2.2399062717979912e-05 -0.05802750133667451 0.12821521719310464
19.0 -0.05616646764679793 -0.020441717898130773 -1.6903873338246323e-05 -3.2325021588580566e-05 1.9436542727975315e-05 1.270712800862915e-05 0.1701176854140942 -0.03352724524262968
19.25 -0.029377317851919854 -0.11006895996500518 -5.3513084611115004e-05 4.098778995998811e-07 -1.646145046739117e-05 -3.122119070207407e-05 -0.029908848448876285 -0.12011409073602905
19.5 -0.012947779464558214 -0.10595378290094605 1.6110751760142574e-05 5.945163131170782e-05 1.376652997591147e-05 3.016441658824472e-05 0.08446308975912437 0.11056326504311008
19.75 0.06155315213746482 0.039069345072625675 4.9834615364280715e-05 -5.3982862699609984e-05 -1.7537577230102155e-05 -4.491803691002528e-05 0.16215660422207123 -0.1636884954171703
20.0 -0.008278300381855036 -0.03141925739777658 -3.684311518025806e-05 -7.022601292531277e-06 8.611377058161559e-06 3.404813626743642e-05 -0.09185057964841656 0.10336337891533337
20.25 -0.042831356566594765 -0.08700635326112133 -1.0712401394133638e-05 4.031022944959639e-05 -3.707490293842629e-05 -2.5560755477695755e-05 0.08015565780513077 0.07131286028215182
20.5 0.10486717707330814 -0.0006701704238919054 2.4822837046393055e-05 4.542112029128194e-06 9.518112952969697e-06 1.9388696153310638e-05 -0.2003229591289717 -0.09103053205316615
20.75 0.051072216274656045 0.0263384780060809 1.249150197321894e-05 -2.173096333130043e-05 -6.929670196251017e-06 -1.3320183161455557e-05 0.04779503776925054 0.03190321433490377
21.0 -0.0632643876500639 0.02293078186359656 -8.854932572226861e-06 3.762538503252795e-06 -1.0290792012344942e-05 1.0132967121827025e-05 0.14724269694102476 -0.08434390187836094
21.25 0.016440988850287816 0.04932280835057272 -1.9157264754094233e-06 -1.2051171417034638e-06 3.4506584396661943e-06 4.001087537720687e-06 -0.059738722955016865 0.12248973742490551
21.5 -0.012595770853047292 0.010858485804298157 1.3293027314333761e-05 2.8462505022438727e-05 -3.7875377632979255e-05 5.8085544861836164e-06 0.1058748069225815 0.0017207963074018784
21.75 -0.06842715899653909 0.035226119746331275 2.5469115054266593e-05 -2.8468702224269628e-05 2.2312473438692688e-05 -1.536596920552252e-05 0.02411648052134692 -0.1379438811396636
22.0 0.029672563497789864 0.015407542531457513 -4.013924122559193e-05 2.334942735412215e-05 7.930734910193023e-06 4.212445424843718e-05 0.07698089591378958 0.15598415497454748
22.25 -0.011749890787177381 0.050335612498799046 -3.728044589408394e-06 1.845185981050291e-05 8.676566391245475e-06 -5.639254148461246e-06 0.06611874330685785 -0.005895242396213668
22.5 -0.060223360908537804 0.09188480173963437 3.759792053368409e-05 -1.5116553653872635e-07 -4.010430791041142e-05 1.0709966623560656e-05 -0.13840351036064594 -0.07319251252907023
22.75 -0.026268870797191916 -0.0021802879603021325 -2.2560056779880935e-05 -1.5822910599318783e-05 1.1964659233057001e-05 -1.4645634122648445e-05 0.10647274619706926 0.046486774477182455
23.0 -0.025514842263916326 0.017360832917298123 -1.2894035021550381e-05 3.167202426320591e-06 -2.913604440045922e-05 -1.6206366979668506e-06 0.053983500155583515 -0.10547017269531664
23.25 0.014918770827426247 0.07016765392706167 3.870545353325443e-05 2.0053652877568444e-05 3.0457997000302652e-05 1.1577124330070438e-06 -0.09728064362661251 0.00699128958801562
23.5 -0.03078945312606987 0.01647163077114383 -1.2411670961471401e-05 -2.0364387748364978e-05 -1.705736488654742e-05 8.258852897984886e-06 0.13994294563976717 -0.08372272313028732
23.75 -0.03274511128024843 0.03846677252659859 3.4192518374705727e-06 6.716627382124867e-06 -7.792055507657011e-06 -9.990124743245961e-06 0.009675058627630517 -0.06755693871799304
24.0 -0.0006810644911282443 0.010191030199642223 -2.74951671848189e-05 -2.2244489856520255e-05 1.4635814577441396e-05 -1.607932126298335e-05 -0.05694415006576614 0.16968116415648266
24.25 -0.04673368339774209 -0.01652080754750443 2.736883447907893e-06 2.374740874354619e-05 -4.190086780331648e-07 2.4644044048430786e-05 -0.011842262580303117 -0.12069923727004728
24.5 -0.000176834458208118 0.012034696326978515 1.765473095460977e-05 6.0210324774911576e-06 2.3399457812341133e-06 -1.5828220793845004e-05 -0.09583277968093883 -0.14403979145900173
24.75 -0.007793142202939838 -0.047926790597003326 -2.0518872674218586e-05 -5.332791537843275e-05 -2.068155086168905e-05 4.3509032355954246e-05 0.1091141626611919 0.04097427670716669
25.0 -0.026698673612817532 -0.005103571563267989 -3.547225251261776e-05 5.005256012717733e-05 1.5024442728352511e-05 -4.270759200781771e-05 0.10511393189321816 -0.08822665226730847
25.25 0.03581993973635771 -0.05063001524993731 4.695794537913928e-05 -6.830868954224081e-06 6.303169197140584e-06 3.665939304344912e-05 -0.026737893162819465 0.10232843626367945
25.5 -0.042042006614668184 -0.014818523541803581 -1.965403903041847e-05 -3.733856639722525e-05 -1.9787642416089687e-05 -3.0747069050155224e-05 0.12245518805551991 0.025042009678543975
25.75 0.0012091777979069337 0.02364162920925638 -4.966616764668269e-05 2.1263072565938572e-05 6.357303552470063e-06 4.1814939798594106e-05 -0.11959787399179589 -0.02458095896828044
26.0 0.016722583012841866 -0.08419967019169458 6.25547759257949e-05 2.4620440350977553e-05 -3.867780341627404e-05 -4.409823925899643e-05 0.012689529870891211 0.02803421744961431
26.25 -0.011451478047112926 -0.023924670618436353 7.542596061208763e-06 -4.0940382214553936e-05 2.0054493125299568e-05 3.872352553846157e-05 0.09524645597374898 -0.16674521597579334
26.5 0.045499733025564745 0.027029584470044474 -4.874229429063652e-05 -2.4159440508575872e-05 1.3769581700469148e-06 -4.1034513625581676e-05 -0.025305452246353347 -0.06559714068947861
26.75 0.0676950420862253 -0.0446774553679483 -6.124723109113628e-06 1.8065216298870576e-05 9.63115717746138e-06 1.7666140470876172e-05 0.055177097610126874 0.10234663379904063
27.0 0.004635985718996913 0.05325183264384563 2.941332868725495e-05 4.212961403381045e-06 1.937913540679129e-06 -2.003600498800136e-05 0.08772192687536019 -0.07974272340777867
27.25 0.04019620965164995 0.04116363570055902 -8.454371688469723e-06 -1.867099257621799e-05 -1.7917264559496515e-06 1.632035779759528e-05 -0.07720677696335833 0.043164190467622696
27.5 -0.05226052590226277 -0.04819616609099789 -8.87535944412398e-06 6.712358484242019e-06 -4.425117819117346e-06 -1.2345596588034614e-05 0.0663574866807464 0.03041008464697592
27.75 0.059647746515634946 -0.0009261830727983547 3.7588810684049614e-06 7.305164533921812e-06 -4.191316024971253e-06 1.1295288847829882e-05 -0.1481949113488254 -0.054826358361461325
28.0 0.09690884023443266 0.005411852967579842 9.555701555536606e-07 3.3668493020333587e-06 7.162930477124092e-06 8.628733707090924e-06 0.033432175598853864 0.017619483691185343
28.25 -0.02720403408303748 0.10013661336748281 1.5864110877252295e-05 6.0443241448407685e-06 -1.7907891634263177e-05 -1.4545159878163485e-05 0.07137883666389477 -0.131407062660165
28.5 -0.04350335375151125 0.04706454804340663 -2.9783895413913306e-05 -2.0539678610504064e-05 3.271475677140349e-05 -5.6441517667723965e-06 -0.020673465071577635 0.04053092654086107
