# GHz S RI R 50.0 
!freq ReS11 ImS11 ReS21 ImS21 ReS12 ImS12 ReS22 ImS22
1.0 -0.46806146119203734 -0.5632163929680202 2.2666753893716012e-05 -3.8172911648816956e-05 -1.8332320430251557e-05 -3.3763804644824344e-05 0.13799601741594286 -0.8171433204843415
1.25 0.16733767861921717 0.8239262287775676 2.4838748325255676e-05 3.8240387139988144e-05 4.395525911315098e-06 4.622525428265098e-05 0.45646298830901144 0.6784481055042635
1.5 0.4421203362221487 -0.47603931245491615 -3.618546153274462e-05 -2.5938461414683068e-05 1.3040800464876729e-05 -1.6186710081522753e-05 -0.6644428729756258 -0.3978529811632755
1.75 -0.49957200629713855 0.07221001447810321 2.828694888301923e-05 -6.125958293850272e-06 -2.7366382950835205e-05 3.7692538265717206e-06 0.4821849625210688 -0.1769190887926066
2.0 0.3664111610261705 0.18137014370274587 -1.8126463842363175e-05 1.2101317472239264e-05 2.125141284389926e-06 1.1164491000699012e-05 -0.22092762778637348 0.17794236788776832
2.25 0.10472627916934218 -0.2721243971850751 1.9616386091490752e-05 1.3282871035574637e-06 1.0925575081261077e-05 -1.5038767472471358e-05 0.31090315287608405 -0.24335204128860533
2.5 -0.26618818763095786 -0.4383411211589622 -1.6879913292493937e-05 -1.4010759383984483e-06 1.2767062728513217e-05 -2.2707878187485145e-05 -0.33280826991930595 -0.3841244231678021
2.75 -0.3323839290643098 0.6736930819219658 -1.7562126544579203e-05 -1.3827609637199121e-05 -3.824776789862571e-05 5.121881322347232e-06 0.257060020040081 0.471850876695631
3.0 0.6101256741120383 -0.5149807496845139 2.623313033144061e-05 3.0731692242599737e-06 2.1004589106435445e-05 1.2600834901475796e-05 -0.22818786428241233 -0.6564939545168699
3.25 -0.6954662307649668 0.394589548154314 1.966215717433533e-05 1.3593514673560989e-05 -4.993743268028076e-05 -2.8863868512023264e-05 -0.17168574728939154 0.6909098138201206
3.5 0.9531340709127092 0.19309513596436495 -9.777092361189787e-06 -2.237596174419588e-05 7.741410058750985e-06 1.8193748184266908e-05 0.5312176023207741 -0.5855806833759222
3.75 -0.7361272032088613 -0.3640416866755169 -1.6777489707106425e-05 1.546747279303609e-05 1.571350338024869e-05 -3.5796002814033275e-05 -0.7734738588965203 0.0737144523987402
4.0 0.22216690500183423 0.8834051608371636 2.756658528947951e-05 -1.5460880650237573e-06 -5.474040856577516e-05 1.4681450578686135e-05 0.5838419747162688 0.11000407920811396
4.25 0.17906260841121568 -0.7256144025300103 1.3044800794885067e-05 -2.6196720781416873e-05 7.219363807681298e-05 1.0974174556163324e-05 -0.43737534118507937 -0.6805249901940734
4.5 -0.6027398539930452 0.44066382742492793 -2.2749725357904683e-05 2.7789398145990607e-05 -5.169559770230479e-05 -2.913872434347585e-06 0.13688816830843648 0.6915308145309141
4.75 0.7517580695229249 0.40795114887163375 -7.114438774018021e-06 -2.3337035466334575e-05 5.1952417259572414e-05 4.5378518415809275e-05 0.38451552415443824 -0.6813404233392327
5.0 -0.5545512754728502 -0.37913979988135715 2.0980360304996304e-05 -2.078911386063061e-05 -1.3581658419315377e-05 -2.0847581372405626e-05 -0.6814229054751495 0.4729890133327683
5.25 -0.28727714920664055 0.6993933339130538 -4.803056889906062e-05 5.34832376412251e-05 -1.9082912493507097e-06 3.3357841849406835e-05 0.787629470220523 0.22775679003887214
5.5 0.3874963177483493 -0.5325985702642865 -7.273246539229302e-06 4.281856444337661e-05 6.0476405239369955e-06 -3.5423968904411383e-05 -0.592964137076123 -0.48997231109968964
5.75 -0.6212866240214423 0.16472858691290604 1.4168000999272395e-05 -8.915920897033162e-06 2.6515390103723834e-06 4.2102486972851506e-05 0.0476075870599586 0.783489133115207
6.0 0.3546350229640507 0.4522865556348316 1.5501463089119636e-06 -1.892494875133528e-05 -8.600823167846728e-06 -2.31528327881098e-05 0.5783109745488725 -0.5114939370199175
6.25 -0.2237995017291406 -0.4882697067779482 2.8382066175503838e-06 4.277204999220901e-05 4.4649601892997844e-05 5.100709827325867e-06 -0.5837948792406465 0.13692263743384459
6.5 -0.37029341894508705 0.5974071156666052 5.5392038023614694e-05 -8.016045991700478e-06 -7.034904912865407e-05 -3.618749764757394e-05 0.436300411810183 0.6027232665307404
6.75 0.48323599385642435 -0.18202118063891615 -1.707344021055695e-05 -4.4236458584414164e-05 6.941912068706479e-05 4.6286875138988393e-05 -0.0710474253795686 -0.5844673010968734
7.0 -0.48577110229104575 -0.22820212195704168 -7.991806336609154e-05 5.271796902218796e-05 -6.678775245036914e-05 -7.373882141644081e-05 -0.2665712652624622 0.4714592710569525
7.25 0.18151176659918716 0.557270793494884 2.5650245506332007e-05 1.563143937411802e-05 2.213513173798157e-05 4.219062647164439e-05 0.6482558723242572 0.017965167022968853
7.5 0.018081489739968787 -0.32617934345011623 3.018895427434993e-05 -7.084346473070455e-05 -5.705106635957965e-05 -4.36630551828595e-05 -0.35399006071997263 -0.15358257213404697
7.75 -0.6242444061934241 0.12201192915703779 -8.498282526098513e-05 1.2821404116440267e-05 4.527245046607621e-05 3.922391115404381e-05 0.22612967893957908 0.44186686154710175
8.0 0.4846707433973233 0.1491922985914603 6.497605054691227e-05 9.110122720741339e-05 -7.579211394959708e-05 -7.754688726034876e-06 0.198787357804193 -0.5091156384259778
8.25 -0.2018235787336089 -0.27877444939705975 4.633842357368832e-05 -6.248079766442798e-05 7.306602823913599e-05 -3.2301452790502047e-06 -0.3707142661401577 0.09409656184433102
8.5 -0.18294816797906974 0.44649631254398287 -6.057126663970112e-05 -5.098636552618288e-05 -6.018516225425503e-05 -6.827652713524056e-06 0.37604828268020385 0.028549494190869093
8.75 0.2161351081370599 -0.2749128831401839 -5.8716400954117115e-06 4.796306409270441e-05 7.617797396339454e-05 3.526797895919253e-05 -0.26059591646505537 -0.4315944812873423
9.0 -0.3292048964857329 -0.07861028915029578 5.66788570701585e-05 2.1467677415104557e-05 -4.613037396643823e-05 -4.8450661851184256e-05 0.03611803483892678 0.30349846251786156
9.25 0.20923266961403297 0.2786432559359333 -1.5421551600586395e-05 -3.7338208871428224e-05 2.9667015469845673e-05 6.267974535802015e-05 0.355077535838599 -0.10516458824444042
9.5 0.09573889677748544 -0.29214219636545435 -7.287258102271932e-05 5.296011700876472e-06 -3.18991397149881e-05 -4.488742192752649e-05 -0.3412398447154899 0.18100601883572787
9.75 -0.18758621408671503 0.24561908296688112 3.572655219775497e-05 9.209404200632725e-05 2.204347648742021e-05 4.555715096368083e-05 0.1637188512445672 0.19462409735901773
10.0 0.28848394974220204 0.06835039342356966 7.412361181508229e-05 -3.227733821625366e-05 -1.271712016948012e-05 -7.359834579589525e-05 0.014034763562742691 -0.3477450643685577
10.25 -0.04856740563792772 -0.27173804866206186 -9.647392205291934e-05 -5.1869297182630725e-05 8.23653986760105e-05 5.5515206384566256e-05 -0.013390847685941405 0.26271300204156245
10.5 -0.10315294074722096 0.2979735950606532 -2.3468043036966094e-06 6.248467852130774e-05 -5.887336675421393e-05 -4.213267145324727e-05 0.23933257892643012 -0.18095303126034706
10.75 0.21227463089106735 0.0012650357938209789 9.178726252265126e-05 -1.622506504288216e-05 5.7185458454087866e-05 8.531896692776125e-05 -0.21314065412432542 -0.016104513436513146
11.0 -0.2450431037661438 -0.16358631743437557 -6.3397042530346e-06 -6.506551753735382e-05 -4.570374455624407e-05 -6.737595513162094e-05 0.23279120318401134 0.275891699105223
11.25 0.11131755126174775 0.31356431293811693 -7.863966820100178e-05 3.104695278760729e-05 3.16468946591812e-05 7.897810740701356e-05 -0.06580616422259536 -0.1771292561276238
11.5 0.12006047844366832 -0.0983302832148184 4.594281777891632e-05 5.3858296175659774e-05 -4.2948602959860734e-05 -5.721655376352409e-05 -0.20808221992251946 0.13417785357582276
11.75 -0.2615948031377221 0.12568514863923874 3.529618682825462e-05 -2.4424980122087476e-05 5.476335864707018e-06 3.4386200047966743e-05 0.34996292505692306 -0.1243555467227315
12.0 0.13039626923259667 0.1836243409570963 -6.872671965704082e-05 -7.93437178737583e-05 5.0889024181924685e-08 -0.00012016585836535072 -0.0640093200118087 -0.1012251017112522
12.25 -0.0703302396254078 -0.17172478332343755 -2.2386669682579944e-05 5.582631494263784e-05 2.5465236333907825e-05 6.42614761902978e-05 -0.028092503749999075 0.2735350698540472
12.5 -0.19114561500267335 0.14169829245708576 6.006118157012521e-05 3.5779336658082086e-05 1.6583266858636426e-05 -5.302535794599954e-05 0.21228424254761763 -0.1662975268637678
12.75 0.18072557736825423 -0.082994246872971 2.96630824468614e-05 -9.506110590099047e-05 -3.382829988149163e-05 9.977137933923935e-05 -0.1429557378463541 -0.056002689539078276
13.0 -0.19214723065409897 0.03906991886832632 -7.66803924539965e-05 2.890678495889351e-05 -1.878192142386024e-05 -8.582813134870344e-05 0.23603160860764658 0.15105905820886714
13.25 -0.1908675340585161 0.19559727510596142 -4.475196006634826e-05 9.28546514478896e-05 -0.00011931500487613734 6.194703086809025e-05 0.07979382160022891 -0.17394532662407475
13.5 0.05421060127693089 -0.23505888488302945 0.00011512101201168648 -2.26308458050912e-05 7.635644506737472e-05 -0.0001014191105513651 -0.17015706779406095 0.04880350080934073
13.75 -0.12219558469762325 0.02801654804646972 -5.4362082968588575e-05 -9.057962568871034e-05 -4.454627363063886e-05 9.949198352684506e-05 0.24700068823831772 0.049071002713691275
14.0 0.16672391435180972 0.1466714801136818 -6.672388060973015e-05 6.824818068746461e-05 3.350256080608072e-05 -8.062468759917739e-05 -0.12920772300246947 -0.13992029004274528
14.25 -0.17628315260652022 -0.08440552887622876 8.608311767002414e-05 3.699864628819715e-05 -1.594126673282241e-05 7.36854757327394e-05 0.028014230148206032 0.1462130670872521
14.5 -0.15692332415852311 0.11214175151597955 6.625223574661895e-05 -8.635772660747353e-05 6.634701434628734e-05 -5.7439654196812705e-05 0.2044279593825999 -0.09358524771858501
14.75 0.14513592376617268 -0.11235472831680461 -9.902069651279478e-05 2.112019536549417e-05 -4.1043106628550316e-05 9.75678421787187e-05 -0.20181424708084222 0.03880522120977632
15.0 -0.11178675106135647 -0.026145432329017726 2.998812975490525e-05 7.717867355487072e-05 4.179747573754645e-05 -6.33397809269538e-05 0.07661762684078627 0.12393735570756556
15.25 0.03640536043036151 0.24653153567701713 6.641382484983807e-05 -4.498138182187613e-05 -5.213099922065648e-05 5.004214892144269e-05 -0.10721001179605688 -0.1737561308037155
15.5 -0.0232844362543358 -0.10142861927377661 -5.0309763007604156e-05 -7.46748134507381e-05 6.061081577694998e-05 -3.567790467189156e-05 -0.15298066422532405 0.16106264510138352
15.75 -0.21415441958946738 0.016374872300461765 -7.696093235631303e-05 3.946637104817293e-05 -7.59505449851037e-05 1.9956524896761605e-05 0.14930348621032644 -0.016534525241773956
16.0 0.15390159091982328 0.1163696689798397 7.228943228381837e-05 3.471344347147075e-05 5.490446301371179e-05 -1.6707269956539627e-05 -0.1351125747371924 -0.047420128323950275
16.25 -0.039778865730462354 -0.10918643536699268 3.85015073336072e-05 -4.3171998994580964e-05 -5.511285326129754e-05 -1.4736918306629915e-06 0.09490215228422622 0.24255107714180807
16.5 -0.11128682567228923 0.18098392727754053 -5.416445579695074e-05 -6.379439264420016e-05 5.0221034505335295e-05 3.451173792299689e-05 0.090278302552931 -0.00012793829983975824
16.75 0.1089223404350309 -0.013047184926607114 -4.6751657865944446e-05 5.791717795043849e-05 -5.9586548837719516e-05 -1.0441746422434885e-05 -0.19670544339928797 0.04737574904583153
17.0 -0.12991934404931196 -0.12085462001979444 6.369499838355557e-05 6.505314835571572e-05 4.2201035957480637e-05 4.6670677238210185e-05 0.16516694752426414 0.03471982571450807
17.25 -0.0002278264656256912 0.1383634536392782 2.741184164062175e-05 -0.00011481725066811719 -7.50297453762569e-05 -5.785001653769966e-05 0.03400405281106897 -0.10703677532968947
17.5 0.0775646251490835 -0.10416766043210085 -0.0001217346359648489 2.271695524926793e-05 7.052510007900478e-05 6.442061460405478e-05 -0.016565080144524083 0.1772863088736646
17.75 -0.17584964429632174 0.02524388744470059 6.940253923780859e-05 0.00010252653789742213 -0.00010643406058006595 -3.247190468482866e-05 0.10081905885446374 -0.1001201920872925
18.0 0.027950432588395635 0.031562454718449595 5.3633092859517574e-05 -4.974488824773127e-05 4.195437841650661e-05 2.8795224233683784e-05 -0.06452249658765011 -0.0016516705824761863
18.25 -0.019289226307482112 -0.18966386967783538 1.4361935791475166e-05 -8.152853957393177e-05 8.99057831725323e-06 -8.192285249078755e-05 0.07783371178208323 0.21799979184649984
18.5 -0.07755497537497008 0.05853094266278644 -5.865259576345104e-05 0.00016660523884088585 0.00011136259694369235 0.00010084884544495635 -0.03524112147039728 -0.04882778718129688
18.75 0.09259359752730967 -0.015316621072610004 9.286048969181058e-05 1.1665196464612595e-07 -4.4541903743652674e-05 -4.4304525139174985e-05 -0.054725947786284056 0.1299368093614115
19.0 -0.1018226087992038 -0.1431084951092671 1.970722499470763e-05 -0.00011078276002562754 4.486642227324201e-05 7.179680137452829e-05 0.17095719559746858 -0.0385743064224556
19.25 -0.01411308064593729 0.0247280201158033 -9.068800107141182e-05 3.42118983064148e-05 -5.205614254848654e-05 -6.964903959095027e-05 -0.03400558120768701 -0.11408590047409847
19.5 0.06875561968284416 -0.17793203871954436 3.3821778580154003e-06 7.67200222297342e-05 8.52124948576654e-06 5.6773442966732095e-05 0.08842999720691258 0.11076242612716287
19.75 -0.08462807400653502 -0.014919062650314202 0.00014165156729128894 -9.529160703713969e-05 -3.83647415278841e-05 -0.00013013667240919667 0.15659807394471076 -0.16715407300988144
20.0 0.02329154092654101 0.07932776593788536 -7.503773656432775e-05 -5.1825755755623006e-05 1.1412409538686484e-06 8.151179921891196e-05 -0.08975315279175389 0.10776297074250385
20.25 0.03544279170229613 -0.1920907634074745 -8.274294175329908e-05 7.45386614857227e-05 -2.75646557264718e-05 -8.658026800282885e-05 0.0806096973483496 0.06625922006642933
20.5 -0.00028484580883268024 0.04769472602493591 0.0001144737407192837 3.155260999905321e-05 6.380181359678152e-05 6.30434044651177e-05 -0.20342946275000326 -0.08449808714364986
20.75 0.09903617573932733 0.12564133324272705 1.1840693227824044e-05 -6.182425590317567e-05 -7.404380979681097e-06 -5.394221207530245e-05 0.05117416137056793 0.03006683320754716
21.0 -0.05437968775966029 -0.0893726308816481 -7.021509521096196e-05 3.938325234991759e-06 -1.6217519997133505e-05 5.998784219534592e-05 0.14410617005529652 -0.08823835928387144
21.25 -0.060475086550344996 0.08495444036243566 1.4795870995290157e-05 3.5016234744427847e-05 4.6044327682304605e-06 -4.0961992939468857e-05 -0.054889022615866506 0.12677594572470047
21.5 0.09791444383856854 0.05687619344779121 4.98328980441119e-05 1.9094260462634e-05 -2.7738443415313623e-05 2.6605340607104343e-05 0.10636773205619982 -0.0014701763883800123
21.75 -0.124851495179906 -0.025316249865470535 1.42809316089849e-05 -5.4176939809410095e-05 2.7928305968620192e-05 -4.341557254365789e-05 0.01899222247235846 -0.13682882340811048
22.0 -0.00707384324310574 0.08889142338528633 -7.614217711269509e-05 1.4724329254727442e-05 -3.828902023230033e-05 5.814500308876846e-05 0.08175500216454107 0.15523528758220567
22.25 0.0790376596281335 -0.020707125335488408 3.902421995786319e-05 4.792491744608264e-05 2.6130565693935802e-05 -3.347939406958411e-05 0.06416189533519366 -0.008788671717852109
22.5 -0.12933103819009417 0.07856754778564111 5.758741773349128e-05 -1.7446641307786805e-06 -5.838697904971654e-05 1.5233969967373187e-05 -0.14076916063938955 -0.06797275572956463
22.75 0.004902267964008333 0.08050009577008116 -1.4779080170744008e-05 -5.763581738772308e-05 4.6103944217831224e-05 -8.786119938074323e-06 0.10973082910914017 0.04354326510674973
23.0 -0.03259895529350565 -0.07333408612960607 -6.672103912724397e-05 4.179099528580123e-05 -6.040233174442621e-05 1.9394981994107108e-06 0.05094640128737901 -0.10699740094798257
23.25 -0.04664675421871883 0.11179442703385574 8.16661180517001e-05 6.64721816475879e-05 7.529534940907932e-05 2.7241195260415357e-06 -0.09345982785290755 0.013059725012437809
23.5 0.0738323775062211 0.02518816173465943 -1.1581342531780619e-05 -7.611205853209376e-05 -6.718182337920594e-05 2.429424929777017e-05 0.13930645155235996 -0.08663038248906074
23.75 -0.08609032310317424 -0.028869806980616208 -5.521719983048666e-05 1.4425872733598698e-06 4.9705477668041635e-05 -3.3599547240016548e-06 0.00592754962308617 -0.0653061733711254
24.0 -0.04370276179997401 0.10334175542382745 -3.6362788745557035e-05 7.9620486810938e-05 -7.24903763213354e-05 -3.1208020921785405e-05 -0.05014251423790609 0.17021383342914226
24.25 0.04141446843353117 -0.0695044822113272 9.764286133131229e-05 -6.246672681358486e-06 7.76931199628048e-05 2.6480016013512135e-05 -0.014367535966383634 -0.12381433386509905
24.5 -0.09526542972937477 -0.027350133875442266 9.861064735763942e-06 -7.869932063539917e-05 -6.192059332999202e-05 -2.564876642589674e-05 -0.09820569604572754 -0.14059330179761767
24.75 0.06421057289734204 0.04593742186544237 -7.241078209839724e-05 2.9120623176820645e-05 5.56615450173149e-05 2.4650410415566847e-05 0.11309291075371063 0.037841583634607434
25.0 -0.03742351758377113 -0.11028289149667599 2.8765581814023554e-05 0.00012100894215684742 -6.0657408637992346e-05 -8.57132122292144e-05 0.10140399046835676 -0.09079032312202737
25.25 0.007524642220910843 0.06368846848717048 9.124915390751876e-06 -0.0001297857029994059 0.0001050436668604996 6.367538194314271e-06 -0.02362943143492581 0.10604499381624795
25.5 0.01678544860648444 -0.08954791484289878 -7.468711986532798e-05 3.571755675790204e-05 -6.095000965963971e-05 1.2978500603877221e-05 0.12157664637237783 0.021468091295539893
25.75 -0.10254111590715152 0.027099225973879384 2.3976045253450905e-06 5.814644761451848e-05 3.931004521542405e-05 1.2791559407400234e-05 -0.12194660993289644 -0.021208541868998586
26.0 0.08003536746258241 -0.02256469613810799 7.23352667073971e-05 -6.44375557097155e-05 -7.529482467505683e-05 8.830228701923317e-06 0.0159734320914863 0.02425086371656398
26.25 0.041830907152861044 -0.112312646378285 -3.0255096063510893e-05 -7.412152883124628e-05 5.895842651305117e-05 3.8002997246037843e-05 0.09370040297454979 -0.1685182518747824
26.5 -0.056704353728919674 0.03767428460389645 -3.9361907572989334e-05 1.6496021154672482e-05 -3.2761304943169254e-05 -3.0089890819017106e-05 -0.027615203879300484 -0.06171785359724939
26.75 0.11389103445053186 0.013227146542839473 -1.4660794953374597e-06 6.499663535118719e-05 1.7881282092051236e-05 6.065060793672384e-05 0.05921226974281994 0.10037473810503213
27.0 -0.0043252243164999815 -0.040871154640056986 5.603270464720301e-05 -3.749416073951003e-06 1.5014557310608072e-06 -5.612955915679392e-05 0.08572192361605026 -0.08192764767040259
27.25 0.02509048180838734 0.11532555510342003 -5.630686781750717e-05 -5.428962162992118e-05 2.6733671941728268e-05 5.6179656930934285e-05 -0.07638720478030513 0.0466580041129776
27.5 0.024004639982497578 -0.09183360080161627 -3.9959347187575904e-05 6.285143415571179e-05 -3.7605267652343516e-05 -3.652079564100312e-05 0.06589492304994451 0.026741818212118212
27.75 -0.026298925806228425 -0.005428835868752091 5.886105883786198e-05 2.3854610099165116e-05 3.788065463984466e-05 3.065405473747382e-05 -0.15037009446204905 -0.051536273100306756
28.0 0.15246442243209965 0.06438953945479194 -2.3987715298343952e-05 -6.420668926159073e-05 -4.8709811093309443e-05 -1.988403728969427e-05 0.03681302264126998 0.015553802111416583
28.25 -0.029514158719327083 0.004850557901707346 -4.8921709455510684e-05 3.4560809211363385e-05 4.314204206901728e-05 1.0807809466903896e-05 0.06917076078975802 -0.13202500485800772
28.5 -0.10574946687452116 0.08479694287002316 1.2825790337608482e-05 4.0729792152353115e-05 -2.9302256486349037e-05 -2.6155539223746623e-05 -0.018948508333676062 0.04511348187331832
28.75 0.07825487036230434 -0.006694248858437293 5.979585600258554e-05 -3.872981490512019e-06 5.777937864823769e-06 5.922196458037778e-05 0.10159111544916492 0.07763526284659139
