# GHz S RI R 50.0 
!freq ReS11 ImS11 ReS21 ImS21 ReS12 ImS12 ReS22 ImS22
1.0 0.13180693327144688 -0.2593439542245114 0.2909593065446536 0.6622969996824682 0.575277649050449 0.233085027001263 0.25281703213850126 -0.18399385372363147
1.25 -0.06956057013193023 0.17306927583469006 -0.11915471055024707 -0.7729481665261023 -0.5636379547485795 -0.2862441512417824 0.13986123782886906 0.051416416211761407
1.5 0.12105618735975249 0.06385657989219136 0.025939765657270575 0.7125499489301844 0.4996768700881502 0.26378815118158355 -0.13645296365546045 -0.135301407165284
1.75 -0.020193124342824942 0.021318208249330117 0.0729475518828662 -0.5602930591734265 -0.3903435642529665 -0.21288229509302797 -0.027412993382608095 -0.05289748089349258
2.0 0.097394438702818 -0.0723226289867931 -0.1875803468676373 0.4355739904169281 0.2833708286586831 0.21477196553990485 0.20942503866720313 -0.07942738728984985
2.25 0.0597048320474115 0.10348973546921285 0.24672739458270465 -0.35821792962483395 -0.2529408222841878 -0.22086877306294272 0.13652983285504072 0.07935183819984068
2.5 -0.016583849325729053 0.042220668541775176 -0.3561626191627232 -0.349386597551019 -0.5082498374946113 -0.14892603063871718 -0.01992487601716919 0.047049922037892745
2.75 -0.09127380996698312 -0.0754026241033336 -0.17021333586226267 0.6674027081705795 0.6203261192842712 0.08216229879423309 0.03098945964772797 0.027325664562334036
3.0 -0.09041658897668149 0.20440945570022268 0.7722300507779657 -0.22339745520278753 -0.6168085802245187 0.2663686230125496 -0.040015449603688635 -0.15400996134128228
3.25 0.05738312888874779 0.0732971490368137 -0.5823530222256328 -0.6304874102958464 0.581909888034858 -0.37864105317466623 0.030187053898772805 -0.06263767406965648
3.5 0.025712744127290327 -0.026137644796047743 -0.2165583365026938 0.9521265125966571 -0.5475586150011396 0.49062940458770343 0.04659909598040249 0.028339369457346122
3.75 0.00767442499468185 0.016821367970445318 0.873010194564407 -0.05445545406584007 0.45107969646315305 -0.5560325452859449 -0.029837932057768156 0.034569466296278495
4.0 -0.017538054621898384 0.0671629925344674 -0.427509930965833 -0.6950850199506347 -0.3572480598365003 0.5919500300710764 -0.09467053759022034 -0.049603545831500034
4.25 -0.07937289428364938 -0.05098725222077376 -0.5158042969142984 0.5506309011055224 0.3383566993329219 -0.6374559771574722 0.014087514148623873 -0.13786086835940245
4.5 -0.04643163172257001 0.001641010577813115 0.7009948537402699 0.2832844226041743 -0.13202926445517182 0.7411060814749085 -0.05761211969714358 -0.051090945494881704
4.75 0.0986696046377776 -0.031604477823861936 0.10149733975224995 -0.7610683072610932 0.32009974050551093 -0.6963533419721981 0.022975553064001918 0.05700699030996896
5.0 -0.07335662950396217 0.04497247382738946 -0.7084759071344663 0.19143025106447276 -0.1925861792309264 0.7495373098561767 -0.07003494420224407 -0.03224199625466357
5.25 -0.08230301661700504 0.0620425666662808 0.438623491380276 0.5955654168681646 0.3451402078735963 -0.7153507950675737 0.005224347314773267 0.11173235707535814
5.5 -0.0006120067749388752 -0.04912098181971471 0.4132090851836926 -0.5288859604297829 -0.24428364674735553 0.7373609579432265 0.0303905039854499 0.05293027148712581
5.75 0.011727664789831185 0.043337713765208556 -0.5662868614062054 -0.2346465710326614 0.2794590342379033 -0.6833029762723694 -0.06553770536135105 -0.017346716308429815
6.0 0.040432991655992234 0.07385260553523779 -0.08837581744997197 0.5855282982769241 -0.33167840203203897 0.5933020543019476 0.12412509951449524 -0.10725563052578424
6.25 0.014250010113852216 0.0034593217159219064 0.5976944717443404 -0.031059493971803187 0.40142770534188926 -0.5304992230925697 0.06834029316765511 0.028956419817883078
6.5 -0.11059576866087753 0.180646916085732 -0.2441842388986295 -0.5518667865728256 -0.29214681088416067 0.522933650569484 0.022443162327774234 0.24414112895411816
6.75 -0.05431312939572191 0.02024835763402938 -0.5390409863712138 0.253809776700921 0.42431779064888125 -0.41228023483086707 -0.062497834896663766 0.008421698473247363
7.0 0.04217836557768519 -0.03609602447492838 0.43008020565489646 0.35494623800884795 -0.259855673844798 0.4859941388940351 0.03942938664854472 -0.02241098635251347
7.25 0.08380590735647708 0.1945278325244642 0.26971748054001 -0.4153487158607967 0.306363204640727 -0.36906592959092893 0.25699567852350214 0.0015909843070029336
7.5 -0.18662044830106223 0.21350604133966658 -0.4556748589664332 -0.18435885206732044 -0.3122298408934351 0.36696181809584794 0.21282510904996876 0.05534904898879362
7.75 -0.1942037014453219 -0.06454115794469487 -0.03249160665749867 0.49414493550875116 0.30371046450161454 -0.3601732493346202 0.05589218267699847 0.010033701249068605
8.0 0.007914293661257649 -0.0898485781524963 0.4842701824498515 -0.04679125758090302 -0.35027877005173774 0.29545376310561183 0.028915406645573186 -0.005126627768642197
8.25 0.006259880538984064 0.1749610529476644 -0.19907072955125038 -0.4008040963136229 0.2987568979331566 -0.2837565815505482 0.04299977916661909 -0.0997274765646145
8.5 -0.10548000310068205 0.06665567145415754 -0.3574531613059346 0.21499041665566843 -0.3236451382497535 0.23401624414754135 -0.009847996937500075 -0.04739908678637116
8.75 -0.10853183765200948 -0.0194632898297563 0.2953310637674507 0.22819172800008597 0.30827694067359895 -0.2190660315857379 0.05687576160587935 -0.13076482643639056
9.0 0.019553973699079394 0.0284750001593729 0.16644077262650916 -0.3062335313689089 -0.30310735827850616 0.18825312297878835 0.06254887369884717 -0.07274581707761608
9.25 0.00746264252637582 -0.03179158709518724 -0.3252763591614998 -0.07021821867687258 0.3050625710683937 -0.14785529603495223 0.0868254887122482 0.11045142828944039
9.5 0.01148482509458916 0.017950970703647262 -0.002884587730846877 0.33156533062933957 -0.290354299144895 0.1334706029984731 -0.03418010227822922 0.08488778484469886
9.75 0.02923303025039319 0.018593488978409064 0.3007091296048161 -0.07416453492207742 0.28677317369459276 -0.11154899150883046 -0.07395131047863696 0.025795260239975346
10.0 -0.004131426255425615 -0.06372413019823958 -0.14080260681539558 -0.24906590658155586 -0.28433128754923986 0.007313208607558505 0.05150623367645374 -0.07798389199670665
10.25 0.07838914597098964 0.009868315751199341 -0.22822536856311018 0.15273115236176826 0.24400522143746772 -0.11220677517431299 0.025451295777054645 -0.06666297024096908
10.5 0.03801807456921627 0.12943827093352658 0.1868563320839943 0.1636381818190073 -0.26124878701864507 0.01464979543835862 0.08768739206187477 -0.03980642803115353
10.75 -0.04790432202499274 0.05057889856080525 0.13021704249923974 -0.2088533355860841 0.2599473291394385 -0.022662733918896096 0.06433626669947488 -0.012996399405902203
11.0 -0.0020962405657300454 -0.0031433330310007696 -0.23155167263025758 -0.11645994071130952 -0.26043633688615114 0.052094892043815226 0.04595592563173271 0.08630546019297676
11.25 0.06764240867899791 0.08232354237775803 -0.06416234200040224 0.2423062160378292 0.25549591661447363 -0.021081013261930362 -0.043583121556970576 0.0603857898689064
11.5 0.017162566486727204 0.10604241414878872 0.2427163834352255 -0.016021314304567713 -0.2562764596782061 0.002597985807230977 -0.002313778627373822 -0.08073076754169758
11.75 -0.06824065703058163 0.04852506268686691 -0.09830151070930357 -0.21187386383247736 0.24848602138862858 0.027150221214154398 0.09863130338904547 -0.10829641091267658
12.0 -0.07451099545196671 0.04434157137358369 -0.1891100281377242 0.09101980961534528 -0.21552652348424053 -0.0740083597237565 0.15805069810223765 0.06992458660454365
12.25 -0.06508071920224238 0.014063494442123532 0.08048587830169246 0.18397767279019447 0.2011213305049706 0.10977324072966048 -0.003369435260289405 0.07315822312696008
12.5 -0.07660965284930628 -0.019721403681225713 0.15268462141972647 -0.1380407764259545 -0.17659801627734684 -0.13972758978048644 -0.03429982378839774 -0.013688522891370264
12.75 0.001164444216736199 0.061477441054370384 -0.17714601571623403 -0.0704316610742489 0.18994524299859 0.0954179777290596 0.1152473698157141 -0.0609123958689
13.0 -0.033112629770246 0.08509970363466218 -0.041141513298878496 0.18400841340067975 -0.17825180112078226 -0.11105546292992412 0.08971534205480851 0.022293784050189266
13.25 -0.17624624171913342 -0.028755487678854455 0.16845469629811644 0.06223513669094548 0.09317746603697344 0.16643106008176456 0.038014596074504955 0.061698089554697716
13.5 -0.027892030061632545 -0.07664593843454268 0.06449112068138191 -0.17788130849585998 -0.06413363984668996 -0.19157458819232817 0.0286693212698649 -0.034741660654839294
13.75 0.05012577563079067 -0.048508342285251735 -0.18305622170227492 0.01796214692738618 0.13398655387915975 0.1501854632242671 0.019489104530584847 0.02290620698260342
14.0 -0.04073445111013445 0.08564581612076888 0.06615133330926856 0.16134152354552933 -0.12329385231049461 -0.13198120787341552 0.021397496462264423 -0.025904028115355693
14.25 -0.08501912117999844 0.03336143849691757 0.16764472360407534 -0.08319516716108744 0.10406599783444967 0.1393222060417654 0.009887054775446522 -0.04542449920139618
14.5 -0.049575539928490356 -0.04695205582632893 -0.1088076202467867 -0.14427788931000626 -0.05229379413474308 -0.17104437956121613 0.0589059070360535 0.04164147921650004
14.75 0.0027724966295795545 -0.014985983787015128 -0.10867476345552118 0.142882401613923 0.04573060897064091 0.173448875652458 -0.0006917529540589953 0.06211769985842377
15.0 0.023237725307438454 0.032737364692867164 0.1613963443404769 0.059290844174421015 -0.040926108104450104 -0.16328299792840867 -0.08750916330602812 0.018988767197443503
15.25 0.017245609172559625 0.07973767899724474 0.03674873297547561 -0.16853582034612918 0.015621544992041742 0.16309809237352546 -0.05118955996521312 -0.01622724192350422
15.5 -0.04246441090974913 0.052429923803503795 -0.1785903998305483 0.01823297799809706 -0.0021040552445518793 -0.1724253508003323 0.004571809712256188 0.027806601748511815
15.75 -0.05764302152465541 0.006182865154878668 0.014502272685453843 0.1849967639859612 0.0010363535578935194 0.16442502838361217 -0.03732454224959145 0.055319686101801734
16.0 0.030128630319885018 0.023325127052425027 0.165716244357146 -0.062256550326360405 0.05817318780654074 -0.1474215114897604 0.002325831824956791 0.06825442408296187
16.25 -0.027265328902600323 0.0360921837482501 -0.09795823513315566 -0.14120519353716224 -0.056300464890725974 0.1373657171274771 0.047871370407289934 0.07204156390567264
16.5 -0.040840826029712736 0.05643066036763232 -0.10257547098262189 0.12045329969955396 0.055287248202759175 -0.1263780344012666 0.007606661479395732 0.13357791507320627
16.75 -0.014355939080915793 0.029088058520147685 0.11471928252631151 0.1172596665717896 -0.05329029518984953 0.1324720355975806 -0.014048569595528977 0.04354159553509182
17.0 -0.07206138349305234 -0.010449221739631476 0.09831913219523332 -0.12925926653718645 0.08105666480809763 -0.11197288443176487 -0.011087621370881073 -0.025320258244114213
17.25 -0.0448809755419934 -0.0174746904878139 -0.15739927828430672 -0.019908850533678774 -0.08483645108774487 0.1013281825925616 0.06787364792938048 0.02074179915037793
17.5 0.03850833616927721 -0.0244401137803176 0.03381696523325395 0.138594061735347 0.06450069702256987 -0.09657025388274237 0.023878771830412947 0.0048562402419433034
17.75 -0.04871769451006159 0.043814382755901896 0.14068906583736993 -0.0428125738019523 -0.07168760082750468 0.1049217593148926 0.008363170127201607 0.02320065129612936
18.0 -0.0882224941223202 -0.03305092838324378 -0.05823854439617873 -0.1253677176962981 0.08415591806143859 -0.08414909771658917 0.06613497357522945 0.030134323667573792
18.25 -0.011371072971996063 -0.11676675538727982 -0.10250155914973112 0.06573113919713647 -0.08403388202223495 0.06585372838359607 0.012352247803256416 0.09865194954524555
18.5 0.03344711220693129 -0.041146932199360234 0.11457191335571189 0.07191905327425285 0.09356944219600358 -0.06923523317136229 -0.029105046123751116 0.09415685213374841
18.75 -0.025197276777246286 0.004809014749552885 0.03818950222790855 -0.12802067019322239 -0.10350680226697288 0.06800116733987982 0.00704451929357619 0.001983541153129792
19.0 -0.04436021919147535 -0.06212375049756142 -0.12839464368478753 -0.02277721743799621 0.09820004629044198 -0.05099469273678975 0.06592725108435049 -0.022973959237171597
19.25 -0.03292945863649361 -0.10804023405605154 0.0012098576745303569 0.12660003402340111 -0.10523294784096883 0.03394065000526628 0.06817821898283953 0.01588341272314652
19.5 0.015532463487667715 -0.07676067167014511 0.12668939702707385 -0.03563286341841357 0.11078332523160722 -0.032412446598838664 0.07089724746668336 -0.005340918765658148
19.75 0.04967295411227368 0.018104533844212567 -0.06781707620036911 -0.11939341320534323 -0.1180397651418446 0.020871143337307517 0.06067361667925458 -0.04220467195692441
20.0 -0.037615056140440035 -0.03313632656620422 -0.09897812939933939 0.08682808441965635 0.10722751169572284 0.04149973611459228 0.04854714644889406 0.059453830813712444
20.25 -0.008768333319979133 -0.09008614359623987 0.0874367840397253 0.09548678758398162 -0.10475585554517929 0.05043189639540714 -0.043134612462275845 0.0620179469224946
20.5 0.1093155220918186 -0.008523613025151963 0.07343553970958154 -0.09315736666572601 0.0900566324205012 -0.036299293089730164 -0.05700026209428108 0.013877379329587054
20.75 0.008864946318785497 0.04574162269177269 -0.10939140458509823 -0.061095591617156865 -0.11048625513432936 0.006177888849854166 0.0002541043450508054 -0.06003347148176486
21.0 -0.048666050614241785 0.0049747254078228095 0.004250321210472016 0.1098352968316297 0.09663412307170353 0.030610418735766004 0.04643838240405251 0.02738080949715277
21.25 0.03156113239701916 0.028913472804553832 0.11147833483580893 -0.0067439238810509256 -0.08155123343492643 -0.04919062932382408 0.05390689657307992 0.025527586557961626
21.5 -0.022277995147435024 0.05874297129508233 -0.0244539111320477 -0.10726972147638866 0.09184194542783694 0.030062856009552948 0.023729706398693838 -0.032363685910653986
21.75 -0.0678430610383313 0.020666824795832567 -0.0945094372240012 0.0327479372424275 -0.09057202686881208 -0.006873957985800112 0.09598911392531673 -0.007026408018072101
22.0 0.002812715206460939 -0.009481382291578692 0.04763275159416534 0.09996511171724337 0.09064246876540823 0.02054607568887775 0.06615941185324703 0.054248940544696145
22.25 0.02077808509686925 0.07233452613169394 0.08478399302773541 -0.06849414331281548 -0.08651768765819254 -0.032109583103793346 -0.03949244371640788 0.03857706008606703
22.5 -0.058272988189816674 0.07876864564290414 -0.07283489407962858 -0.07045520860022964 0.08066351316792773 0.03339432261509756 -0.010549492856053336 -0.05673707026776292
22.75 -0.05815207610012948 0.019403645772323355 -0.05433349282308532 0.08100805239488457 -0.07884716679135502 -0.03905709515665157 0.061601067026104524 -0.034349398246393395
23.0 0.00018857139523044408 -0.0012262806758242296 0.09804382547153327 0.02035001766403182 0.07625534367157052 0.04931478634007546 0.01985823178529074 -0.0023621999128379603
23.25 0.010682942468645776 0.04622576530695209 -0.014972928940716237 -0.10042275177203135 -0.06210945733558716 -0.056783167748764574 -0.008521913014030404 -0.05074143682256739
23.5 -0.014654876364915406 0.06595327460954956 -0.08665556519533493 0.04296428024353052 0.054664554807614445 0.060678644294698006 0.055067789659200096 -0.08943736901345431
23.75 -0.023860946234630545 0.01618079017076196 0.0600018992042914 0.08452835360252714 -0.05761591590605535 -0.06799842736053294 0.06843569801171033 0.009377068086891802
24.0 -0.03443652479802366 -0.004532147722823433 0.07999515500614532 -0.061084702333130014 0.04256373038633526 0.07285723778118286 -0.016802842255913372 0.04502603861158805
24.25 -0.008339653701777333 0.020138324354635365 -0.05841979899682612 -0.08364833074492879 -0.025525086537041913 -0.08321776518871814 -0.10398259095677113 -0.07542705868281939
24.5 -0.004921358878809394 -0.019509682566457406 -0.08666248301133794 0.06429043336019456 0.03152308508068864 0.08296687978658482 -0.014513461686500445 -0.07095685057885678
24.75 -0.04844408820991406 -0.014318309374102778 0.07268785820375098 0.06935564183313604 -0.013627858368287872 -0.08222949673625181 0.05820846464549832 -0.07646147046904578
25.0 0.009794195382181105 -0.024735580488021543 0.024658772688782422 -0.1056547280012277 0.007170086768897462 0.09089490057379528 0.029093806656438983 -0.0011696018708528405
25.25 -0.015203102205436156 -0.049916327952411965 -0.09937150259942922 0.02814980294980811 -0.020990290187126164 -0.08247575701961564 0.08694188484596573 0.04054003011382105
25.5 0.0028231010144837802 0.0001591627450829025 0.06821893602997096 0.07950764715372735 0.04673374690946186 0.07548232457665077 0.018489653658817648 0.045625142994752156
25.75 -0.01595335434180462 -0.00684525544948725 0.05056900587122779 -0.09002461799975965 -0.052175737418613775 -0.06573651294109437 -0.024844898007252644 0.04217805318432903
26.0 -0.020676354181523256 -0.04494874881171922 -0.08184611257657734 -0.046794724954694514 0.03649734811430752 0.07126702010409766 -0.06065618441624392 -0.06028218937014508
26.25 0.03363477624595044 -0.04119691540169224 -0.06049912081388841 0.08036502192158126 0.0026335513640722077 -0.08118941567408054 0.0341204878978173 -0.11980276255600197
26.5 0.033796900984728324 -0.004768716375376791 0.07579009528665803 0.07102911885272956 -0.03220840536225247 0.0789320454354681 0.0795426690015369 -0.018901331853838757
26.75 0.04364881920565877 -0.0037575953993730857 0.07011568437102797 -0.06516298355136824 0.04557980313545352 -0.06567276436192541 0.025530048862154625 0.015319436248213109
27.0 0.026804171556851043 0.026380460660064088 -0.0766838578520265 -0.05190260696158091 -0.05218700270116233 0.06017696893391411 0.018434585496394058 -0.016726471745015854
27.25 0.01133984896123878 0.04550280597074595 -0.005209584425691832 0.09090994760245291 0.02401404010103656 -0.07123861071554613 -0.0020711710420222504 0.01757678172748452
27.5 -0.012007255699056089 -0.03402531082465299 0.09316046652282128 -0.022263578358314023 -0.0008901362551912914 0.07678056886477519 -0.02642238979336152 0.02186088746522692
27.75 0.04486376282841381 -0.03506885038230505 -0.05084039083732962 -0.08381930535034418 -0.016908782367918228 -0.0765098367944175 -0.07154488205613313 -0.00792977542796346
28.0 0.0916023333495903 0.045936350099250345 -0.05699506335989894 0.07598443840705744 0.015548357161327055 0.07334331532103418 0.005124876231652031 -0.06677750948289463
28.25 -0.009572660727880267 0.0738420319198744 0.08077848310640894 0.03248500753171543 -0.010255808534744911 -0.07105072181929949 0.049179516817891025 -0.060783093904720635
28.5 -0.08383346042322593 0.025763402999891008 0.03360517505454794 -0.07737510218439951 0.004835973791389116 0.07009040118928885 0.07528553571427288 0.023074369425760015
28.75 0.021044976167810564 -0.009159997750399624 -0.07625079330188539 -0.038284908604279536 0.030205157317432674 -0.06691661643100115 0.028227910633051516 0.01863398903070512
29.0 0.02949786301349942 0.03095321392436568 -0.012969697629148513 0.09266307973892088 -0.04257115697870299 0.06506446231275556 -0.04196261384134158 -0.02284359161487966
29.25 -0.019709196051761736 0.10585756420563157 0.0857662255037032 -0.019560622134348213 0.042321242265473305 -0.0609297640282931 0.009524232184859385 -0.034865834029902974
29.5 -0.04919640231203147 0.06106781095279549 -0.04163210078516236 -0.07605370611631604 -0.041496193530562095 0.05843564624335702 -0.016117483761917004 -0.0541403550168424
29.75 -0.03902230127866628 0.02857841199728639 -0.06171612303702628 0.05873026464299774 0.03999748195295342 -0.055800165136955064 -0.008590699226025006 -0.03160317719028758
30.0 -0.00625961385256113 0.030930961984494732 0.07239583179722242 0.03829740336672528 -0.03837959506133693 0.05663029558155517 0.006052777183770064 -0.037700851489515345
