# GHz S RI R 50.0 
!freq ReS11 ImS11 ReS21 ImS21 ReS12 ImS12 ReS22 ImS22
1.0 0.12598552189718415 -0.22168505617526 0.11163718467023138 0.7201478750341799 0.49871357460248344 0.37783269174172734 0.23787525623577588 -0.14101472432560383
1.25 -0.054891674216333675 0.1424212029035777 0.13335154101595348 -0.771571544796656 -0.4419493641285729 -0.4535833575220039 0.1518981662295194 0.05150929021177661
1.5 0.07984917602855612 0.07520888889057464 -0.2427679480312704 0.6746686420150811 0.36522349315427044 0.4356649110693258 -0.08834406778748599 -0.12521246563506372
1.75 -0.06024426263856625 0.04572721732761779 0.31394540847418484 -0.4678282911519088 -0.25129811325244034 -0.3655703656923855 -0.0704755383314759 -0.07606724033177754
2.0 0.1076680606131418 -0.04221658368636152 -0.3766783877408477 0.2886611158096686 0.14000481157031092 0.3273964224207813 0.2024917364813429 -0.04973423808426414
2.25 0.03900352156962339 0.0968316264740682 0.40597150007331934 -0.16590895934547156 -0.08895227418667875 -0.32685314744550764 0.13955225564523244 0.12007389329597798
2.5 -0.000950688977253554 0.07338815671642317 -0.0678587832981295 -0.4941218520414332 -0.31147531278814944 -0.4278763320015562 -0.05801822044664459 -0.031116571141974136
2.75 0.0017828071101391504 -0.052831023155813575 -0.5745910717295643 0.40096578035051056 0.42235609247572903 0.4760019407076817 -0.03761099566597806 -0.01786625476028775
3.0 -0.1430944305498879 0.018871946700057103 0.7254745299137705 0.39646776563114045 -0.6432344398890641 -0.25273523181608437 0.044467162410216594 -0.11064965621678603
3.25 0.07765504929550143 0.025435391329696078 0.08903290529416097 -0.8633817110390261 0.6762747150845477 0.18851556673379094 0.08269625210783381 0.054621726943918064
3.5 0.04041518341683874 0.05216116389570567 -0.8876624143190446 0.415586638909752 -0.7265923636895656 -0.13081900469118413 0.042962641195250936 0.03897126205750537
3.75 0.1561279235051589 0.16322971242452147 0.5061063319934316 0.7035606889855309 0.7042299025175968 0.08435627125309703 -0.20073461418307303 0.09286254619991333
4.0 0.0207549404670426 0.03677021003936151 0.3817122225016437 -0.7237354323099906 -0.693645204752658 -0.006425816781180996 -0.05157286918563314 -0.0033504853043323235
4.25 -0.1452305534423996 0.02340797224981877 -0.7259167006234518 -0.21926036653754866 0.7251172435894288 0.01979900627154872 -0.043582829319228356 -0.14210984661554235
4.5 0.055288353452003586 -0.057800764904432804 0.004016147224289779 0.7607375926626859 -0.7410800627079184 0.16031852008594535 0.0347504689187185 0.016691198344938346
4.75 0.12472340586292568 0.15813278103334916 0.7429393626111228 -0.14609194945644943 0.7519264031639903 0.0782642046519916 0.033744398450848145 0.17692214676032408
5.0 -0.08899031031426195 0.1812215739313768 -0.356354068529656 -0.6407848409792245 -0.7736668726385633 -0.005517561340213334 -0.03717164891874067 0.19535487668439044
5.25 -0.18621242494883078 0.006753538524588182 -0.4855880541779411 0.5549592335251288 0.7710257390320573 0.18204865918043872 -0.12143477234178307 0.12002088831625299
5.5 -0.05430023817808344 -0.019397929831533572 0.582565854389075 0.3396704570913628 -0.7680011832726161 -0.14284149797586787 -0.09251908317278959 0.05300629191884754
5.75 -0.06308601509487229 0.08176374745408292 0.1872035720126023 -0.586928917104148 0.7083268838135319 0.22200426837715526 -0.02476983211147646 0.03791134127054759
6.0 -0.09964809971912907 0.07706681916660389 -0.5885181094091637 -0.062124249480785876 -0.6078643831656411 -0.3043660540660793 0.048877741727119034 0.06517380306001058
6.25 -0.1267132369994494 0.036667498595024765 -0.009065480815904414 0.5845531551351192 0.4904680947545068 0.4263185872784537 -0.005084829146924659 0.19306718620806781
6.5 -0.11059151662501067 -0.007096771065882877 0.5815895344579719 -0.19100103081143505 -0.4990694998293805 -0.3470426599396978 -0.04189466345945848 0.20593555025944896
6.75 -0.043835119305115675 -0.039512317824670795 -0.15178892719399728 -0.5789952297374928 0.32952026921339717 0.49475635439515475 -0.10121553395428692 0.018605137281676454
7.0 0.044039123475292034 -0.07741295753693442 -0.45087912902277505 0.3303857791793531 -0.4084915042405665 -0.37217569401188294 -0.010278500923877276 -0.09434359230464481
7.25 -0.0269173680076982 0.044044042184600465 0.3414197391448749 0.37476674581169794 0.28686365401194874 0.3987383061172285 0.14703021664636767 0.09339330774574077
7.5 -0.06411298734619283 0.15553389104789567 0.3456614277534297 -0.3687055015751061 -0.2371780366393908 -0.4355531568777965 0.14007185651914347 0.05698610881758532
7.75 -0.1166136894311218 -0.05593173012807942 -0.4426984755620681 -0.23456736468450917 0.20757076383627457 0.429345159715842 -0.048909136461639 0.04350311043354036
8.0 -0.003891699349022476 -0.030311577766535716 -0.1990081416310491 0.44872008200496866 -0.08649665398547501 -0.45452314059565735 0.07056023068756095 -0.032933410717210614
8.25 0.1275976908881857 0.17350024577511294 0.43906415535797105 0.05776490905783349 0.06859601607108642 0.40220076117072623 -0.028686664017638946 -0.10745443828608398
8.5 -0.07350525929754687 0.09701349304868749 0.041452667912924734 -0.4179645207598552 0.0055324374307410135 -0.4022852278112102 -0.03927836544038858 -0.06430692686399236
8.75 -0.08805090600589158 0.011294857078188142 -0.37284156493272785 0.07724561128624408 -0.03453478949937302 0.3845754098444692 -0.022449925717221087 -0.1679433216507789
9.0 0.053474306596370785 0.022662353758458244 0.10535106932784744 0.33241784209100517 0.07424545661248975 -0.3495200578091798 0.032951454869959845 -0.04281106499234191
9.25 -0.05741374384393302 0.026321482890954734 0.2909176292732414 -0.17679541658584746 -0.12243842983639323 0.3246952761153586 0.05211722920960618 0.0932015788817468
9.5 -0.023419149379512 0.008902320657654023 -0.20880521760365195 -0.2628042860347062 0.14328227166911384 -0.29029191103619856 -0.0451910284292987 0.07134689684750424
9.75 0.01751540731296214 0.012608239179531161 -0.205451320171502 0.237202132424025 -0.17199395270537834 0.2600856121753224 -0.04689889006601155 -0.0011332977206806177
10.0 -0.03412821208739829 -0.02107937839540451 0.25534857969092484 0.142416160672894 0.24435182464692373 -0.15779428375340548 0.030693427339446515 -0.07435334525485326
10.25 0.06826844584914868 -0.014808880804795721 0.13558859666169015 -0.24388107798958578 -0.1682604176563735 0.21500486641506733 0.00013264830785273546 -0.06211714204987329
10.5 0.049857722360907374 0.11218514171253022 -0.24086590023844645 -0.07761749863915679 0.23828159047830477 -0.11961705284769736 0.05859258644362298 -0.054362473506560365
10.75 -0.032003688440230695 0.05689600578012944 -0.050539473905993226 0.24294131686018874 -0.23787527064342462 0.11215118133453102 0.07066666984377488 -0.013153089091775934
11.0 0.007904355380174616 -0.018998162584351587 0.2584444276305355 0.04632808145139741 0.2378599953981833 -0.1262106600736787 0.0490908772092152 0.08067880743914271
11.25 0.07030228565931387 0.07391737721480596 0.00959793509559781 -0.25333063323701716 -0.2474023126494032 0.07785342693615643 -0.044731528088488896 0.061586776506797246
11.5 0.01800552774622076 0.1042047507413526 -0.2397827614663876 0.05413194646888514 0.25539154762838023 -0.043215687088217575 -0.0049371031645394844 -0.08947109071974113
11.75 -0.06613470535256234 0.04618269034256222 0.11911297656399536 0.2043264207619394 -0.25320958440617647 -0.0037028840884388917 0.09262124511798218 -0.10922137396311546
12.0 -0.07474820853052801 0.04372937428381232 0.18879829513478016 -0.09693974351157686 0.21994248974200947 0.06886165488965922 0.15847891247471177 0.06612573351564968
12.25 -0.06652400949192679 0.014110922628314943 -0.07429532625833404 -0.1888588526931803 -0.19920564886262523 -0.11813567767347584 -0.005000859861274104 0.07590642886205716
12.5 -0.07198833156060068 -0.020833198242749935 -0.16818472530495898 0.12395505678445257 0.16445307824599706 0.15902019187793065 -0.03559180201728503 -0.020883403380939677
12.75 -0.012938643343827966 0.059593401675406825 0.16540871213327077 0.09944428002396945 -0.1743095781975985 -0.1262898754312087 0.1169812446934594 -0.05872319042598205
13.0 -0.03745683999029769 0.08237122477049151 0.08277271914774798 -0.17139789203054484 0.1499786405335151 0.1499847680047217 0.09481177292555404 0.0351112393153109
13.25 -0.15876710131929814 -0.03243491154483395 -0.1487586496572179 -0.10978295469083754 -0.044892393193744384 -0.19123163684006714 0.013560091011829228 0.0732730771271495
13.5 -0.03413941202619611 -0.05999813701506332 -0.1258703388661283 0.14438618205199527 -0.00906761414686729 0.20441636241584826 0.02748753096262975 -0.04785063921928938
13.75 0.05982023502894535 -0.03568926046194387 0.1773928230353098 0.06069877798983864 -0.06125861390435271 -0.1958348460020139 0.025730098262334234 0.010594555669719813
14.0 -0.036744678330225884 0.06123161857470055 0.014795645757923748 -0.1764393787792389 0.050542595163665126 0.17636937922638482 0.03511353845231931 -0.0087543541926136
14.25 -0.058992899694607255 0.05199079698874209 -0.1910084001700901 -0.023707931799765547 -0.010569138442611078 -0.17855478966483024 -0.02598476974400587 -0.04144683672971429
14.5 -0.043483097902774576 -0.03404376513160697 0.004174724283640463 0.1854165798812244 -0.058673830071607064 0.1739612297357439 0.026176267084107415 0.029581216178065355
14.75 -0.038857284961927425 -0.024973957614040768 0.17348682257160566 -0.03687812627872031 0.07731000816510486 -0.15948362313579054 0.0016253207552975393 0.028273386184365954
15.0 0.04214116686482738 0.03441987119896763 -0.07844928554095476 -0.1567275552619799 -0.08335969815239651 0.15012242870240353 -0.08374960801410054 0.03373836322717284
15.25 -0.0007947080428283015 0.09223128198723951 -0.15090582979336262 0.08901334616847045 0.11038815504982265 -0.12461440163899143 -0.04720105605841767 -0.002560491945867993
15.5 -0.0829184125106168 0.07430931498289434 0.12212304308547825 0.12993122127592854 -0.13457816131887632 0.10602193570811375 -0.03888785545024467 0.018371440434533724
15.75 -0.04953802389652799 -0.014429290079222612 0.14197660726412323 -0.12209802200462022 0.13290035634835312 -0.09925258316367032 -0.039271544049391045 0.034221294953408414
16.0 0.023328445082237727 0.020028100784817954 -0.14268451889691622 -0.10983624652541392 -0.1586097946530178 0.029107108574813925 0.00475881131127627 0.027360632850245318
16.25 -0.014572251836496672 0.035407320182433304 -0.0780896965192453 0.15638238517249264 0.149983078560926 -0.017381212571165615 0.05400543625664393 0.09348359040539493
16.5 -0.020732596007103993 0.0431781248443505 0.15472733461705152 0.04303103767657265 -0.14007363237321713 0.003467827880987196 0.0019199364547826739 0.13348601411293057
16.75 -0.032166377272950096 0.012490328747702683 0.07347313641563415 -0.14897967754232785 0.14453178410437884 0.005987580065419532 -0.06232549182573903 0.03553194654965257
17.0 -0.02531793799391437 -0.027785972100664795 -0.15223875356982008 -0.048698837168864056 -0.13055752901422324 -0.03813225585550257 0.012528375180054542 -0.05857692685484913
17.25 -0.014448304232539901 -0.004134297075998692 0.019495759321589423 0.15690993457825128 0.11887391911825232 0.056798099148150885 0.08670886526107656 0.00132660858647754
17.5 -0.0023260696886863233 0.01745636025850263 0.1436984601060604 -0.06341275604079616 -0.11741831399530736 -0.051119125289393066 0.054080211164791836 0.043925299921945646
17.75 -0.03597313969825947 -0.010793876244715082 -0.05518627257037281 -0.12829036496713314 0.1066103420586739 0.056378014671571566 -0.03330751657651248 0.02244343703218949
18.0 -0.06323187930556629 -0.011254123755373014 -0.121311500870661 0.06887145364017391 -0.09178416579260726 -0.07757946405160285 0.042801408643133136 -0.0033048466603615677
18.25 -0.03478900511445168 -0.05644270805435277 0.08342041828639833 0.11526591670773502 0.08258428772577192 0.09360010474889625 0.07485393208475936 0.05415766813087133
18.5 -0.013718943505900558 -0.10201643293325574 0.09040569960491811 -0.096039958524838 -0.04861807675517725 -0.10244778321445333 -0.009030818414933112 0.13572558829978684
18.75 0.010656608374507385 0.0018696658914629238 -0.11819025750039265 -0.05418062745697686 0.05157217910804965 0.10877951827734528 -0.0001304827301445051 0.04113654863803025
19.0 -0.033551618623215845 -0.023058828071545467 -0.0404230413621518 0.13000745776334244 -0.04026441702925881 -0.10833080232217249 0.00014091101800700292 -0.049310062841264664
19.25 -0.08344991214097797 -0.11876027258669938 0.12325968211679325 0.04772220694709048 -0.007309639841272204 0.11525735111200994 0.11716332517307575 -0.00693866166407963
19.5 0.023883634180365376 -0.09973561512934391 0.013653246624516321 -0.1297361217624697 0.010326461307619213 -0.11400845649668764 0.11566368275699437 0.0006424055756666025
19.75 0.0838580935361107 0.0133298443044534 -0.12962200770804444 0.010076436881113177 -0.029203332246625583 0.10958420886133835 0.0880430921467431 0.012345772707985024
20.0 -0.04979677300085747 -0.009697396229812897 0.03469464932025065 0.13169821703178916 0.08773496977642964 -0.08039719525830782 0.02635969519125226 0.0482546704785568
20.25 -0.025094874085457686 -0.07214451486674901 0.1278245826447541 -0.028529895418489853 -0.00811552621971219 0.11753254784526225 -0.06702600874019252 0.06409030789153243
20.5 0.10731375801714957 -0.05215183305401943 -0.029013457383286145 -0.12609789644038297 0.0303896811266733 -0.1016317518535347 -0.04601233332816178 -0.029557893758322087
20.75 0.027676689357949494 0.06967434444764967 -0.11526157886336241 0.044405047825430755 -0.0648123125468745 0.08789065131922419 0.024388148235795243 -0.06787696515145462
21.0 -0.05327046168680537 0.0357133999861136 0.07725845185045391 0.07178888806363927 0.08632200136746052 -0.04483186336383588 0.08320241140269741 0.03453921119802909
21.25 0.0005882738736848747 -0.008396408926502417 0.07230473030740214 -0.09488621730831424 -0.09660450222098807 0.03187545070198229 0.02798400860263074 0.04864270578545991
21.5 0.004712027275239384 0.057607371919723205 -0.08942224663193216 -0.07203093273200774 0.09453322263656962 -0.035053828111952706 0.003918965299205605 -0.04148353117885311
21.75 -0.05349341742566939 0.034385685227870944 -0.06294722442246735 0.08091015918093718 -0.08153824234631142 0.04489134164050569 0.09257874122681403 -0.040132431135390334
22.0 -0.020462767215777458 0.0038387669302149333 0.09254528124409435 0.052459805497998266 0.08273398399149863 -0.03392180883095805 0.093976991150449 0.060725184292118636
22.25 0.022097408733119644 0.06108296003536966 0.04070825370749601 -0.10513699336098807 -0.09409163458163217 0.016049122363271162 -0.035321340982018556 0.05850503163757695
22.5 -0.0476721100922198 0.07139704226144127 -0.10167146013236343 -0.0345627584504911 0.09239750512966093 -0.004842973435092216 -0.03534812161001595 -0.051786895637985955
22.75 -0.05533151589950317 0.029409802778370124 -0.02216151019966628 0.09509371008741876 -0.08770460775034136 -0.008371620528862641 0.06520591347497116 -0.04830501703372877
23.0 -0.005743236161540884 0.0015130134931912557 0.10053092794337382 -0.010982066652626021 0.0886922581982502 0.02342192535209985 0.02734947092373923 -0.006631676311806299
23.25 0.0045014231861515725 0.03567616032301296 -0.04331105220145692 -0.09439473768264887 -0.07719410317916003 -0.03813992970365501 -0.002143120170098531 -0.040007899143093675
23.5 -0.007934275640335676 0.06350341607904045 -0.08005909911420868 0.05897514432147637 0.0663038028243746 0.05154235477228153 0.05043828718320218 -0.08918076368588207
23.75 -0.02278703665937431 0.018830312362527815 0.07075053497359023 0.07902996015591057 -0.06666575561226144 -0.06226705266662696 0.06681146786344737 0.009418707744102195
24.0 -0.0349326768813695 -0.005569889757504606 0.07843776014874192 -0.06613113119434028 0.04724570545911215 0.07190222833001852 -0.01622624553385732 0.0430988623608901
24.25 -0.009126691342387878 0.02024253051809586 -0.05849555951382275 -0.08672918270817784 -0.025193997885485514 -0.08560991522763504 -0.10357389899096739 -0.07346359018785759
24.5 -0.006109846736549479 -0.017414761951188032 -0.09393932717663832 0.05830498162607042 0.025492310970047834 0.08728244844988826 -0.017016240888352477 -0.07338504649526974
24.75 -0.04788942139669373 -0.02094155314868063 0.06379948158156888 0.07977792078008225 -0.0023742053666485526 -0.08469293840494727 0.06079539532659497 -0.07675914495151206
25.0 0.007549958103717183 -0.02299854285381691 0.04701044727043014 -0.1007628355589664 -0.011896120118107499 0.09268154126044888 0.03241634991656367 -0.003953046967251572
25.25 -0.009640471650752337 -0.05602540906418198 -0.10511794470253102 0.0017180227419544142 0.0005665536537856532 -0.08662984700910877 0.0857642051925518 0.0473590350428342
25.5 -0.0006926524435101819 0.007335591774020066 0.037880120166067885 0.09991964308436709 0.01885318754009005 0.08854874204963481 0.012505724004480037 0.04247242098447234
25.75 -0.016985641612602947 -0.005687260130751725 0.08405017457432072 -0.06419352912620144 -0.022759605798192695 -0.08290040903705531 -0.03360293063105214 0.043024862177237784
26.0 -0.02168861768410858 -0.06637041436196263 -0.0494590915195874 -0.07771464092404375 -0.0006088519273501104 0.07818551878979525 -0.05649083598668643 -0.07391578641684157
26.25 0.04901585342475975 -0.025820303823709735 -0.0941952028001783 0.03941530995719718 0.04373750380058957 -0.0699613095665546 0.03700918254043354 -0.12092200528546897
26.5 0.030950339181400086 -0.0011657601754181263 0.023447300881343294 0.10391578784190944 -0.07254462347744392 0.048753103296498984 0.08062288362778319 -0.004825701790553333
26.75 0.03346968336492195 -0.023092496823899706 0.0985007294860949 -0.0033926912105705503 0.07960542421121107 -0.02077294378764387 0.01164461632470136 -0.001449900846707671
27.0 0.04102441823859235 0.028330367345990298 -0.021732252081922615 -0.09116882783295424 -0.08005625563512002 0.009449269730402658 0.012635456241115292 -0.026168598068797986
27.25 0.010058426036215519 0.046124897580657444 -0.07015118449024982 0.06174579182999873 0.06923490134851965 -0.03410609452528199 0.01584174428957571 0.003133717673110093
27.5 -0.0198795898398537 -0.020341538827139842 0.0809490753225085 0.0577871222791234 -0.06037975252176035 0.0519972600093401 -0.022017064150036396 0.03268393915643216
27.75 0.0494442960224659 -0.03403509569791367 0.0379241607187437 -0.09290116145062484 0.052337414660586286 -0.06068383725373488 -0.054920352105613454 -0.0075815301433953056
28.0 0.07788748144577591 0.03892352594453377 -0.09954445596970284 -0.007117465975138959 -0.05577488818762398 0.05555451439309477 -0.017020233544524546 -0.0594733444734032
28.25 0.012620168033233778 0.07096410698737676 0.011369693047096882 0.08775860154557236 0.0576631042371024 -0.0447084100622908 0.0469301049205716 -0.06464676260515223
28.5 -0.06002934400756902 0.030107079602199854 0.08811619479339573 0.002360412961915803 -0.06594290603110413 0.03231834269419263 0.05860939423428717 -0.005299417993998828
28.75 -0.00631431584151107 0.005916360270586635 0.0019135875771064265 -0.08578813164752509 0.0737425316884235 -0.001597163558734474 0.04689692899670274 0.032309726847474296
29.0 0.047652877028351213 0.017767577968381208 -0.09609165051317159 0.017924643845111762 -0.07861785965837564 -0.0202800293178672 -0.03260407388832255 -0.014940595624885353
29.25 -0.011318038475151004 0.09758693723234213 0.04213722209131533 0.08316452103272418 0.07366263896778898 0.02772399385018724 -0.03167676605283255 -0.019205090129244606
29.5 -0.06124801183074699 0.09795303213311164 0.0593521770450698 -0.05210112702607381 -0.06024612303533469 -0.0250255910668669 -0.022318541834618028 -0.08828353157092445
29.75 -0.04244523864466355 0.00735950611495978 -0.06968026288678762 -0.05376111547426285 0.06346413804326287 0.03171787426008697 -0.006580931714839061 -0.04897175160952637
30.0 -0.02120184833725656 0.022094136964069446 -0.02940541314736414 0.07754730337802643 -0.061836154692775716 -0.03121234628649224 0.04912182679211177 -0.026546430138788196
