# GHz S RI R 50.0 
!freq ReS11 ImS11 ReS21 ImS21 ReS12 ImS12 ReS22 ImS22
1.0 0.1336604081305885 -0.26239705715839334 0.2920474372386311 0.6599273823631817 0.5740775684820546 0.23244239757497495 0.25529178292782295 -0.18649351889064977
1.25 -0.07356405284045153 0.1724853689822391 -0.12065690805371138 -0.7714806375990946 -0.5624763461635766 -0.28655323423876045 0.13797562655223286 0.055085294183950445
1.5 0.12457573375362468 0.06686940092779108 0.0273835509068827 0.7105953661022668 0.498000337961925 0.26432624739154786 -0.13866134648019654 -0.13909936020012886
1.75 -0.01990049494529214 0.017914952056437207 0.0710213941577221 -0.5597886248339375 -0.3894471207544943 -0.2136034299689052 -0.02457316779710142 -0.05101273975118378
2.0 0.09474150504057961 -0.07107794061689225 -0.18624702986481695 0.4359147517558378 0.2827807548189422 0.21558112130943324 0.20563601009689111 -0.0795588296423364
2.25 0.062340532715745293 0.10430136205888516 0.24520287100937965 -0.3583999101962389 -0.2520716846052728 -0.22114792572135636 0.13883267870657257 0.07729689605089221
2.5 -0.012607932218280854 0.04253110572556266 -0.3550569873797432 -0.35063902235145955 -0.5080445735878831 -0.14960350851648796 -0.022116068287884733 0.04379457169999087
2.75 -0.09456772316204533 -0.07801467988704679 -0.17129809062351803 0.6658660009709552 0.6188055747331564 0.08432979239799593 0.03157015601769951 0.031008382468563432
3.0 -0.08822256517956797 0.2087863129065827 0.7712284445457984 -0.22249627029906505 -0.6164471884970213 0.2652280139371744 -0.04001899418520479 -0.1581893669710486
3.25 0.056466773818136695 0.0674065127125213 -0.5803470258528233 -0.6324566857778973 0.5831831227064841 -0.3767377047418322 0.029982336766576592 -0.05849562015362432
3.5 0.02449067421909866 -0.021030314765633676 -0.2188514116796535 0.9506479362572229 -0.54834389695358 0.4892768716357412 0.04975331342851338 0.025768174115223953
3.75 0.01214717873993697 0.013075112332477549 0.8729474590057203 -0.04968522243515927 0.4534568960280174 -0.5536790328764686 -0.03392188898295 0.03624364859089298
4.0 -0.021541483812506642 0.06873666331824275 -0.4249190675193809 -0.6959508135173064 -0.35939232836017615 0.590265098494769 -0.09145613032149841 -0.04815335401000943
4.25 -0.07546630311884014 -0.049614637668337985 -0.5181219178676729 0.5474466740316054 0.3409165691594789 -0.6352239071135601 0.012084583036247598 -0.14068993229161167
4.5 -0.05008905045864118 -0.00140908831259174 0.6992263739224237 0.2859838141340653 -0.13516256729648923 0.7405293387669404 -0.056879852967799335 -0.047557924616695266
4.75 0.10025500120533021 -0.027337596747729054 0.10566647508457494 -0.7597628690260949 0.32339818005929577 -0.6944273856209535 0.02689373896430968 0.0538658813195618
5.0 -0.0711522937768743 0.04097604973320973 -0.7085701913108587 0.18826626636226418 -0.19426895152123758 0.7485632315791649 -0.07289708658455003 -0.030417187233681177
5.25 -0.08654442731097058 0.06515222083968195 0.4347506668662722 0.5969597901381045 0.3484166955678799 -0.7127948982773997 0.0100485919127688 0.1144182773819355
5.5 0.003319430675727361 -0.04785551060494318 0.4157766966044773 -0.5264148588519308 -0.2477765788989716 0.7360278963921478 0.02715067511559923 0.04999685401947822
5.75 0.008984941654964712 0.04096734104298575 -0.5647812956379716 -0.2374948851654417 0.28258467263723885 -0.6817163887295388 -0.06544937542088522 -0.013058721306879004
6.0 0.040670046760073075 0.07787779166543357 -0.09253425056204029 0.5837289488186008 -0.3348179325761043 0.5903205934631942 0.1279225031124659 -0.1099991764724055
6.25 0.01683198764604469 0.002015075005296338 0.5972285071200203 -0.027893132489639982 0.4041321265071227 -0.5277332442142808 0.06667147756526223 0.02989677751694987
6.5 -0.11454696108803801 0.18168270233948658 -0.239400597945298 -0.5531489067004687 -0.2955621012679281 0.5203189153760001 0.02569907352573421 0.24594668261160718
6.75 -0.05314760099675717 0.021325399147753915 -0.5400902023991068 0.24990320199813543 0.42626018285309425 -0.4092390842129482 -0.06299906874700237 0.006633940932441074
7.0 0.040930878940321186 -0.037934294452551934 0.4270607802985905 0.35769976126804276 -0.2630868461359305 0.48388874740888194 0.03856359806671604 -0.020606544092196963
7.25 0.08298203211217141 0.19606232031189355 0.2724280932057572 -0.41220878016676626 0.3082581101180323 -0.36620384414795215 0.258852612573561 0.0012280424048065272
7.5 -0.18633121622841814 0.2126129869874501 -0.45361284998764806 -0.18751968394748775 -0.3144495660985036 0.36460528556582195 0.213078140164127 0.05518990013208255
7.75 -0.1937678458641664 -0.06405098539548629 -0.03645306764307488 0.4932824243103351 0.3057648109923115 -0.35790659043211204 0.056067060184009865 0.01108158022600362
8.0 0.008346774529088552 -0.0913851034663472 0.4838473481620815 -0.04267583886454607 -0.3521788212981323 0.29254651589468694 0.02934779697728614 -0.0046478433334600135
8.25 0.004887857300841553 0.17448864140370945 -0.19555524066125307 -0.40178935614813227 0.3002976718202887 -0.28131589496724674 0.04237091098658169 -0.10053778018470307
8.5 -0.10188060493766905 0.06576121465980948 -0.3590083850207612 0.21167616404646583 -0.3253823926673465 0.2313357019532774 -0.011139887697872476 -0.0447783494605709
8.75 -0.10993025493219377 -0.02062177063260498 0.29266090509528214 0.23004861938867596 0.309152876730593 -0.216280434014244 0.05892767967822156 -0.13119358690360242
9.0 0.0196077140086095 0.031370506417540855 0.1685608425049765 -0.30426999374414 -0.3040705285213604 0.18580185241967528 0.0600466519545213 -0.07309461533329986
9.25 0.010771970912658746 -0.034535716573110276 -0.32321552205040427 -0.07336026580893559 0.3054751622011953 -0.1442142686044369 0.08983346258631379 0.11299850915810938
9.5 0.008576538225101361 0.018641611816598368 -0.005846939863731748 0.331336339062466 -0.29134232507113333 0.1311385541684127 -0.03494565820103303 0.08213052900250271
9.75 0.03313567762045368 0.020540620829398427 0.30072056868325686 -0.07059019424653135 0.287288515346947 -0.10827018607597566 -0.07626260460289452 0.02931250861920521
10.0 -0.0029825787663417813 -0.06744547079343521 -0.13700837329705318 -0.24951584526537104 -0.2831295607640677 0.004189151960723572 0.05473889731024284 -0.07948160223738253
10.25 0.07553272898545438 0.013656610519326526 -0.22980048545046552 0.1502501987768363 0.24517250587313655 -0.11016402112527043 0.02217127559106618 -0.06591286794316871
10.5 0.04104354513301457 0.1302766265953712 0.1841571633208162 0.16531149752620303 -0.26035086915608674 0.011829149880189016 0.09170458182078653 -0.03757331791352524
10.75 -0.0505996657138189 0.04650766938891285 0.1330503339379827 -0.20698178111874646 0.26008975414779734 -0.019349882630447783 0.06222052445010057 -0.016898447970966728
11.0 -0.00328474089659974 0.002283342956175091 -0.22917811237826524 -0.11938589403972548 -0.26038688408329835 0.04859757415872733 0.045541491423389556 0.09074824943472724
11.25 0.07053209947191326 0.07977956543350093 -0.06702886019354332 0.2411455621950339 0.25517752436404084 -0.018359835477908683 -0.03949482422883691 0.057793889539957864
11.5 0.012441376101704558 0.10632594434022653 0.24321413996811936 -0.012842191036601752 -0.25668683375796436 -0.00042313432276699925 -0.007610976586543104 -0.07976790338750087
11.75 -0.06467162568145582 0.051806256850268094 -0.09473710550429362 -0.2131258812365503 0.24769916336308012 0.03089682847000975 0.10367552733470688 -0.10573802934485424
12.0 -0.0737755674093053 0.039037524579045496 -0.19031627501911175 0.08821524414800624 -0.2146909422320086 -0.07683617337001566 0.157038001184368 0.0654609737044981
12.25 -0.06817586684192932 0.01581227600988332 0.07773624614672997 0.18448976264599426 0.19929815706592646 0.11184619970325314 -0.006229025899848112 0.07712380460696797
12.5 -0.07197883356882878 -0.019564196127648353 0.1549472808053993 -0.13636211420402572 -0.17536733903124635 -0.1423856445782278 -0.030253121545894116 -0.015178276065929072
12.75 -0.003694332267760239 0.05930354048449046 -0.1762407310480106 -0.07309993365690107 0.18877715531824285 0.09810923120779516 0.11120610250700812 -0.06243929327522769
13.0 -0.03253729940951181 0.08837016560253669 -0.04399996415191143 0.18272524779840885 -0.1761989057924454 -0.11336784677589203 0.09285154259871571 0.0263447994681323
13.25 -0.17168192091955026 -0.030245810078933635 0.1678550590419907 0.06454082363280576 0.09140507987797047 0.167744514091395 0.0383536325050047 0.05892967759962141
13.5 -0.031538267886124405 -0.07651204173947339 0.0668945476408222 -0.176665844569034 -0.06164269956363158 -0.19217470699658687 0.02446067839591174 -0.03446500461268492
13.75 0.0527210805554202 -0.045773322717647114 -0.18351192421635115 0.01495108010633761 0.13191444807638752 0.1521176496071136 0.023140477257707612 0.021913375202608033
14.0 -0.04010982998034133 0.08173184736652717 0.06377689237833215 0.16210690560890087 -0.12140374423997408 -0.13352169584539028 0.019179960801992683 -0.02689182636942892
14.25 -0.08555148447900618 0.03518615833885787 0.16859256094321906 -0.08045778050477154 0.10203412768381374 0.14053346398889088 0.009892238810262051 -0.04221491783909802
14.5 -0.04706230395028826 -0.04560495446542624 -0.10657613289688689 -0.14598372332086834 -0.04990490030158359 -0.17184214865306086 0.05885970370040618 0.03955818207549393
14.75 0.0012031159874721156 -0.01582944872834979 -0.11094832985264302 0.14081979150858942 0.04306009699939678 0.17393641713869917 -0.002406774062670383 0.06251779662950768
15.0 0.023243446623006953 0.03346186639273739 0.16016362804985207 0.06175916817366103 -0.03856900540820066 -0.1636790383019058 -0.0857168972507638 0.019318788792687766
15.25 0.018272273007483776 0.08026626817813487 0.039483014469051156 -0.16762055724650413 0.013222171559102734 0.16309677583096593 -0.05154797110893801 -0.015896716647118926
15.5 -0.04237161933468457 0.05333237762137187 -0.17869612687277578 0.014990516411145932 0.0006284281310194526 -0.17225652288050378 0.003921198553370274 0.02878878896544777
15.75 -0.05812252518054614 0.005901251786267568 0.011001403116494946 0.1849350551006326 -0.0016227611131846857 0.1641152796599167 -0.03761194878986674 0.05532291293345233
16.0 0.029636289130200166 0.024099846197611068 0.1665432557930057 -0.05921119129660066 0.060393501830279514 -0.1463416591585042 0.0024603350393626253 0.06704633583231101
16.25 -0.02597837113035164 0.035476957033245125 -0.09522714359557286 -0.14275420457348453 -0.05828254133422664 0.1362843110970201 0.0477242112398376 0.07191342438495194
16.5 -0.04175251183666527 0.05523903452797917 -0.10453912162857514 0.11807713290170002 0.05720061576336923 -0.12512069000337642 0.009473325368099805 0.13407159699284513
16.75 -0.01457693794382104 0.031165023172211648 0.11240604707731826 0.11929132615548771 -0.055413455388166624 0.1315529838892686 -0.015078152503127665 0.042942313876314406
17.0 -0.07036995686968697 -0.012510408604227554 0.10050443212031186 -0.1271133319957103 0.08279112122739074 -0.110229611268827 -0.012432238108230608 -0.02426035270504113
17.25 -0.046497015794218985 -0.018050563620342474 -0.156627420170857 -0.022873636601321926 -0.08635480826970028 0.09965635220809402 0.06864526053009629 0.018122778362196078
17.5 0.0402033007051144 -0.022024579441379873 0.031334054338667455 0.13887748072354253 0.06583199027786227 -0.09539843009964859 0.023200134067852866 0.005045788691462331
17.75 -0.049546307990272896 0.041390995890181366 0.1413553571541983 -0.039773325299912954 -0.07357779567064786 0.10340609205829741 0.010502620203988795 0.024443733504688772
18.0 -0.08930865971773756 -0.03227148131500717 -0.05577979372678682 -0.1262624101166611 0.0854449252719536 -0.08266648690984021 0.06399114397219159 0.028869015366610896
18.25 -0.009502834634792193 -0.1151207889918753 -0.10300853675449312 0.06357893349293892 -0.08452475751213043 0.06418907229569916 0.01189736672670428 0.0985324811789717
18.5 0.031053562185667617 -0.04126652378117071 0.11353088454524278 0.07456132916466222 0.0952240976714568 -0.06766222781169472 -0.026650938440745543 0.09170494579620603
18.75 -0.026005021498576485 0.005139966678433139 0.04049057944202117 -0.127114355737456 -0.10444326880615004 0.06617321697544165 0.006982399703669231 0.0029294996723428918
19.0 -0.042549393682719566 -0.062105885062041385 -0.1270540614206251 -0.025467959824946262 0.09857264180280546 -0.04878934249107342 0.06638901106757707 -0.021403461350582888
19.25 -0.03420723271684416 -0.10651180861048765 -0.0013338163320666119 0.12687602512988025 -0.10598091901775852 0.032283190987961174 0.06624779354475391 0.0136038486701694
19.5 0.014726288288656922 -0.07611819912422496 0.12715059726812114 -0.03295177289337106 0.11121521336315361 -0.030451935334796953 0.07007626299586217 -0.0063882079004187135
19.75 0.049273889965042915 0.0167079123405188 -0.06475289637245676 -0.12107871514755333 -0.11848780042445055 0.018336643107676676 0.061711209753235345 -0.044751345878946476
20.0 -0.037366587173903815 -0.032601978144459864 -0.10066982400193786 0.084459261426215 0.10618817194338227 0.043505932830329996 0.04816434919246254 0.059644389660773255
20.25 -0.008198991408290626 -0.08988321506561964 0.08481105680070333 0.09728007471406466 -0.10561000517610325 0.048188062004072156 -0.04183220388124566 0.06327062253879084
20.5 0.10744323700309613 -0.008132166730779183 0.07535924990140647 -0.0917054389751907 0.09070943878798497 -0.03483431871620867 -0.05792180477044465 0.014217596836671308
20.75 0.0094699644343339 0.04527424130770608 -0.10780287106671038 -0.063596669639759 -0.110510274242509 0.0038136640260288956 -0.0014173789998664088 -0.0596743284204046
21.0 -0.04711804776389413 0.0036555775483571515 0.0014640342454768779 0.11011680630992716 0.09614991253897709 0.032914832751733986 0.04651678803894342 0.0257359098674258
21.25 0.0305503293238373 0.030785906842524413 0.11121597108130983 -0.004009933006766275 -0.0801417596915679 -0.050721174587917306 0.05434483271472139 0.024799986612823857
21.5 -0.022160666318469156 0.05867470078744082 -0.022065787669840103 -0.10759241342617822 0.09100593266478028 0.031807879186864514 0.024321480597263436 -0.030862391093098025
21.75 -0.0678937825237109 0.01925443706806261 -0.09531622554344808 0.030680375211028635 -0.09057364738549131 -0.008631009405932873 0.09487113762118429 -0.007287672535318118
22.0 0.003532809443104218 -0.008736090243965308 0.04501822975700713 0.10106660098622469 0.09010148195174068 0.02271454419140323 0.06494526379198251 0.05310407059839224
22.25 0.021215706918167414 0.07282700229661394 0.08633460247832457 -0.06590672231273617 -0.08539490586064101 -0.034185816065217506 -0.03794972732334767 0.03707302562494743
22.5 -0.05844776832736198 0.07824379832220109 -0.07093371135195677 -0.07202430338721716 0.07980699711205512 0.03497834112322241 -0.009721083296872508 -0.055999744074003883
22.75 -0.058119677955454474 0.019108097875537168 -0.05617798542151028 0.07951536583280883 -0.07786131586343523 -0.04064818295536527 0.060830275322157935 -0.03349377640337793
23.0 0.0013233987112737378 -0.0008592321018039972 0.09735030036459197 0.023108689188774477 0.0749410864610895 0.051246388934675036 0.018194254776367817 -0.002437228140455692
23.25 0.011665326321959914 0.046540796911578405 -0.01225522769791565 -0.10054227342460581 -0.06040430215583095 -0.05829961254554754 -0.008916486534107166 -0.05208792455330826
23.5 -0.016278608440772002 0.0660794506734053 -0.0874193465765769 0.04054483901715912 0.053070687525046005 0.061768582270167294 0.05439465844006078 -0.08998891472110351
23.75 -0.023209937264859634 0.016609581435401345 0.05756566772480104 0.08600179201813003 -0.055878477407939296 -0.06927891736990807 0.06973512989618195 0.009548379927230191
24.0 -0.03254059954048159 -0.005787801403770526 0.08153898623902961 -0.05875835767315339 0.04075422792349295 0.07383907813707365 -0.01699410525764919 0.04485970563296344
24.25 -0.010780267530401462 0.021142815629411584 -0.055673460102730554 -0.0853134134726461 -0.02317668752679808 -0.08378830437250975 -0.10502382153361134 -0.07369856040454861
24.5 -0.003758416301536442 -0.0180650597363764 -0.08830340374774104 0.06191146284332702 0.029531535737942007 0.0836268902508166 -0.014068217543621989 -0.0715508860117165
24.75 -0.04836096398794555 -0.017518854019698105 0.07032046567672726 0.07087945011457564 -0.0111672262951567 -0.08207167914851828 0.056899903609945825 -0.07765567103876102
25.0 0.00836314884198755 -0.022529082249149786 0.027531307463505288 -0.1048851011452453 0.00471624549135664 0.09100072071004879 0.030256854897813924 0.00017786745582770713
25.25 -0.012955421934831061 -0.051719979624899215 -0.09990100157928436 0.025497184852712615 -0.019069535601274133 -0.08283398120095611 0.08712163135410762 0.03838456655663637
25.5 0.0005310505185376676 0.0005082781301994146 0.06573024687582506 0.08132219301774876 0.04456439663754414 0.07656620799765138 0.017801827666242734 0.04758774940143938
25.75 -0.014762137572701338 -0.004734152202279515 0.05303298407228447 -0.08851787224707544 -0.050534327136485827 -0.0669602288320503 -0.024113534078614933 0.04045292461760208
26.0 -0.020175958588227454 -0.04773903161179007 -0.07998990851199925 -0.049387354946435556 0.03419378935234742 0.07211118014866046 -0.06271963862596547 -0.05973939056866377
26.25 0.03241397645210203 -0.04144855032756221 -0.06246953461933024 0.0785818467652894 0.004553627054988074 -0.08098949090702179 0.03522682612375597 -0.11893595966621304
26.5 0.033598647134023656 -0.002676107158555284 0.07335473307961116 0.07299468759587426 -0.034117383174701726 0.07780546589853587 0.07891255939283692 -0.020534567135108567
26.75 0.043996511873229706 -0.00516401422854111 0.07212902941482345 -0.06273030137759632 0.04731605143951843 -0.06432505590846306 0.023670122246033674 0.016472716801005774
27.0 0.02611618635273066 0.025412970759549805 -0.07492602166488667 -0.05391038404947535 -0.0535721471110836 0.05865205213401424 0.019207661203794496 -0.017556875179771773
27.25 0.012412880281721732 0.046522777568364385 -0.00766999890025323 0.09021667258104105 0.025610293112796945 -0.0702770733961196 -0.002965632962233202 0.017099156301192294
27.5 -0.011693621598728363 -0.03446392451648053 0.09344781998516227 -0.01941916785347904 -0.0028196248693151856 0.07635170910910721 -0.024566802528682357 0.02198104247026362
27.75 0.04342512533697478 -0.03505446118974787 -0.048158397821600155 -0.08504411956381712 -0.014818991152608844 -0.07664916830285326 -0.07184771933066195 -0.007546311281694661
28.0 0.09202257570190941 0.046082230817403265 -0.05890865271492705 0.07395183688663265 0.013520835652305996 0.07340017002893345 0.005372544112144634 -0.06576550095664689
28.25 -0.008358686603776172 0.07161609048921794 0.07931323806157739 0.03516959469387073 -0.007982310382792134 -0.07107486899265081 0.04748631506399083 -0.06106294032128828
28.5 -0.08401744063688196 0.02582921341507785 0.03583366192879409 -0.07609375292232974 0.002966011867543297 0.06997220031212009 0.07468698812004096 0.023036529586591213
28.75 0.02139634568573938 -0.006839972727653819 -0.07411990294976639 -0.04067591815462908 0.03215448800727529 -0.06525724965315398 0.02901403680068307 0.01689587122468633
29.0 0.02982015387029311 0.02838605420611566 -0.016063840114338868 0.09211401239121104 -0.04448335606519032 0.06367750774437325 -0.04197148287946932 -0.02152790248785266
29.25 -0.020150782919653467 0.10554988925690661 0.08577516535497057 -0.01701577998401871 0.0436099312033549 -0.05940555665834228 0.010109844119435926 -0.03424515918625741
29.5 -0.046072051218797594 0.06337888211939215 -0.037832419167172296 -0.07730620713713711 -0.043529669608200906 0.05623771448510842 -0.0190308257650297 -0.05314612250166015
29.75 -0.039013128260489326 0.02747090761709707 -0.06350688068456578 0.05672412564572392 0.04145237809998241 -0.05472668827569842 -0.008238828663435652 -0.032072271332340155
30.0 -0.0074767817018894095 0.03168854656314331 0.0703811329744129 0.04038421443429576 -0.03974545643482152 0.05487572546616251 0.005332470956508994 -0.039073249953490846
