# GHz S RI R 50.0 
!freq ReS11 ImS11 ReS21 ImS21 ReS12 ImS12 ReS22 ImS22
1.0 -0.2287057251743286 -0.7679733114959363 1.0730120915878142e-06 -5.247383717191428e-05 1.2639589983520807e-06 -3.096420336677808e-05 -0.07816084375361029 -0.7729850604992515
1.25 -0.3065407023709843 0.8028189387604049 2.0300910407804004e-05 2.830187189776407e-05 -1.0474074312069807e-05 3.90634471600083e-05 0.7086706194985258 0.48217372339810305
1.5 0.6547557070951843 -0.046060649454853664 -3.730358257587307e-05 -2.729983074762312e-05 2.6207990657324845e-05 -3.378428992636818e-06 -0.7763368206448449 -0.06700570507935655
1.75 -0.38533114361029 -0.2974533953222392 2.505447171693466e-05 -2.249461764629269e-05 -1.3562523599687296e-05 -1.9225916774078906e-05 0.31479897177969096 -0.4453310002634173
2.0 -0.0161252952883007 0.3420917372560757 3.3937268699177773e-06 -6.57247603022721e-07 1.6070237731219784e-06 1.9378872006926597e-05 0.08347019290085803 0.3586292905235364
2.25 0.38028833022086905 0.023661912531858564 -3.0213946719684782e-06 -9.347451787422135e-06 9.771258662082545e-06 3.55721356676039e-06 -0.008743401787874597 -0.27822564882277473
2.5 0.5177234334833122 -0.1570111081527877 2.535545477941296e-06 8.401485393823247e-06 1.5186981187042773e-05 1.6605136687516775e-05 -0.5064303226586675 0.07111117589231064
2.75 -0.6981232881145857 -0.19644681424762722 -3.797660563031816e-06 -9.332382318944298e-06 -2.887229016904575e-05 -3.8360779026147504e-05 0.5784525954585662 0.05931219910410393
3.0 0.4791908253820739 0.6761916113742155 -1.3197842261187254e-05 -4.4538080308176275e-06 -1.9334630094785516e-05 3.067568158249683e-05 -0.5752826427157598 -0.20844797366349074
3.25 0.06044612782629738 -0.9637354633850835 5.0054325296206576e-05 1.4346628756823699e-06 6.485598670780218e-05 -3.2586058628189817e-06 0.6128798923261094 0.372614708143126
3.5 -0.5105364973243116 0.845608260926238 -1.9261528100882256e-05 -1.6015975430220714e-05 -2.049214567656854e-05 -3.988965120965048e-05 -0.465113567667798 -0.5229556953294138
3.75 1.0019754695472274 -0.03657019789449434 -3.237337865254848e-05 2.35595998543821e-05 2.3362064033547898e-05 5.39874758722611e-05 -0.13115794862979613 0.7751509382358913
4.0 -0.7035771547635028 -0.3113478741841029 3.480565290938132e-05 -1.644438962497678e-05 7.575638740968447e-06 -5.593360616363429e-05 0.07982285709843989 -0.6897717583071362
4.25 0.09267543102372611 0.7504524881620918 -1.6650606560435673e-05 -2.5515615338241518e-05 -2.0206299325687726e-05 7.096900050044744e-05 -0.5566797532840304 0.35203844234510207
4.5 0.3871759775312001 -0.7455726755383295 2.9405017721756002e-06 4.5204573673349096e-05 -1.5718124966514466e-06 1.961855636192165e-06 0.6929895414513831 -0.3346757278802912
4.75 -0.6505886666214105 0.20208687165336603 2.1841632486848177e-05 2.2442042590028197e-06 2.1644626780551043e-05 -9.802261684350806e-06 -0.7218951802490936 0.09611652880161353
5.0 0.5243130894281822 0.6556017288052673 -3.786432612305795e-06 -4.03636524979095e-05 -4.571109178699544e-05 -1.9093904333075494e-05 0.5435467072300103 0.6026397447229294
5.25 -0.22260658468273553 -0.7216488019851297 -5.9754028969566327e-05 6.573651195467884e-05 4.499197527172884e-05 1.3808404533642289e-05 -0.4431793673447795 -0.640575378564226
5.5 -0.5076040527743455 0.4283327123225731 6.29756905799603e-05 4.949858581644763e-05 -6.995869478792122e-05 -2.7189173585682463e-05 -0.17833304125595334 0.8626174674541713
5.75 0.577828731557861 0.06026485848519536 2.4971327412108495e-05 -2.0009412412240403e-05 5.402203051539466e-05 7.862424572512849e-05 0.48722188244351156 -0.4456750691110549
6.0 -0.4862390882978709 -0.3732351086674033 -7.186712324767322e-05 2.7124077235224794e-06 -8.288118428662218e-05 -6.767322753073124e-05 -0.6578700659774008 0.1265929976726618
6.25 -0.2326929755969659 0.5823904121915533 -5.026702106662133e-05 9.059996289670323e-05 2.1711930051149386e-05 0.00010895625660393423 0.4793569552619684 0.6300293823500946
6.5 0.3812783174778239 -0.3062353773087696 0.000130163247239302 -0.00010865359745545838 -0.0001751126619750935 -2.417023138680492e-05 -0.36725529102619475 -0.3744961497496134
6.75 -0.6113860502353745 -0.24320288530215506 -0.00011825843008721207 -0.0001048009361006074 0.00012003824270481999 2.0245608508366932e-05 -0.4218214863632821 0.5053515523785062
7.0 0.36756305456086114 0.41713296621675966 2.0248518686484754e-05 0.00013010602047165484 -0.00013917665079521866 4.069023252587734e-05 0.4050209153851646 -0.4313433566107864
7.25 0.21746736880540063 -0.40229976563168884 0.00014284202331582002 -3.829439792442271e-05 0.00017008386575678806 -1.4414707520630565e-05 -0.36750185567545507 0.10261829253600152
7.5 -0.6043342959531799 0.21247961695558587 -1.0998184208406333e-05 -0.00011432534158934339 -0.0001266904952832781 -5.178468599964155e-05 0.5410356709068633 0.2916546454878041
7.75 0.29389359847342356 0.22179903887654562 -0.00014515824045896136 0.00013024828614116005 0.00017392744767996516 -1.579069844056759e-05 -0.19621793570019364 -0.42856584498659717
8.0 0.08234186186750109 -0.5382310612843424 0.00013622120115320342 1.1093686215650543e-05 -8.632777091058776e-05 6.039927045128902e-05 -0.05093536289822054 0.4034492061322247
8.25 -0.2552732900539824 0.45475450626209823 -4.8275668446628854e-05 -8.494353446760165e-05 4.521578122193326e-06 -8.174436594298358e-05 0.2647648441014391 -0.38773381574910304
8.5 0.3163405551998199 0.21987375969868048 -9.213617328611769e-05 -1.870627580364409e-05 -7.537610889303137e-05 3.918817618594748e-06 -0.44238635699711426 -0.08923728871711362
8.75 -0.2500317953164213 -0.31132415135751357 1.2847933963705413e-05 3.1099203485614434e-05 4.896130686322444e-05 -2.6737133285501747e-05 0.3351404108240745 0.05481758092206797
9.0 -0.13225612580234555 0.3393874710786055 7.086064782199842e-05 1.6326824431926172e-05 -5.3999800155060736e-05 -3.7070464791521096e-05 -0.09262351649300404 -0.37405884115004445
9.25 0.32489213105848014 -0.013443231244983644 -4.292361774688942e-05 -7.075947526161888e-05 6.512361061159294e-05 5.129419804326036e-05 0.012934367202928856 0.4014638485923927
9.5 -0.2411509486777118 -0.23788625859120618 -0.00015436233278100366 5.571638233521898e-05 -0.0001088430948902448 -0.00011875810581841594 0.19528473730745236 -0.1540054677619057
9.75 0.025727212194590038 0.31763499207727974 9.125715868517852e-05 4.8011540099070026e-05 7.591356302811648e-05 6.949703396147913e-05 -0.3722199281169193 -0.0018215769792442327
10.0 0.2827027622083512 -0.11592579915599432 4.064559810267708e-05 -0.00011446645283945349 -6.670749848775934e-05 -6.490188545917977e-05 0.2684659795321147 0.04288767486445158
10.25 -0.2049731852957753 -0.18228887413870537 -0.00015387056741701267 -3.5709979157611254e-05 0.00014976982868409087 3.764538261246253e-05 -0.13344408623517778 -0.25008996151250107
10.5 -0.029016806566285913 0.32973431434409 6.574997108550767e-05 0.00010950129378880624 -0.00014051502804178373 -4.0958030151069585e-05 0.13072969600445958 0.24452813788003214
10.75 0.20571486467288658 -0.05975650012175754 8.384722127894677e-05 -5.379897315931869e-05 0.00011845585357788622 4.254824310415942e-05 0.18976618719011884 -0.22127916081899923
11.0 -0.2643969217456516 -0.14346179858729358 -6.810569369368703e-05 -5.895535103463416e-05 -9.212954079485704e-05 -1.96563854279165e-05 -0.1657043656133963 0.18576706527063067
11.25 0.10284098250071233 0.3239592547598358 -4.755105309179949e-05 0.00011566340532916905 0.00010513845277278354 2.4970714849392218e-05 0.22003089446235688 0.11703403996888494
11.5 0.1564814939990463 -0.07790505860817915 6.11517711931412e-05 1.775345269131212e-05 -6.365149917691179e-05 -1.8006120899106007e-05 -0.17819455940040302 -0.29319880756883243
11.75 -0.2838064098950349 0.07076589589577961 -2.0887334465441242e-05 -3.993139757766759e-05 3.752951556201319e-05 3.034813983160824e-06 0.1228314434430608 0.16883844132349946
12.0 0.03638340910381377 0.24993899066042602 -2.2888609400696594e-05 -4.240023241193857e-05 1.6237496602518192e-05 -4.738591502967485e-05 0.2823697148714039 -0.08398015683587262
12.25 0.047274947403251 -0.16193124633599884 -2.448488049839427e-05 7.281373049724349e-05 5.1891496754578114e-05 7.839599646702825e-05 -0.24324985150619777 0.09080591145706905
12.5 -0.249238447486531 0.023802250153862864 3.322048731070791e-05 1.837763848273942e-08 -2.760176622469047e-05 -4.894075484893678e-05 0.149994763218588 0.1442585576161554
12.75 0.18599867767597603 0.10750821251850051 2.8046092292808106e-05 -1.9556399622510048e-05 -1.4237556251561796e-05 4.832113008148804e-05 0.07067063134528273 -0.23835141765092074
13.0 -0.09262249416031085 -0.10748214838954898 -6.455306005022006e-05 1.8984647472560697e-05 -1.5146626347016337e-06 -8.47687604423234e-05 0.021922653816595028 0.24412984224192863
13.25 -0.31725836375470384 0.03543433693177582 -4.5764923517017136e-05 5.07114846406702e-05 -8.415205786031035e-05 -1.3384650309160586e-05 0.18573467383338743 -0.005251738632959024
13.5 0.13420653060351373 0.021353471420972985 0.00012766249272575105 5.720929263351577e-06 0.00011890335445699243 -5.819313035535084e-05 -0.1090702032064737 -0.2000032010477662
13.75 -0.04490158257627033 -0.1837847153567407 -3.111041913134388e-05 -6.55597045403829e-05 -3.038415792697606e-05 5.0276299815262065e-05 0.13076566614942017 0.18811536103523094
14.0 -0.09534396666099712 0.22683137486650434 -9.000774489627707e-05 6.245545913527537e-07 4.979722246420999e-05 -4.153271368236068e-05 0.012205712662704912 -0.17529880122463048
14.25 0.12391297394794179 0.03687437720977524 8.220502608289984e-05 0.00011971245306522944 -9.377873338906067e-05 0.00010597761731753194 -0.1580750744977777 0.08848667874299121
14.5 -0.16340285989386644 -0.1437334937620319 8.939327196565256e-05 -6.282225365679098e-05 9.549603667883737e-05 -2.7656779339315244e-05 0.23055654583380414 0.016942918761058703
14.75 -0.06690962069628559 0.13797351044792255 -0.0001462550532510832 -7.787579615454552e-05 -0.0001591855892075546 6.0024144299411246e-05 -0.1312000704486056 -0.07355464726938334
15.0 0.19264554307592274 -0.04204570592817536 3.194483099104459e-06 0.00010299230907339126 8.718190843850365e-05 -5.762996859111807e-05 0.0029964276395874623 0.19177854856435228
15.25 -0.13611656234813427 -0.003799812644420558 8.456327861534908e-05 -2.63395618993653e-05 -7.465013216434418e-05 3.947136492184892e-05 -0.041495640278982115 -0.18230899938957768
15.5 -0.04076117744585554 0.23365641999013018 -9.345278829214179e-07 -7.316876445941035e-05 5.010510877411005e-05 1.5855573266468702e-05 -0.1792005566628816 0.10413355371508046
15.75 0.0707542097529566 -0.13455634816412868 -7.484369290758805e-05 -2.412523167728138e-05 -5.097897869426736e-05 -2.2665410686264463e-05 0.15460965556393963 0.021502833827425585
16.0 -0.14004290740756753 -0.05801227625890516 -2.619332436762064e-05 9.021028271599287e-05 3.389096149917205e-05 5.9109697496451986e-05 -0.12125465284356363 -0.058289292075418025
16.25 0.055557588151722126 0.204735877349126 0.00013715053474469392 -1.1349153975725998e-05 -8.34772236620166e-05 -8.327288360127343e-05 0.0948466834361152 0.23767661338721996
16.5 0.022282406650101776 -0.09085456043167064 -3.242307487140409e-05 -0.00011089584118612874 4.207394291970708e-05 8.756951020490788e-05 0.0737588461897543 -0.006067532478073373
16.75 -0.19810661509425231 0.029182009709847176 -0.0001728011202385559 -1.2278503234096884e-05 -5.779848490511884e-05 -0.0001534836152008117 -0.18774614898997882 0.07991667436208386
17.0 0.07557190390025884 0.10065925851019725 0.00011932301691606556 0.00012653525289345815 0.00010109181891430468 0.00010032684162344303 0.16636519980635894 -0.021732439128769612
17.25 -0.0019202146070270293 -0.15349522250884906 9.928016572787047e-05 -6.306763775748233e-05 -8.336897943718346e-06 -0.00010318124383011392 -0.0068171503761382535 -0.08219731130853296
17.5 -0.12300123002813308 0.09820133594511757 -0.0002020773011534242 -0.00012655618844238358 2.5891145145306357e-05 0.0001784860135205441 0.08149671956070667 0.18551409190577764
17.75 0.09493371216154034 0.036474376686994395 1.2904007345605214e-05 0.00017065688942367036 -9.782662430916455e-05 -9.775731885748671e-05 0.0007459966710713639 -0.11976713407328154
18.0 -0.09595177448587686 -0.1412853111682906 0.00012439356861785111 3.068939481008944e-05 2.0439016009636337e-05 0.00010274935525981733 -0.045574369030516836 0.06857884368030166
18.25 -0.10519258317516679 0.058234394622830754 -4.093845678307612e-05 -0.00028396769843000517 -6.330612430662704e-05 -0.00023809416382172583 0.200517898727524 0.13704015866391378
18.5 0.1195448726628658 -0.08959024354193681 -0.0001011168813379836 9.375959697448472e-05 5.0555962483552933e-05 0.00010681131298657847 -0.11940458132135578 0.05733015985161946
18.75 -0.0608939441412147 -0.1120757772652516 8.188671653707878e-05 0.00013411904869101 2.6326094578649632e-05 -0.00014779472928851936 0.04800485381374245 0.1325455238082551
19.0 -0.061535157263960735 0.10220561717818998 8.857300250847194e-05 -0.00022897591559248719 4.5712243213479554e-05 0.00020375102543837722 0.07028988387715637 -0.18063765517325966
19.25 0.031142225793986525 -0.15163885944348549 -0.0001211088556908971 -2.5005692186433803e-05 3.0904757554959993e-06 -0.00010414252278697752 -0.015233339823830475 0.05792921893637887
19.5 -0.10569421845012926 -0.16202345128342222 -0.00010342966913801083 0.00015088269121406474 -8.118934743506718e-05 0.00012748999073033284 0.20113827361752948 0.03899551621955379
19.75 0.0648059746203767 0.1260534776746165 0.000161183347596133 -4.272453890260373e-05 1.2433171106011827e-05 -0.0001355846863232138 -0.04873716522629115 -0.07303589256858012
20.0 0.07045178550713672 -0.04312289680505657 -2.1171643009517218e-05 -0.0001225646742035792 -8.003474824255335e-05 6.279847325410716e-05 0.05785097568807683 0.17253516391195228
20.25 -0.1208000980728154 -0.15773416224170062 -0.00018524485586522428 -2.9992450358692566e-06 5.110730803080897e-05 -0.00016859632222522374 -0.08680305688439077 -0.06791966548915646
20.5 0.1019316083947444 0.07125488647437053 5.1564387447178896e-05 0.0001307596146346748 -2.4574509302269235e-05 0.00010857047043853708 -0.09870490918666387 0.0866160404855265
20.75 0.14788616744650404 0.045335158191911355 0.00014726016808921998 2.99914281353967e-06 0.00011780540181052602 -7.016261116323188e-05 0.1068868952581181 -0.11310849141314325
21.0 -0.11838744971842438 -0.03276252662289277 -0.00013698687263424174 -6.819642872757725e-05 -9.981892132927997e-05 0.00010020159643180527 -0.05865116726737142 0.02760738762917672
21.25 -0.023461910144978435 0.10901318741840899 -5.1513533866546e-05 6.50783184465518e-05 4.7416223041046496e-05 -1.1788160566896587e-05 0.11438362666326737 0.09758645248097803
21.5 0.10223099470331427 -0.007811243912967392 5.073550568331684e-05 0.00010871390576677414 -0.00010825498972000635 -1.4180497824086058e-05 0.012284919001790948 -0.12639609460251283
21.75 -0.1318409029843774 0.0012692749578074505 7.379774123284432e-05 -8.508840560588567e-05 9.659439018289906e-05 -5.160810189459329e-05 0.05449711299298926 0.09601048169153859
22.0 0.0063896611670602455 0.09393245677698257 -2.9740112985654534e-05 -9.108028444315515e-05 -8.913702350843607e-05 -1.787310345353193e-05 0.16010525893303557 0.005750981382278059
22.25 0.07470652203928577 -0.03202265258325772 -0.00011906004646254846 0.00012642840483224305 0.00015699719305782166 3.5255157751435586e-05 -0.12595069446014268 0.005671113047968794
22.5 -0.13289754397912998 0.07564255856355077 8.709382675172553e-05 6.961169855464238e-05 -9.885786703671743e-05 -2.457181820472874e-05 0.05625925783747476 0.03922203319909593
22.75 -0.007610640185413936 0.09053864621116213 0.00015608773570688906 -6.260112486114081e-05 6.583879910409994e-05 0.0001322143422024219 0.06822701577216701 -0.1377789446703398
23.0 -0.0002028432608120554 -0.09010894942915353 -0.0002948364941119633 -5.809839865584937e-05 -0.00023368585775187536 -0.00014877746192492821 -0.06380692509639806 0.06782358072412736
23.25 -0.06682684188149464 0.09366205208197804 1.758254577443035e-05 0.00014295390744852892 8.40883087437252e-05 7.88337579453837e-05 0.08391588852283192 -0.08067658407785787
23.5 0.06564548576608552 0.08755398039559414 0.00028782048937188925 7.700500011778046e-06 -6.462594045434528e-05 -0.0002372907264712034 -0.0234910916490121 -0.13130771602694424
23.75 -0.0436854429598901 -0.06966864753756674 -0.00017773649877280404 -0.00020212057989146825 0.00016431006998102453 0.00015479288275312557 0.14096139320831985 0.09960461949750765
24.0 -0.1010215264047464 0.05853536013035421 -0.00020277619516824257 8.55972853588716e-05 -4.475160173775665e-05 -0.00016597902923594425 -0.013704892105193683 -0.03794147493895014
24.25 0.07379433324387348 0.026821172376179543 6.39610350334074e-05 0.0003228320241267633 -2.5961915149562258e-05 0.00028791648364645127 -0.19522858970696533 -0.05795785186679084
24.5 -0.036515608414216916 -0.09920814633668741 0.00026923326591594195 -0.00022358551442880445 -0.00011668621398302503 -0.00025958009881306876 0.09323417512811596 -0.05549052420193163
24.75 -0.08840682010056307 0.06192157101258014 -0.0001988588216716289 -0.0002638707873621628 -1.3708835469597054e-05 0.0002596285853035161 0.03802139450514451 -0.14309386943524444
25.0 0.08294107491508525 -0.07230190582170763 -8.608767117246501e-05 0.0002586306945778754 7.440233054392265e-06 -0.00022500179532695638 -0.0012099484490842305 0.09955403921237821
25.25 -0.08838550306345323 -0.05721489470633397 0.00036698615342917835 2.9562282072424052e-05 -3.0397522907904267e-05 0.00029037594665733114 0.1483275352626307 -0.015362446101904417
25.5 0.06480974324660456 0.0689782058232718 -0.00030444132412525807 -0.00036970398955012937 -0.0001928224078133244 -0.00034215831706282853 -0.08160735097143498 0.07202963231185693
25.75 -0.017781491291753007 -0.08774677380618681 -9.331541042584241e-05 0.00025827990691706416 0.00016096612298073802 0.00013745196461554317 0.06985642289642059 0.02581047988311072
26.0 -0.09207774889275841 -0.03388423586311103 0.0001650624928914475 0.0002564322661623672 2.302139708700642e-06 -0.00026584788916086813 -0.09796410299750168 -0.12474760615892014
26.25 0.0957057984958691 0.044277498926732495 0.00018899879823255903 -0.0004012681575388717 5.896759673152306e-05 0.000354135801562305 0.01961943861603195 -0.004082082859141342
26.5 0.07599044193005043 -0.08045050146467442 -0.00019289068839635989 -0.00016675080209822512 6.931253900191949e-05 -0.0001945322978089128 0.16046287234208256 -0.04891269254080147
26.75 -0.04791758525094958 -0.019709200221483154 -0.00031731759878240507 7.99552298177823e-05 -0.0002389001655681064 0.00011423764158515704 -0.042490440220889714 -0.07036741671287848
27.0 0.09427230547963755 0.07902411703631912 0.0002377026607762895 0.0002167374720731088 0.00019449173462871423 -0.00016995593733444157 0.03824463145422566 0.0797904004048667
27.25 -0.016768286081626352 -0.038827646275821054 7.239852596576865e-05 -0.0003539514416075334 -0.00013791420041265042 0.0002689797104292802 0.025400119085396022 -0.0707357879892801
27.5 -0.04638895200831304 0.057195707839279894 -0.0002907991248511215 5.907715495683761e-05 -6.438399946119403e-08 -0.00023056544612479646 -0.07934784332838561 0.11932644152266515
27.75 0.13380340928188106 -0.06189499995908235 9.410293432695173e-05 0.0002912695094502409 -1.045774210265915e-06 0.0002476947942439096 0.006807007653828537 -0.06531357264851952
28.0 -0.0025685163362039465 -0.0010945636061110708 0.0002509986735413106 -0.00023606565844178865 -1.9204294890864993e-05 -0.00025866481243972067 -0.10735503567419315 -0.05400449446650064
28.25 0.030410688621643048 0.1568730774210842 -0.0001864465822576541 -6.303119348637854e-05 2.032163798447588e-05 0.00017380662108448688 0.13074257638852 -0.04213926489788111
28.5 0.0027836281072581535 -0.027982152753944084 -0.00022647435182032605 0.00016921038815248624 0.00012103617735842302 -0.00020676407349861267 0.05369653988627132 -0.07261258118176891
