# GHz S RI R 50.0 
!freq ReS11 ImS11 ReS21 ImS21 ReS12 ImS12 ReS22 ImS22
1.0 0.12498869731177115 -0.2214086861177438 0.09993622968955891 0.719921317651505 0.4916007900632059 0.38456649806261245 0.23343117382622458 -0.14128226741846295
1.25 -0.05437100931253383 0.14127703870364786 0.14810826901754118 -0.7668663761939088 -0.4317378524177753 -0.4606350396288522 0.15614050793605394 0.05174167129931864
1.5 0.07781989619676005 0.07481091584753947 -0.25825142263856726 0.6669863013659121 0.3540044625208315 0.4430715776570217 -0.08867381275248543 -0.12042267929907077
1.75 -0.06252401562340935 0.04513291694130479 0.3255910422903492 -0.4569818553063435 -0.24016982838411677 -0.37074236190015364 -0.07193111397133603 -0.08228791123988326
2.0 0.10712603750344729 -0.04063494438529425 -0.38434923493388057 0.2757760590829275 0.12942661527627095 0.3304318565921255 0.2030406922359301 -0.04604640680038721
2.25 0.03788374823758124 0.09599386097038487 0.4105794859344886 -0.1504067678654385 -0.07671990567790021 -0.3289017316728853 0.1345211476368604 0.12170992488054197
2.5 -0.003285643290635326 0.07604358536780127 -0.048054600483055265 -0.4945398786177291 -0.293090887243358 -0.43833530748942084 -0.05682621867776727 -0.03226726649897384
2.75 0.006529054658651537 -0.04567208767717246 -0.5912557845835997 0.3736809341585471 0.39975775691844 0.49376836679479874 -0.03604794098452777 -0.028361188046566486
3.0 -0.13651692738543647 0.00467336283708094 0.7025886057213278 0.4322418080204489 -0.6280212847418238 -0.28476121133676013 0.043080838730996295 -0.09782356608615807
3.25 0.07865306118695159 0.029134038516452278 0.13312733439164826 -0.8541262780796948 0.6630818407656537 0.22219782794009357 0.08222999763798758 0.05708907573937036
3.5 0.040834938099551264 0.05390395559262788 -0.9060205097351631 0.36400767414153445 -0.7152436105352422 -0.1709591915408303 0.035240814766605975 0.04325045883054257
3.75 0.14518243896475905 0.17502754607604284 0.46254616339195975 0.7279585542255045 0.6946672932806178 0.1246525873578799 -0.20196094691408042 0.08349052921463247
4.0 0.026390967817380026 0.04460835509144581 0.4260247629551799 -0.696256920221663 -0.689945067261942 -0.050623870755419104 -0.060739398954057944 -0.00073906986014112
4.25 -0.14937178847697352 0.014781182890598984 -0.7072983174305127 -0.26682499239878477 0.7198052091156946 0.06838551259950451 -0.03831017882938449 -0.14079672308477428
4.5 0.054228910287056814 -0.048998121056358424 -0.049948257094363235 0.7561693736906997 -0.7476690961152683 0.1068575106876973 0.026616026279858068 0.01776225644136159
4.75 0.11481717761293764 0.16898846821881516 0.7472241949754804 -0.08813989930977806 0.7391543535742902 0.13462402642302754 0.02413304583472008 0.18889221845021703
5.0 -0.10020863151804706 0.17316454570830714 -0.30404336154927936 -0.6636043330371315 -0.7671354143527962 -0.06543069004898122 -0.05195328732891695 0.19119732708904685
5.25 -0.18999390328720855 0.0015528404884925517 -0.5281800822630405 0.5100736563632744 0.7495357994136584 0.24469244748763191 -0.1305441727970941 0.11543189299648106
5.5 -0.04962651119512268 -0.02194506226522801 0.5489100648746486 0.38812999342202237 -0.7500500174814522 -0.2088111032658594 -0.08274014084405537 0.04022894327972948
5.75 -0.06945849300398692 0.06730727639355337 0.24089741131264802 -0.5660575677774589 0.6832299036629041 0.2870300859186602 -0.03895179758834364 0.03820568573211644
6.0 -0.10333481373538933 0.06963651950640751 -0.5780113736314696 -0.11744128572985618 -0.5740315467899056 -0.35945676474049437 0.0379334707455548 0.06344645798462865
6.25 -0.11985533960599444 0.02205122474916127 -0.06517635603906324 0.5801911847201754 0.4464540340505282 0.4710226783389654 -0.01790822203789861 0.17491466205247358
6.5 -0.0972433481206239 -0.008770272578031958 0.5959623119106333 -0.12856010344846147 -0.45834909370742627 -0.3956987186796988 -0.04014833993741174 0.20649060531326016
6.75 -0.040715075069258665 -0.028748913268501666 -0.08829835215692727 -0.590427692465539 0.2733621388807049 0.5261405605504048 -0.09400862087032646 0.013515719591284198
7.0 0.055291021297321476 -0.07922741438250566 -0.48301284965474756 0.27648587007697745 -0.3626139977477531 -0.41387550409565077 -0.006720311118599512 -0.09708813908830465
7.25 -0.010554959497353612 0.034771914563704015 0.2944167859233184 0.412522294355953 0.2372357984435597 0.4300544496117965 0.14534772017231468 0.0804456949569695
7.5 -0.06617286526845957 0.18068236499388843 0.3882472861856089 -0.3212075076686062 -0.1793598886390704 -0.46068873555969564 0.14314317077477287 0.04357974759775286
7.75 -0.1171157436945095 -0.05188969326152937 -0.4088177769342157 -0.28700619590399434 0.15182621515424408 0.45059536836350483 -0.04609947581447696 0.0333846959386646
8.0 -0.015174502931584316 -0.0409171711209698 -0.2539143007789484 0.4173480478636069 -0.026941000071601467 -0.45950712964019186 0.07324815280150386 -0.02802621534314787
8.25 0.11649759575549004 0.19363788412241384 0.42557536454052436 0.11347023237907394 0.015932282331699712 0.4052439062605933 -0.02341200363424545 -0.1143325249929043
8.5 -0.07681775802690764 0.09330784750205097 0.09772444447916678 -0.4073146588326897 0.060030614651788244 -0.3967182885289101 -0.03121840062045062 -0.06429747853044115
8.75 -0.09908624823831769 0.008464118941269652 -0.37713831709297824 0.023363025609887622 -0.08820330187542802 0.3727322057331287 -0.007732841195203795 -0.17426035120604866
9.0 0.05070802344967226 0.031878463788935184 0.05657867877991163 0.34334807590578326 0.12322446777502245 -0.3345178988065613 0.03401316588019531 -0.04944419274143265
9.25 -0.050486485776005924 0.004019124603391197 0.31367480848833096 -0.12898857587029272 -0.1708985711874537 0.30057308052675275 0.06144650020928705 0.0910906542376555
9.5 -0.018434351411719688 0.006623523634980323 -0.16561572854943885 -0.29081929486614755 0.18561374860505414 -0.2638875776137917 -0.04188045915233646 0.0731585895940302
9.75 0.023223219757627426 0.01488534914180439 -0.23944670225093836 0.20070043872617344 -0.21020703874975602 0.22850685231206447 -0.05028701080223012 0.009001877441819156
10.0 -0.029285208470201742 -0.038918247328214355 0.22716831754439568 0.1808991718648624 0.2648441769689974 -0.1151733307123948 0.03679575805255575 -0.07773752544768765
10.25 0.07255764086273903 -0.006768462708802374 0.17263723404888773 -0.21737330762861026 -0.2000097485011051 0.18362350688724885 0.007602709138526835 -0.06700708827667057
10.5 0.04720796470124004 0.12128735441948027 -0.222861452015339 -0.11559281447800743 0.25265882617154345 -0.07771341918425725 0.07235213121019987 -0.05007637466161359
10.75 -0.0409847627944946 0.05419401044058196 -0.0917612664249996 0.22996482328093462 -0.2532707670031979 0.06888654622370613 0.06805129724509247 -0.014474708697984028
11.0 0.0033216151186051257 -0.007140480918576525 0.24459927174524204 0.09111618135323282 0.2550086781582694 -0.08116021116654407 0.0455183101720023 0.08610211067438378
11.25 0.06872396054254426 0.07929709560118066 0.0549433641767382 -0.2467377948388182 -0.2565302856542573 0.03190147023344654 -0.03976915028377343 0.06062725841161455
11.5 0.01426839313789384 0.10794829177939273 -0.24538358989380615 0.009156909408508357 0.2587489794687253 0.00455907026985309 -0.006302775527523605 -0.08164997572565642
11.75 -0.06434370305202176 0.052006461363885745 0.07706695207860906 0.22236592038447847 -0.2464757439905917 -0.052243237978289996 0.1081084234753551 -0.10139618793861747
12.0 -0.07567651937626005 0.0301375277200883 0.2030914546444222 -0.05910105625885073 0.20231724932129755 0.1090189023280368 0.15858296229699903 0.07036327395762763
12.25 -0.06318845325930156 0.007234815419754011 -0.036176912932138205 -0.1987008903333381 -0.17180981935605383 -0.15370266558307888 -0.012755423817365802 0.08103481719033871
12.5 -0.06533022386424885 -0.02208685180023865 -0.18986784778579485 0.08823677898139504 0.12973073829450119 0.18894562655749758 -0.03179743745201296 -0.034560051920091664
12.75 -0.028178154237058446 0.05122199631713014 0.14184379196189573 0.13057331506777534 -0.14501209888916194 -0.15872249154288004 0.1172786648396281 -0.05570717551802734
13.0 -0.0390933363694812 0.07904051322396773 0.11562990978542691 -0.15028444801248644 0.11561601323784598 0.17685587592955887 0.09303054043354017 0.049971283662452834
13.25 -0.14505161623233953 -0.030299830563277536 -0.1241463113490986 -0.14019832938054405 -0.003930385793538577 -0.19896593523218598 -0.0042193223926624834 0.06918219972428108
13.5 -0.04494024022143357 -0.0555332085683519 -0.15392260575420957 0.11255225507914668 -0.05374724738963844 0.1963923468123167 0.028570507753750782 -0.05527732064499538
13.75 0.061023550195720005 -0.024422084215898365 0.15910550736349083 0.09915034553221579 -0.01541321846887652 -0.20463006608221268 0.035946477453188914 0.009441876153332668
14.0 -0.026335797807484206 0.0511170915101635 0.05357711081463279 -0.16963848469039305 0.010535594354126284 0.18401724566105956 0.03206121136778915 -0.0011127169394432538
14.25 -0.06151658378222975 0.06551407933881004 -0.17849896582344313 -0.06801063860183118 0.032062606946152115 -0.17468508418469925 -0.03753043250757766 -0.047867898489428344
14.5 -0.043947184626781814 -0.025542111222937217 -0.04021734155394041 0.1813364567765095 -0.09870407215353194 0.15515588956631315 0.025283930714739895 0.013259511467128754
14.75 -0.041926436856555525 -0.042562630353088264 0.17493238418681611 0.004674064651679327 0.1110772614297072 -0.1350925548710303 0.007908067494236094 0.02300460107766128
15.0 0.04079648652800153 0.04100385555705693 -0.03833213679419911 -0.1706345397109847 -0.1169045461044009 0.12523033612158888 -0.08324224033466579 0.03846399930183176
15.25 -0.0050748257619947085 0.09259494166013227 -0.16738668615080018 0.04938636557289022 0.1368336465333109 -0.09345383357219453 -0.053109470980361353 -0.002844235326804667
15.5 -0.09282641871188696 0.06089868420145393 0.08545864514763499 0.15387639787251575 -0.15442660763547048 0.06885787471671212 -0.041388169041121026 0.009237529841707484
15.75 -0.0475422878291915 -0.013579326170496779 0.16769311178234986 -0.08278174409857739 0.1532947289087385 -0.06274364628215075 -0.03116851002950077 0.027552272370452845
16.0 0.026072874815650356 0.022041387244448672 -0.10980299459480491 -0.14208027205267382 -0.16026088104465255 -0.012137230324465127 0.012867048963364328 0.02598478499886388
16.25 -0.012462726699505194 0.034731388677898545 -0.11553648754270626 0.13055855246795278 0.14894075988527397 0.022015929648348437 0.05169585124954504 0.09751320633586665
16.5 -0.020040326626395676 0.04991088883279217 0.13789929829645456 0.08244386745044766 -0.13603332140097601 -0.033751803841473485 -0.0008505989152344101 0.12912831746022738
16.75 -0.024721294965417452 0.00984274856468205 0.10931146668525561 -0.12326752047565931 0.13667597205081272 0.043611172293080265 -0.06091300279856753 0.025045550852254267
17.0 -0.01882192084181244 -0.018705424148999228 -0.13450158705271698 -0.0869820331080957 -0.1162982199843379 -0.07117851051808385 0.023863809854087203 -0.05498717405302164
17.25 -0.022259798426718384 0.005632834488533269 -0.024176896839408685 0.1573263278691731 0.0995040819565883 0.08759696286955562 0.08972748741842801 0.008560285265380177
17.5 -0.010488546385026406 0.0050743089347659275 0.1553502229664737 -0.018049758509063873 -0.09664177099175951 -0.08314859349720774 0.04329550739965406 0.05092829210266697
17.75 -0.022074717678076478 -0.007815584334396592 -0.019001866918267635 -0.13776932558981064 0.08735092706107495 0.08237824966640461 -0.03325214542512537 0.010692701427420348
18.0 -0.07349219036665594 -0.004598160605413081 -0.13792020263925192 0.030951466169522657 -0.06600382909680802 -0.10234228753873383 0.055117381231676116 -0.006166329577852814
18.25 -0.04938085216335071 -0.06858638437471369 0.04115190614982009 0.1371493649603091 0.04739452222422333 0.11634754215367897 0.08284481047125596 0.07681020092218555
18.5 0.007981266662039646 -0.10822494796949544 0.10969755093896949 -0.0652057316427897 -0.01794447506345745 -0.10829518633604292 -0.02269120413205973 0.13651126483866066
18.75 0.005020239178730762 0.012313004556475118 -0.0984656105388128 -0.08711623689877557 0.01794643673605633 0.1204600368342881 -0.009018591441888246 0.03278060361099164
19.0 -0.04459066120928373 -0.024194553962427687 -0.08094850456410116 0.11241328541183615 -0.0037886837151683526 -0.11753232335546793 0.01611956388850573 -0.06362323386428709
19.25 -0.06946138126247689 -0.13107228102081153 0.09967379592717113 0.07941548271033794 -0.03992094937119529 0.10384416542125031 0.11407164971655546 0.010453370536914475
19.5 0.026410599467295376 -0.09210461428679621 0.05160232796879186 -0.11981997585032608 0.04386592157959559 -0.10567334468018244 0.10341166195500714 0.009901173301142312
19.75 0.07836856689169762 0.024518677127848443 -0.1275668793834502 -0.028053064455317064 -0.06002921782891279 0.09679611333734088 0.06993612716724922 0.007996122029479195
20.0 -0.05081603124949578 -0.020211657954808702 -0.01024351029231399 0.13551320371972542 0.10896990302799983 -0.0471261249818451 0.034706862655371214 0.043773473975234165
20.25 -0.026596757737690182 -0.0820245492851506 0.13085134785737204 0.014837246099297943 -0.04637452794922202 0.10898351374956036 -0.05991452618460004 0.05892293541932241
20.5 0.11792613671088834 -0.035244213979533034 0.012166015003660005 -0.12356812971074359 0.05867224413144359 -0.08306120603822145 -0.0396071456781242 -0.01345143361224279
20.75 0.01742079968285558 0.06512262769120558 -0.12419072263557507 0.005744130390565025 -0.08983329437336693 0.06325068826539545 0.016669544573732376 -0.058132640806047325
21.0 -0.0588480031130063 0.021545030332635363 0.05253239909912154 0.09282671689953666 0.09693612260245911 -0.016782006370084285 0.06864817062071257 0.038548371735880445
21.25 0.0226576393549882 0.00288611699051761 0.10302873471244212 -0.059628131248634114 -0.10123707053769931 -0.007749316473163554 0.032804519145125895 0.03174105966885167
21.5 -0.00723995014793858 0.0631076667248037 -0.05957078002607333 -0.09554576310833071 0.0988278423066929 -0.0019011024424434473 0.01664703303205092 -0.0396575945736571
21.75 -0.06458919436514506 0.0279678678480349 -0.0839137120091793 0.05652982073293779 -0.0902340285413066 0.017021706924964047 0.09881477549506042 -0.02319543874463778
22.0 -0.008981182912475454 -0.007079855235622219 0.07019989999729231 0.08553901301250563 0.09290561021150054 -0.0019443635034255106 0.07576585167905844 0.06212310681475759
22.25 0.023582411605336067 0.06913201062160884 0.07572203089177595 -0.08214235794338884 -0.09256254238276385 -0.019438919582244144 -0.04031473588415822 0.04343705659302867
22.5 -0.055914577643840536 0.07740921897904698 -0.08004246740517224 -0.06642019868150678 0.08528500214106442 0.027631594846442915 -0.0154655984149571 -0.05734885230371262
22.75 -0.05903882436533534 0.020086602784446926 -0.05427138740422917 0.08275403278080803 -0.08053387388921879 -0.03858200369660984 0.06264871219222819 -0.03468365861627486
23.0 0.0018811056373338325 -0.0011973435177142604 0.09879346687763255 0.027012217663591964 0.0748370099626911 0.05505943103416583 0.016944690446450805 -0.0009992700747449013
23.25 0.013949384976423436 0.05102963463393049 -0.00033786024560025774 -0.10309682732252806 -0.0540418930447787 -0.0661932322793605 -0.010032464808481193 -0.05741825507504681
23.5 -0.023522083031803174 0.06593928721370315 -0.0948053340149033 0.02610627066727457 0.04294521654923756 0.07111082873991065 0.05707091664843286 -0.08923319985605613
23.75 -0.025460760050825305 0.013470057256121076 0.036196044985808404 0.09884801506147772 -0.038542157324481977 -0.08189143119358835 0.07643309627288346 0.009133509581160132
24.0 -0.018939287452869286 -0.002186271393241117 0.10085045145714823 -0.031919663125072245 0.016437542189915 0.08717820218452099 -0.02436216530700512 0.05415335530333036
24.25 -0.025742444221068937 0.022531370696198937 -0.02113475636002582 -0.1021078908952679 0.00919153638292406 -0.08846800239554528 -0.10283013374742449 -0.0747625448217495
24.5 -0.00847574944661001 -0.018002397036689106 -0.1089116749155756 0.0171559330085838 -0.010500348255568994 0.09003886634533538 -0.01944133200413138 -0.08560201808487972
24.75 -0.03905543213843504 -0.03727454879229554 0.030032654816946044 0.09618366676459311 0.02816897785971605 -0.07867761895523348 0.07090750830075591 -0.07317626880209567
25.0 0.0034286513742106534 -0.019440484275886682 0.08300220656892718 -0.0743387241196589 -0.047548675959636896 0.08069000537859747 0.037891435405781985 -0.0031472515389650985
25.25 0.005161448429033574 -0.059636192694745446 -0.0982491322166004 -0.03804901832795972 0.033275151632452156 -0.08016503505432687 0.07863114230896859 0.05473749587889678
25.5 -0.012874966109433002 0.009632967929983617 -0.006064521869006606 0.10516192783711523 -0.018706687675626762 0.08723431574464885 0.007789750027052775 0.0344282174968187
25.75 -0.017131707873829248 -0.0038228737358414113 0.10292821768696557 -0.024831259705600475 0.012719939098573278 -0.08511994749666497 -0.03830894526380146 0.03630310667078992
26.0 -0.005091485564225413 -0.07967208438514259 -0.015033382683026897 -0.08720359162893554 -0.02957210916401199 0.0690246533326316 -0.04606103392330595 -0.079303828370477
26.25 0.04379608202997058 -0.00973258135888172 -0.10267158538399639 -0.0019651263463985325 0.06861163588421662 -0.04664936484878081 0.03985766265241435 -0.11727192336263692
26.5 0.02623934146899522 0.0013086766091637298 -0.021451015934292994 0.10479515901989753 -0.08653058117372514 0.014585516484972999 0.07374331626394368 -0.00029145817441680877
26.75 0.04564035743267861 -0.03334515673408763 0.08753295138043267 0.03852019624623598 0.07839582404869576 0.01542776822581744 0.01641023474996759 -0.014633901124839236
27.0 0.04141172618909077 0.03531029133453865 0.01812511834347723 -0.09141313472011264 -0.0762163866995935 -0.02466825803593497 0.018607970505715526 -0.029678387088479703
27.25 0.009303123693255297 0.04821436084173231 -0.08955177845944373 0.026296658541247298 0.07703885575793136 -0.0016430918117569214 0.025809992396817572 0.008589205617409612
27.5 -0.026262938490200533 -0.024454290818312602 0.04802180813794328 0.08765419176134598 -0.07737076479201005 0.020585523760696292 -0.02650405645009578 0.038772339491986406
27.75 0.04641988969433477 -0.03198800347038278 0.07401241787032724 -0.0672940970492894 0.07316290312443546 -0.03212684815763 -0.053813527385315515 -0.0014825790291589092
28.0 0.08140911648960554 0.03441718281427194 -0.0856314253006056 -0.050391342184633536 -0.0743727542430774 0.02484613357177836 -0.02232280533333114 -0.06865641796623276
28.25 0.01595378565433135 0.08003824785176893 -0.02777366653947999 0.08351087270846647 0.07097034780108069 -0.015050402869379993 0.050552081671777854 -0.0671829539507753
28.5 -0.06585470782400255 0.040301988358902904 0.07551678927080677 0.040083404638388685 -0.07126362113695571 -0.0004284628778107851 0.07111868945872173 -0.011558174301337237
28.75 -0.013161448666213237 -0.004915792187119301 0.04000976576178293 -0.07817174328026838 0.06861829687001877 0.03143868289831887 0.041305472044667446 0.04307407208349526
29.0 0.05457913864278568 0.026036561242937024 -0.09349186805827735 -0.028045465962290975 -0.06049614360656709 -0.054052895190830154 -0.03733621921378269 -0.013533442615649337
29.25 -0.011712676538007227 0.10102743808424672 -0.0007896881790323274 0.09237504253844941 0.052130430180519216 0.0579203563045564 -0.03465977395996046 -0.0381613416330293
29.5 -0.07569392478189658 0.09142659273352727 0.076544972606672 -0.02332104756342021 -0.045145799978436506 -0.048301264178697095 -0.006405558055432081 -0.08945493281794777
29.75 -0.02961139480777699 0.007795199950425977 -0.03642522669546182 -0.08136587593728845 0.04137464003401051 0.05878668103889565 -0.0002915316947662656 -0.0434113122095385
30.0 -0.01732137261476976 0.015463223345591538 -0.06350901545657935 0.05668846544651332 -0.04145742253978729 -0.05772366074135855 0.03895500166694257 -0.010238677312142154
