# GHz S RI R 50.0 
!freq ReS11 ImS11 ReS21 ImS21 ReS12 ImS12 ReS22 ImS22
1.0 0.13343694973552275 -0.25184512815034044 0.2503412263797597 0.6783340668048651 0.5592375075488796 0.2691287713238317 0.25280053954004844 -0.17485040457221018
1.25 -0.07018051546634294 0.16396598054861866 -0.05941064570736432 -0.7788165308812945 -0.5380164868854223 -0.3305900129940344 0.1414982933977338 0.052965620919703166
1.5 0.11404842624848455 0.07160213922796516 -0.03831182390820988 0.7111481125104372 0.4716678136959971 0.3101632960234963 -0.12627868826611494 -0.1388776315113046
1.75 -0.026777410424956516 0.028556860236923172 0.13359399012586337 -0.5483246825825392 -0.3624988310335238 -0.2567982056678857 -0.03783605624828623 -0.0535648116941881
2.0 0.10098318748688913 -0.06604517360141024 -0.23867882260363074 0.40907197561533226 0.25311741016921135 0.2492709339992396 0.20803826418785085 -0.07194207541331672
2.25 0.055554838082536945 0.10498349269503761 0.293421612671723 -0.32127412169186814 -0.21866622742999048 -0.25515378505395425 0.14306636937125983 0.0868489486275184
2.5 -0.007227289750476283 0.048652499069098486 -0.2948152631632602 -0.40284710177575384 -0.4779595183658869 -0.2284054797982176 -0.039876141520463176 0.03191638759893364
2.75 -0.06808087267011435 -0.08464343059139118 -0.28323681394391914 0.6292607153032705 0.5977442886187769 0.18903505598937073 0.010036865262648367 0.02824730797852834
3.0 -0.12953690055397113 0.17441043352782154 0.8046318447851095 -0.076253613055564 -0.6594697738926414 0.1473766925852117 -0.015327577020668113 -0.15919510986562596
3.25 0.05483853697455687 0.0568542180019654 -0.4405459133793891 -0.7391259875698967 0.6491861673785616 -0.25099304053225285 0.06081894644389738 -0.043011341943076445
3.5 0.04136615738104804 -0.010461166897247326 -0.42185777535530006 0.8805572115447318 -0.642661675967937 0.3576526319716644 0.04932733229516518 0.03004026714227139
3.75 0.07090922117367365 0.018048686177415167 0.8623833154334974 0.1648584869875439 0.5768756336599619 -0.42849151776138933 -0.05600667814164433 0.08155121777649815
4.0 -0.01757685601313924 0.052943196764390646 -0.23776956514143655 -0.7801072264166778 -0.4951739290536692 0.482235129873998 -0.07531307479879355 -0.048201545077141125
4.25 -0.07499190565883611 -0.02015162526128081 -0.6465792304628182 0.3907577156326083 0.49838301459833195 -0.5231410794091349 0.0010480248691780852 -0.12723914887173177
4.5 -0.042178118996137354 -0.035490199767244775 0.5924015528531432 0.4733594671489472 -0.339719983261444 0.675433168792533 -0.023858906258566574 -0.05837077649734447
4.75 0.1520450536043482 -0.000474408171719877 0.3293514328918825 -0.692237357884711 0.5172369813510078 -0.5646861672873179 0.058649632940194416 0.07574219295728843
5.0 -0.03679672137792803 0.07193420064463045 -0.7372972817029166 -0.04637328423442755 -0.425323149938727 0.6534259451572204 -0.0028911181248140252 -0.0009653908973170228
5.25 -0.1181968965374493 0.0829993257560692 0.21599151937014227 0.7039321419187731 0.5594946723098257 -0.5588256999540971 -0.012366300721449085 0.1516179362388593
5.5 0.0011884042759419122 -0.02648327357687165 0.5721693371350726 -0.3539812582895685 -0.48530560302088965 0.6094017068144113 0.009834609944644966 0.08815533019280324
5.75 0.011358252639422885 0.07188387542507574 -0.4436312401005057 -0.42181489402172934 0.505224737352209 -0.5371720107589867 -0.04283060711257258 -0.01965387310316026
6.0 0.019996982871591976 0.12265385120389802 -0.2970327324714755 0.5039979510089035 -0.5224336496099709 0.4224441434610966 0.17323985986075602 -0.05674193613199489
6.25 0.009220823910036301 0.06103070335735866 0.5611082391147113 0.21181690844765722 0.581951597260432 -0.3256614757348535 0.11900341013354876 0.07791661844771047
6.5 -0.1833608711174374 0.15867154667018807 -0.0024938795205763364 -0.6001452290109855 -0.47421589704209344 0.36093490287961955 0.001579749023588789 0.26613913230776565
6.75 -0.07808907373752785 0.009744329380546118 -0.5963847038417958 0.0041023353631231 0.5587964463486705 -0.19661970691183028 -0.06189464223813826 0.024918516262079166
7.0 0.023680682634331943 -0.04093668315749541 0.23307453323369054 0.5074811272992631 -0.4459875111000149 0.32523153655641374 0.0026078359421340958 -0.007642775307484209
7.25 0.009784309611632666 0.23048002841366746 0.41433168884361954 -0.2494943059887571 0.42666866390337127 -0.19390944545983918 0.2882644172105172 0.05805644116631714
7.5 -0.20823856726920392 0.1514747581831139 -0.3218377131002604 -0.3698071673324622 -0.4432866717508542 0.1859648624482437 0.21181897854877196 0.08874992834712522
7.75 -0.1877393793990027 -0.1007698251921813 -0.260523645153519 0.41604041747670173 0.4342604012966152 -0.1725715412904359 0.06713690091643254 0.06462434270206886
8.0 0.04310202275318781 -0.08581365430869499 0.4472001659295468 0.19711412021123248 -0.45227441014999803 0.0870432926394904 0.014680040777005653 -0.026831246124896194
8.25 -0.001896029775867468 0.09943927408500015 0.03485148497362761 -0.45247371145995124 0.4073740370177981 -0.09261056192398308 0.040035568170953446 -0.05880686901238048
8.5 -0.08410773495801005 0.04732800547569772 -0.41895778113016485 -0.0013190443991847878 -0.40000667848742705 0.03292208637982896 -0.02174417134908265 -0.024049439651141605
8.75 -0.08965401477528795 -0.039410842372911425 0.1331604025811154 0.350137943140152 0.37900841331525315 -0.02648481174164244 0.04395484299341487 -0.0748680496992124
9.0 0.00676021071699448 0.007208869051647533 0.30787179383391305 -0.16514233115020027 -0.3579268835684919 -0.008435710517443788 0.084938366996792 -0.0564074547707672
9.25 0.06951598368898501 0.007079632146893088 -0.22809990454793017 -0.23360139062696528 0.3298945615867482 0.04416703013285233 0.08398454955643089 0.14389451964221914
9.5 0.011654744404209626 0.04734302835257709 -0.1907756105304347 0.27041242216592865 -0.31437622492705497 -0.0550755779602388 -0.04314323395946537 0.09400321917008134
9.75 0.029012557516232003 0.036206346639164354 0.28614007364906324 0.11418376158900653 0.29675647905472546 0.07554193347587702 -0.11129683490831374 0.013704814155526102
10.0 0.056235199249592555 -0.05360971858194794 0.0319799123368813 -0.28148120054034537 -0.23249160724016127 -0.15931982446624698 0.06799290263546161 -0.05988590944831769
10.25 0.051340785006584656 0.03610460712923845 -0.2764900100501893 -0.015468029789941329 0.2648144114111398 0.057165809746599766 0.04122772438905388 -0.04069268439155574
10.5 0.009152271170705384 0.1293855299999372 0.04901341830679534 0.24417395911902862 -0.2171885125836377 -0.1471321461209511 0.09447034227918823 0.011712006334840867
10.75 -0.051855873180790234 0.015020326998647873 0.2342123809596433 -0.07701744719205791 0.21458939539510175 0.14904917683824567 0.058119953642201065 -0.02840278680962629
11.0 -0.04859236708266347 0.005496254633399339 -0.10028858731355642 -0.23653714082493954 -0.23063076838673538 -0.1274718784150031 0.029730273334058158 0.0927080956434973
11.25 0.049893547578401184 0.08976120247357254 -0.20842969034372522 0.1406296898007579 0.20702847343652786 0.1523055596946101 -0.030676033867365133 0.06317137616386469
11.5 -0.00038709909021417827 0.10413795510695707 0.19189060449542436 0.1529229326210212 -0.19330420224792907 -0.171893145769293 -0.03276797509550108 -0.05423794751743401
11.75 -0.07851702260793114 0.06822483899054424 0.07378607134827611 -0.21850922113279553 0.1597097101809019 0.1882820457914564 0.12825867173714064 -0.061247337651289105
12.0 -0.04948776885502752 0.006589784493024525 -0.20261515148176362 -0.06483455270371744 -0.10757334752409517 -0.20461820406410205 0.13893608154181694 0.0844903362549763
12.25 -0.03953148118652219 -0.0033757650936028063 -0.0708982453788933 0.18741906907818517 0.06737490609036192 0.2186271116032742 -0.024773724091812832 0.08204633273081569
12.5 -0.05848302401046857 -0.014807055768524325 0.20891302701826941 0.013410550088526263 -0.02350075017612327 -0.22795302313347118 -0.010963042810190539 -0.06512634163142703
12.75 -0.03814780327762406 0.024462960007774683 -0.07398347668302138 -0.17834360166880878 0.06510612334630114 0.20525199334277175 0.11692546127684152 -0.039452985066232224
13.0 -0.035726084380759894 0.06595452820379274 -0.16317213938331837 0.09558605446431415 -0.04072861350342585 -0.206816161135985 0.07767321676025074 0.058467448230732084
13.25 -0.13605065596811136 -0.01577484094775261 0.07033362179884936 0.17622392160900924 -0.06436710814598266 0.19122700141566235 -0.035060507143815214 0.05308639164731743
13.5 -0.056969982948836706 -0.050383376479598715 0.17655795672789448 -0.06284341752537512 0.10568900271565872 -0.1700073451341347 0.0445814295436074 -0.05875597239711179
13.75 0.05780202771366266 -0.020855747253436134 -0.13096386455251974 -0.13187328586750904 -0.03149165338354344 0.2009771888804112 0.03664533653720816 0.008342996834809414
14.0 -0.021417843016615333 0.05085191947454569 -0.08164888778027274 0.1569416933565048 0.02125072469684671 -0.18213683591236263 0.03299560148857528 0.010262858448805269
14.25 -0.06024755013750209 0.07590929278127057 0.16458991160301603 0.09067290417417666 -0.05499985970104386 0.16573003601104114 -0.042354560024973606 -0.06276635274736225
14.5 -0.04532685093425839 -0.029438077433097856 0.0522202700450497 -0.17599553093720272 0.10797251239612858 -0.14622383157538055 0.021805703141277923 0.014542599190412689
14.75 -0.04593832975544998 -0.04110304573564046 -0.1718556533988187 -0.008614136425538765 -0.11202372927242274 0.13038284531567954 0.015367783110443314 0.01984100739159332
15.0 0.04613250632168572 0.041915171802417266 0.04282602612824213 0.16765121128006305 0.1118790438891062 -0.12733872491268466 -0.08938739345042196 0.038376951179134505
15.25 -0.004551690393877969 0.08787581346364831 0.16117962772509178 -0.06259198244446454 -0.12739469378150448 0.10378214433810604 -0.04680514864580976 0.0005691316465568433
15.5 -0.0897849143216477 0.07177312699943278 -0.10410694429051312 -0.1400325975241583 0.1426621273292678 -0.08792020001983548 -0.041437721498884215 0.009725527664815423
15.75 -0.04556416436852652 -0.013897206772659154 -0.14772812839831395 0.11161378573199426 -0.13735702616404546 0.08966336801150687 -0.03826709131547181 0.036003553128335516
16.0 0.022114430907472588 0.018175030012152572 0.138879603372137 0.11082611392189311 0.15693960540772764 -0.026052324058236542 0.008402462956703965 0.0263354842066763
16.25 -0.014995411248817772 0.037628361172383 0.07205208316350195 -0.15701712160418618 -0.14755947090040328 0.022039547079023242 0.0520855923214242 0.09181722252255972
16.5 -0.02171533779562784 0.04066472627929119 -0.15537487633391717 -0.029695784564324118 0.13718613903031296 -0.014895050699176182 0.003622226007211876 0.136165810474179
16.75 -0.035476440649441006 0.016619985902463365 -0.05272695563472227 0.15590940768190537 -0.14273761420791367 0.013079098723282796 -0.05823481599501223 0.03914562926712603
17.0 -0.030476505587363648 -0.03154493054901636 0.15593912797873696 0.02174285114356167 0.13309754106617422 0.015113902397232091 0.002230244716120676 -0.0577002879399344
17.25 -0.016576944965500003 -0.01450106231875476 -0.05336930155888503 -0.1465854031298393 -0.1268106121142647 -0.028343814113809464 0.08397684490762522 5.2441040055133115e-05
17.5 0.013457916236138484 0.025043127940722193 -0.11536857282684637 0.1000430172457086 0.12373132538574161 0.013773988468297086 0.05706764963737623 0.02808105093977063
17.75 -0.049763649294674306 -0.008063286837875928 0.0905917127385864 0.10501282948519138 -0.11783254066675032 -0.021521810132069885 -0.02725414482066041 0.03732595095540148
18.0 -0.0636167875607413 -0.023885120481686516 0.0868123590489085 -0.10544590468656968 0.11105796068704225 0.038746866205441925 0.03809488576734727 0.006563369238487424
18.25 -0.005672668884449096 -0.058808495377678904 -0.11698774475781698 -0.060311959435068854 -0.1071630711115651 -0.04274949702793113 0.03975586422090264 0.04161324111520981
18.5 -0.03260155673550823 -0.07626798856286972 -0.039280363395712614 0.13101074481115943 0.0927013249323166 0.07245372456043622 0.010032998263476835 0.12323278209834791
18.75 -0.00011941881006435895 -0.012903431344409008 0.12905756507708213 -0.009385863561756802 -0.09720211054137837 -0.07012317264507249 0.016585742081379088 0.034500231541888415
19.0 -0.015254425787991573 -0.03655987195892123 -0.03343316797073678 -0.12173261958268643 0.08555983178986622 0.06442860835040584 0.0038688552236190304 -0.007764294174535932
19.25 -0.08208502820475505 -0.08837637213199112 -0.13171053609029942 0.03736898933053494 -0.06587747569498542 -0.09991827250965117 0.09673715815176347 -0.0353448936756372
19.5 0.00664359818840414 -0.09811345022160592 0.07039420031836818 0.11202375768894646 0.06325287504173994 0.0973663639344263 0.10750270020774332 -0.030321237309156618
19.75 0.07708557648183653 -0.008830171329661726 0.09619482762335732 -0.08933913445057744 -0.045704050133875296 -0.1049798849898812 0.12287302678371646 -0.0148544193400915
20.0 -0.03139126831814962 -0.00839065361880353 -0.11362932175812054 -0.06807392879711283 -0.006433688739818151 0.11552686871102212 0.023740824071760952 0.06460587132650589
20.25 -0.0068166097320416855 -0.06179916609013175 -0.06542531163980157 0.1081638962028576 -0.07648418981110969 -0.0840797177005168 -0.05936843362664614 0.08590598117247457
20.5 0.0651667112016191 -0.03934732286365627 0.12275695419879264 0.052425054597352215 0.06638030396394912 0.08709477180580574 -0.09133351639330556 -0.028498780764741133
20.75 0.04550679143689603 0.0456782991711746 0.03854527777044135 -0.11933952353791069 -0.028054744345411012 -0.10723514564450463 0.008488187604487232 -0.090809760986339
21.0 -0.016985469886923996 0.03725193548142291 -0.10916473445614366 0.017251129177037167 -0.01884089645481989 0.10028772688419793 0.08655548753255347 -0.005656869807360257
21.25 -0.027658033196519115 0.03796134849371946 0.0386644308367652 0.09700425549635505 0.01950659408586485 -0.0868066491256692 0.06370454641140957 0.06518960686999416
21.5 -0.00623565753329261 0.022513752183975846 0.10694249192832593 -0.04866183939541539 -0.011377245665271835 0.102539268603101 -0.004541522857780311 -0.009893853573299527
21.75 -0.033649046800457126 0.0065071415563770635 -0.050680829799630525 -0.09849120527761687 -0.006985502453796093 -0.10028539753645445 0.04261109607185125 -0.025469810001288926
22.0 0.002872690375655622 0.03665114750960357 -0.08572719546941043 0.05134938752200777 -0.010601970190828931 0.08327297461680487 0.09774692686017987 0.01546724464404339
22.25 0.0031608827676485904 0.06457197539564251 0.08096643109297422 0.07021508996574395 0.01584587143190557 -0.08943343378162485 -0.000693742335250977 0.04615408249438429
22.5 -0.06915505156483029 0.052580503098961145 0.05439981474064152 -0.08756701278238925 -0.015493355623472729 0.08753662197332501 -0.008725623640538673 -0.0016334364523977532
22.75 -0.030007132903472185 0.02189471770573795 -0.08582115163355747 -0.05182722783769264 0.03597794577448239 -0.08299675050331186 0.023976814419160157 -0.05685336912247171
23.0 0.005804722333937643 0.01711493626815337 -0.013480219051302311 0.09878532955460037 -0.043541554921786615 0.07928231053547521 0.011036504887036908 -0.026739013109743116
23.25 -0.028932790985253715 0.06676820338266774 0.08532880815111368 -0.021162028830281454 0.04382747600758927 -0.05830496752744291 0.033000398986271495 -0.07317361704050689
23.5 -0.022880931476400523 0.028897373039156522 -0.05272680028968263 -0.08701103215049559 -0.05858434250536044 0.062875865484289 0.05194306291739985 -0.06692656082481777
23.75 -0.010274223223713956 0.00246941400063087 -0.08026979759554558 0.06601675531940958 0.06362565527224508 -0.06269589112327574 0.08237102080509644 0.029221015147361057
24.0 -0.03764943636450278 0.035741243469007325 0.055184340745407415 0.08423643534742017 -0.0756880433212389 0.03762222794819739 -0.055490083030477214 0.02947897793731373
24.25 -0.028042588298184262 -0.011864095592342479 0.0844780561641508 -0.06148093052578982 0.08451952088853257 -0.028256004502745354 -0.09702883007693248 -0.06630915296834448
24.5 -0.006680801859948987 -0.029663763189533784 -0.06278124209021882 -0.08533225114035392 -0.08141322225632552 0.030958667569320836 0.0075532333858303186 -0.10026719644719462
24.75 -0.004704725734115876 -0.021144724138071096 -0.06976919311562153 0.08038963629854995 0.08628467676469509 -0.018376978170321318 0.0621667482122058 -0.043857125532175516
25.0 0.000978017381047822 -0.0262843876146419 0.10565403216605944 0.028700877606617478 -0.09190408625815558 0.00407370888689285 0.04515213182066495 0.0069347644202922415
25.25 0.014612778570418988 -0.036149653774725024 -0.02869949962117177 -0.10451070866266128 0.08659251436078466 -0.021684499240112832 0.05376961443773512 0.04324142774156751
25.5 -0.023238921245965046 -0.004936368566249651 -0.08077915475960114 0.06134743173669427 -0.0755360270777558 0.041036182028309734 0.025931303590330232 0.023453880790674075
25.75 -0.016667426262824876 -0.007073741014610457 0.08565027909786456 0.058047495943175244 0.06977247835111129 -0.04695230098104606 -0.03447985812367921 0.02195513216597117
26.0 0.021638764825964257 -0.06712131195593687 0.044528517930179624 -0.07593907454200752 -0.06671383008108653 0.033640364411615206 -0.028005853003732917 -0.0639740153196978
26.25 0.014815084330639414 -0.002512974193608866 -0.07440293632675714 -0.06905274066916438 0.08126980907754183 0.010733186530042124 0.03714679734581665 -0.11547697164475781
26.5 0.025100930718499382 -0.00416698434778298 -0.0812284311845205 0.06714869993315874 -0.07548778438082704 -0.042169114047736836 0.058208958132274 -0.004773453189374555
26.75 0.0632309656401426 -0.030252432355982836 0.04752957310117997 0.07612932624144754 0.05273325482918448 0.05338739706712593 0.03800281760944084 -0.015860090136694142
27.0 0.03329188077242044 0.04401712867391415 0.06227602021268113 -0.06646150280440506 -0.050522162003022286 -0.05981996424903453 0.023793727649974186 -0.029664727004521295
27.25 0.010456714852367877 0.046157624208681296 -0.08901246778457586 -0.020942007393350295 0.06650247295531234 0.03585979531741481 0.0289940007037398 0.025702826754176913
27.5 -0.030756949826598608 -0.033167610577613006 0.00288435827067042 0.09757631384434078 -0.07642749104220463 -0.016400046763088344 -0.03567698906447412 0.03449390265883811
27.75 0.04521275308024729 -0.029371166399820344 0.09218113090421037 -0.03175377901018803 0.0778745657135754 -0.0007177435045368982 -0.05694340346762081 0.0074275541227526234
28.0 0.08775651894384692 0.02992770160579714 -0.06008569910008141 -0.07521667110293212 -0.07589098221113089 -0.0031229021843169223 -0.018470999483754094 -0.08056613079794384
28.25 0.009908554068521647 0.0870128490695182 -0.05045200771011192 0.07060346623928515 0.07126066945337524 0.00636941755292285 0.05051355356828966 -0.06435353134337396
28.5 -0.06916384215842257 0.04493726211386461 0.06093667639540894 0.054714410516826004 -0.06612732758888613 -0.016772411650926015 0.08159076069324048 -0.009741946876132168
28.75 -0.01134828518863968 -0.014138170162385659 0.05518207704753992 -0.06807143762336441 0.06061779386964131 0.04476031864942875 0.0341096886189858 0.0421521354451595
29.0 0.05158204814356047 0.031105862753954563 -0.0865906854505242 -0.040331632560127645 -0.05098788930513427 -0.06078453209867831 -0.039125406465551245 -0.010762516037936147
29.25 -0.008721101502267792 0.10260139828553182 -0.009418526946323696 0.08970654152484661 0.04529007798212301 0.06110850209678463 -0.030940228656324016 -0.04376814756317384
29.5 -0.07637248205223876 0.08811000069323735 0.07675186857225304 -0.020373159395716822 -0.043153635902012245 -0.049468820045110044 -0.007301638908203751 -0.08678551961800837
29.75 -0.031465147820754574 0.01031163400148509 -0.037096288403139985 -0.07886522721030129 0.04162519794989486 0.05656338551545243 0.000906752353118382 -0.04383804659249975
30.0 -0.01610094578011861 0.015920479542294416 -0.058369270348965434 0.059556000351027705 -0.04432699488153335 -0.053655200850424176 0.039145990962658084 -0.013159168011454014
