# GHz S RI R 50.0 
!freq ReS11 ImS11 ReS21 ImS21 ReS12 ImS12 ReS22 ImS22
1.0 0.13444934196846636 -0.2484040859272344 0.22928497401608586 0.6856955306632644 0.5505507276075342 0.28650807938160006 0.25305367880063345 -0.17084418600282697
1.25 -0.07125291223741106 0.15958227439280298 -0.028932333181188735 -0.7801971391540581 -0.5242642855161693 -0.35149241699630995 0.1423686403523213 0.055302358501021665
1.5 0.11019764567125351 0.0759694708806867 -0.0709450308611957 0.7082796611233658 0.45664113688936203 0.33152509691463694 -0.12118266092366134 -0.14094969325202966
1.75 -0.030228079565753227 0.03050919881704653 0.16349233315015865 -0.5398575571998891 -0.3475017968410808 -0.2765537058922593 -0.041497656798587065 -0.05437924469440232
2.0 0.10114901003662789 -0.0626022005532928 -0.2634136949335174 0.39368040017694117 0.23727555046763715 0.2644816684203089 0.20603524529770073 -0.06794713497386579
2.25 0.05360071226576783 0.10629010831598242 0.315013021809709 -0.30004878423938963 -0.2003395104151704 -0.26977188685611697 0.1460215974219252 0.09043794993882293
2.5 -0.0025350345501849794 0.05389553794262255 -0.26145196985451946 -0.4250134697774411 -0.45786692050094185 -0.2658596534563751 -0.04870414993366501 0.02151454537240989
2.75 -0.055736954888352404 -0.08841473353001553 -0.3356748916026738 0.6035447343223057 0.57996307152914 0.23935693650105627 0.0010271816989477697 0.027327801613229008
3.0 -0.14512166759706835 0.15629804389525276 0.8099997500804181 -0.0015330306274152772 -0.671648332620114 0.08612169248582163 -0.0045746597419094835 -0.15950237220192293
3.25 0.05891517497072571 0.04895331054198762 -0.36290164864945273 -0.7813455854949166 0.672326453671558 -0.18333227790707562 0.07306661149081668 -0.0279455922679146
3.5 0.04366889549786285 -0.002253167967408813 -0.5156828838533258 0.8292641100028146 -0.6780212479404466 0.28515025839943703 0.04945491550949011 0.029090942962379053
3.75 0.10054318140319166 0.03240533746829598 0.8351569988068219 0.2699734791803571 0.6251315510646924 -0.3538811846470292 -0.07657762584269148 0.10005903181909237
4.0 -0.013292855283792523 0.04407781548089961 -0.13880262168336088 -0.8031821210547934 -0.5512549757522275 0.41637473813805026 -0.0660118636182742 -0.04585739947736642
4.25 -0.08127026955809122 -0.0052398929489377855 -0.6931765351425585 0.3011900360784505 0.5642797137848834 -0.4520305797501819 -0.008226941043290893 -0.12342772847067562
4.5 -0.030182575392307023 -0.049745551349861784 0.5197258063215453 0.5534881660045796 -0.4333276687322716 0.6204522501105045 -0.005502058721605982 -0.0557971946231679
4.75 0.16944483399176888 0.022991671305305716 0.4295127993643882 -0.633476778547218 0.595699154154821 -0.4791876970546135 0.06753905271535009 0.09213561352115576
5.0 -0.02880390409417316 0.09400999290272112 -0.7213928658020794 -0.16436278975086427 -0.5254413978995822 0.5775839788409628 0.021323266517482106 0.0294155455713557
5.25 -0.1365802531839376 0.08364200229656342 0.09833497068825148 0.7283238127750891 0.6414157193561837 -0.45995292987595315 -0.031041742689037272 0.1629366411827701
5.5 -0.004550048913543381 -0.017819329574248075 0.6250767714512792 -0.2502704018880971 -0.5835148537295147 0.5172474885273926 -0.007518933823215227 0.1002434183754417
5.75 0.004175728158404484 0.08561998878054525 -0.36089643757053136 -0.4938606273426594 0.5926893326649885 -0.4379886286385358 -0.031809221204432345 -0.016322918659782984
6.0 -0.0007272064726719391 0.13673779451609563 -0.382320895272788 0.4395489278164428 -0.58819459212536 0.31871958097121933 0.17837273580424273 -0.022488764699150586
6.25 -0.010377188754840673 0.08329224536013663 0.5059265682460375 0.3188216640652721 0.6334758960458292 -0.20223470732659182 0.12640611047420514 0.1133612456471417
6.5 -0.20566462418920975 0.12865282264668035 0.11650700013332904 -0.5882975561519863 -0.535838941287608 0.2594065248864522 -0.013116797738778968 0.2675073436550593
6.75 -0.08524117851407251 -0.001401821217560273 -0.5840012777936656 -0.12139687940887833 0.5876003929573976 -0.07463205569427389 -0.067762854819107 0.03193398819248536
7.0 0.019256671013399035 -0.047673708391516904 0.11656303869139295 0.5458650042302926 -0.5061603205412573 0.22003290755938287 -0.015219371211959043 -0.01212081766009624
7.25 -0.0307899639625183 0.22032122954741373 0.4559253310383212 -0.15472029059484138 0.45615715872325957 -0.09795882878464096 0.28261694498717427 0.08751650789243047
7.5 -0.1976066431643908 0.12246255656356844 -0.2297857785311116 -0.43423727150982894 -0.47508658796931946 0.08055744398977924 0.19945432874412244 0.103615951473496
7.75 -0.17046593887766007 -0.1137304913783643 -0.35037783708333253 0.34199316159175003 0.46148351253861725 -0.06514981575517262 0.055775912583367726 0.0875313433439851
8.0 0.051466662015665715 -0.07330693227065574 0.38508453436189455 0.30265773993271916 -0.4607071675866695 -0.02781679218176237 0.013920409282299415 -0.040630546874204115
8.25 0.024111748621572525 0.07349770432453548 0.1528023779432326 -0.42822516876317995 0.418324101355529 0.017854332919831704 0.02619158931529786 -0.04276168876630272
8.5 -0.06888961059983507 0.04456361561633759 -0.4041193005832968 -0.11236531013270618 -0.3948722330354056 -0.07434097143643895 -0.034124520431514455 -0.023854997731470623
8.75 -0.07896872889463707 -0.03814128803176355 0.03437648298647117 0.37513840853555225 0.3739520349824337 0.07681610390215687 0.016603849222176392 -0.05705392139619999
9.0 0.014366356433056796 -0.0036134797292023124 0.3415991158590821 -0.07236783418779197 -0.34096618340759627 -0.10819964774504132 0.08963986572485302 -0.04333260611583935
9.25 0.07282461234917828 0.03948020796371187 -0.15471436113790643 -0.2869667327597579 0.30435851412630816 0.13307203855676497 0.06664092361233859 0.1521842777177277
9.5 -0.0023446229841524863 0.059674742359954666 -0.26131823079318156 0.202854106872925 -0.2844149035406262 -0.14439797619570485 -0.04744424753188038 0.09573033504794579
9.75 0.024789565896935213 0.03950098420847083 0.23919062703457156 0.19416129784222863 0.2606070532375586 0.1605322848617879 -0.11741947265915459 -0.008973529999443439
10.0 0.0682319250030856 -0.027899261982607587 0.11542741489541301 -0.260047429889148 -0.17471138566508343 -0.22266132608861297 0.06363570961912106 -0.04521017843625752
10.25 0.03270462616500484 0.03499418098711954 -0.25912968868946873 -0.10212778195517641 0.23498050629704154 0.138230476979366 0.037431257147665695 -0.02736131516747468
10.5 0.0023989714761707415 0.11512673004436136 -0.032216525524967815 0.24974085208494218 -0.1603732096673121 -0.2112755593707854 0.07126983322366959 0.029536907718664865
10.75 -0.03934555048361698 0.0039084398505317 0.24593970095624285 0.00483192664404164 0.1527557166117335 0.21140233540271308 0.06463937082579783 -0.0330271140332425
11.0 -0.06219864657359857 -0.011890826216330292 -0.015962915326052624 -0.2563046814715408 -0.17501649571945854 -0.19668515938871334 0.022883087955502486 0.08458136653426888
11.25 0.041325806673213325 0.08144364192200713 -0.24464649528207016 0.06001861450996787 0.14203133091588532 0.2149584742677047 -0.030819122366584545 0.07068459575546031
11.5 -0.0041303549786100985 0.09764160373453337 0.12544935449866051 0.21149872677950776 -0.1198380794782567 -0.22970055536942713 -0.049887810371503014 -0.061257305593779746
11.75 -0.08846428594736008 0.0663603413301898 0.1457512966197582 -0.1774115775098079 0.08224000339940206 0.23166078477521124 0.11156156271605387 -0.038729310202438
12.0 -0.027472530824288313 0.009967404624613499 -0.16585245878474295 -0.13612696623759077 -0.02480866309561476 -0.2317437508463159 0.12590303928195362 0.08077030238590487
12.25 -0.023617557696980443 0.007055990744789804 -0.13620962401075928 0.148507705444104 -0.018744376002337623 0.2293808985982095 -0.031185661686806976 0.07337566088236094
12.5 -0.057665679034087515 -0.007349625927187768 0.18809710464427562 0.09335284526183693 0.06650454570747685 -0.22011643210822823 0.017658543331305412 -0.06580653766210356
12.75 -0.027591845454610128 -2.4707948529854168e-05 0.0012112325508292776 -0.19526826775014938 -0.020053795029724444 0.21683228342314498 0.1067657309842194 -0.031212741771294766
13.0 -0.024406052291099583 0.05956597302535183 -0.1893595908067692 0.023568568673973556 0.04462994126204618 -0.20792734329604534 0.058525814017970246 0.05644344915116589
13.25 -0.1384017727059646 0.00584046973568942 -0.011670770379267642 0.1921836467629353 -0.14177627919545382 0.14776669782903537 -0.045641645433622806 0.011142866832417775
13.5 -0.07384040408358186 -0.05889147460308353 0.1850444579054799 0.014317234445379107 0.16412362154377552 -0.11120062576212697 0.06022621921812612 -0.050977130329215144
13.75 0.045068663792077523 -0.015622737894060747 -0.06329396114455274 -0.1747233079033182 -0.1130617750974103 0.16908853445704392 0.0461655269293481 0.012315598792550106
14.0 -0.001966978580763265 0.05744400433299835 -0.14349582102773095 0.10873332602217806 0.09895985041697312 -0.15826293057866958 0.013611811131398262 0.024494779225623146
14.25 -0.07846869434540056 0.09288526334780815 0.10582795642849424 0.14959675841526274 -0.11881731488018712 0.1218862554827343 -0.03457455150210419 -0.09170034861489415
14.5 -0.055615735431532407 -0.027338013782161566 0.12494048809216238 -0.1338180428364991 0.16150140450648232 -0.0824166566178789 0.03139538603590369 -0.011051669925940616
14.75 -0.036894830301694534 -0.06618428908555306 -0.14998002644305689 -0.07984474836019 -0.15485944007819444 0.0694210860280699 0.03832885162510915 0.026826995654764825
15.0 0.04408407866889377 0.05308882853740382 -0.037821304269296405 0.1684395921754186 0.15717729061281516 -0.062401713429238476 -0.09807720376734913 0.03641570177260389
15.25 -0.012858176636204435 0.0763984121618058 0.17105541292107082 0.018669889719817173 -0.16002290710009567 0.03320394556917703 -0.05845197580687434 0.0038708832896339404
15.5 -0.09901918190311237 0.04825197912098757 -0.029168901153384635 -0.1691692980217616 0.16424966470759925 -0.013794657233974293 -0.03157279257202461 -0.012857979036704843
15.75 -0.03455752064564306 -0.01136655819810519 -0.18340558869096438 0.029322022294527905 -0.16387109808241015 0.014803538440346648 -0.027675960472155134 0.03088179241056986
16.0 0.022752260285212704 0.016478605459978368 0.06859539524464744 0.16385402640876348 0.1501287710032037 0.05249744659744491 0.029139182285348966 0.031178745812641538
16.25 -0.011915022022364347 0.04338154046814574 0.13972460434685174 -0.10235479953734947 -0.1400492423283943 -0.0526824929456165 0.04450911087516064 0.09391659944100389
16.5 -0.0162011261597307 0.04951264473549112 -0.1211695965110191 -0.1026982974629143 0.12727251271993192 0.054793296313073586 -0.0010844955040613252 0.13106119532042984
16.75 -0.02668525740360951 0.009108423407079139 -0.12221381687531757 0.10807793444443713 -0.12914745274529751 -0.05913433954893336 -0.05415071573496164 0.01859400131541271
17.0 -0.01559317790231128 -0.011213320150987038 0.12689040320726114 0.09594474014935207 0.11003234652764055 0.07883451207891576 0.02256125555882836 -0.05360230288893713
17.25 -0.023400220807980158 0.0018350270846249715 0.028886988012621656 -0.1550912995955417 -0.09593651913307204 -0.08986923419243088 0.09138677180764661 0.012137707567314367
17.5 -0.011594448288369221 0.009007904956980709 -0.15336466180177166 0.021047286265216653 0.09741385824212086 0.08022912708203009 0.044312736251148406 0.04676234786156379
17.75 -0.02158007023075167 -0.009239410707438656 0.02627161624384683 0.13405216596056874 -0.09030969691582932 -0.075847558793211 -0.036037401223626135 0.01524311459824352
18.0 -0.07313454498912245 -0.007995330110316574 0.13260002334837984 -0.04394041624801784 0.075021246121501 0.09410780364696705 0.054739559275394166 -0.004827203658132341
18.25 -0.04061045303440332 -0.057519179740171136 -0.06493980260919466 -0.1250213818714628 -0.06733743744706557 -0.10368181308620547 0.07694056595346768 0.06039617656845776
18.5 -0.0037778383520545994 -0.10809915853800821 -0.09600892298842627 0.08246038707461092 0.036066377199212865 0.10270438134356247 -0.014216875897366157 0.14016037209792664
18.75 0.005483301598266941 0.005339222959134124 0.11432890062962446 0.06177897460501659 -0.04441236310379437 -0.11185560039010463 -0.0004943553042806772 0.03465463815742008
19.0 -0.030713888454437326 -0.02067023593101392 0.04083249781154617 -0.12686728349269621 0.03841987982040081 0.1063881362188893 -0.0021435930043219222 -0.04644257777899542
19.25 -0.0828525883333763 -0.12225334642277831 -0.12052663589440685 -0.04563211529670022 0.006228897803187812 -0.11240929721627198 0.12053782084222893 -0.005845495523085047
19.5 0.019402840424261214 -0.09726204602525017 -0.0057536766613470736 0.13005582250478934 -0.0032970133431994165 0.11414302759434396 0.11381944559456288 -0.006194951871253584
19.75 0.08718852081568941 0.011943710642507654 0.12487949627096363 -0.02147191687723682 0.01832863199621311 -0.10899104898367666 0.0963855273502092 0.013827590114880436
20.0 -0.04623892411688546 -0.011001329193946523 -0.051739957625255836 -0.12388067836184066 -0.07464697312782226 0.0904374477123295 0.02499777724088284 0.04731311575049549
20.25 -0.025289872610479016 -0.06618507273198962 -0.11779217258467321 0.05041643753790766 -0.013349398479717181 -0.11447054864353733 -0.06830951077589612 0.072836143692638
20.5 0.09777798227574919 -0.0548512454071785 0.05707146256870303 0.11685405752886066 -0.006557957802585397 0.10643817194199101 -0.05503999787536135 -0.03879668230790061
20.75 0.03809640262603633 0.06448372343583217 0.09983703257792682 -0.07127642592813643 0.040437340081449995 -0.1005799348542471 0.022709584635584083 -0.07542719286588206
21.0 -0.04500565702081838 0.04275547246414098 -0.09272471418414673 -0.047511817169942926 -0.069983745599363 0.06588211582999295 0.09354601615265393 0.022834392418561347
21.25 -0.020204584272056354 0.0029839026879662778 -0.03053462520502727 0.10950318265657652 0.07415448512923985 -0.062327504901403 0.034637588761217586 0.06358932039680594
21.5 0.012142140046608317 0.04127599306412872 0.11141146551956153 0.032499209525008455 -0.07460803999527749 0.06945084904484367 -0.005569202968782806 -0.03263249874897682
21.75 -0.0407560533446131 0.030335387349935905 0.025786121502472045 -0.10178926296644746 0.05793021262997422 -0.07570336266505072 0.06965539298085398 -0.0507389887554936
22.0 -0.018796238896718092 0.025545141733502273 -0.0991737024870926 -0.007398261993586938 -0.05636160572231367 0.061710246535672544 0.1085839736671084 0.04514706642574619
22.25 0.013938149785134791 0.053929503320260946 0.017636571963990502 0.10885804342625705 0.0714623848589093 -0.06018167547310808 -0.015928374135074405 0.06257560858589438
22.5 -0.05177184488960427 0.055507442351972774 0.10364930140297472 -0.029094923849318152 -0.07361222349055607 0.056435391562287905 -0.0448414772518345 -0.018148932946859833
22.75 -0.040128987351172735 0.03636616306680431 -0.030487930028599466 -0.09075304377390392 0.0774576478281435 -0.03823941532377754 0.05271375746951165 -0.06618753175065406
23.0 -0.0064433946255609414 0.010937823304388028 -0.07371089927970528 0.06578245863428618 -0.08376035600274331 0.0317809826642858 0.025448353850159075 -0.023411655949091587
23.25 -0.027154892015066448 0.04033524403545608 0.08561554054361326 0.037413320974553174 0.0746046473553118 -0.020744304861832583 0.031046614017091044 -0.0421768624939601
23.5 0.0022899083317727796 0.04055752174096107 0.02280863019255938 -0.098052148899424 -0.08494856899846659 0.004051583198853667 0.0414161164461756 -0.07951148367246981
23.75 -0.009287162167942072 0.014879827844779411 -0.10529353603954761 -0.007134939773944346 0.0906805288224274 -0.0020018476263870995 0.06443496692451928 0.028174077196873176
24.0 -0.05482884885266737 0.015888171517577293 -0.01204300957224505 0.09532525034514346 -0.07816566630980244 -0.019501256299497356 -0.029997916146524015 0.018826530185592334
24.25 -0.0022691497482439232 -0.006661261159425558 0.10292026380440966 0.015018871732418226 0.07987863126174592 0.03866830461453778 -0.10402712532652443 -0.06675439497978697
24.5 -0.0002590999727291039 -0.025084418962291983 0.013116995664706393 -0.10643396660751059 -0.08146618490071555 -0.0337700925052675 0.011051178886837362 -0.07530196686540501
24.75 -0.02411856342129172 0.00429355110910342 -0.10717126921160713 0.0023973602155802354 0.0721080534968599 0.051867444521800136 0.042062363410946206 -0.0573593838358261
25.0 0.005278408154168402 -0.028209595704115926 0.05439881100046108 0.09477679105578812 -0.06775271925158126 -0.06198272042468679 0.03429214262871992 0.009557549224344458
25.25 -0.007199454235061593 -0.029682492094958986 0.05769826969879805 -0.09167785641385558 0.07442984863866893 0.049239555618200245 0.06811010819251745 0.02477000120692286
25.5 -0.009124595139761589 -0.014928853032291035 -0.10250307836836306 -0.013734270213004815 -0.08408880244505523 -0.02466915274913556 0.03491463626554323 0.03868314340209312
25.75 -0.014553136269834708 -0.005090155738917095 0.017613493839136518 0.10230789085521018 0.08242591712461321 0.017814902833368455 -0.021686563648097804 0.02738805815468706
26.0 0.010868418997563991 -0.03588187510556144 0.0934866806186864 -0.020658094783063255 -0.07616264821275663 -0.028322603467629444 -0.04253478892974359 -0.04277502313586891
26.25 0.005877742301310757 -0.034955796536075945 0.0009861588218984252 -0.10127046799160923 0.04667394771257527 0.06720261974631098 0.03473171964386831 -0.11819155599654688
26.5 0.0300990629381822 -0.005447914596493422 -0.1038356389355476 -0.015175066862083905 -0.01925362200360927 -0.08394289478785662 0.0616889477794094 -0.02253712861500544
26.75 0.064100071167944 -0.00777645993277247 -0.020164028867614148 0.08910075441269591 -0.0001416308804334382 0.07630263893704407 0.04480810514295095 0.009645900791037276
27.0 0.019406758634209174 0.034851267735367744 0.09223387790544701 0.0021890149778041185 0.011039649465442981 -0.0785921426196795 0.025592455902431192 -0.021673148193918284
27.25 0.012470382826999978 0.046721899014787203 -0.04245678138436844 -0.08061096318519122 0.01652144599850987 0.07347059533651405 0.004892081388813634 0.034781701411033546
27.5 -0.018150254124503443 -0.04267550340658668 -0.070858345568915 0.06448626573281377 -0.03667724912262871 -0.0674130828696058 -0.03302144183613037 0.020361689590599974
27.75 0.04055354151775418 -0.03210318834464543 0.08435165757917328 0.049572153857136175 0.05133512845610352 0.058925127455240825 -0.07324504819396668 0.004327477971585041
28.0 0.09736277053036951 0.04001162010621945 0.01765515635891314 -0.09255329781748198 -0.045954385858549114 -0.058409423144156446 0.004164295407526761 -0.07965820210676765
28.25 -0.008640664849566299 0.08201402533517697 -0.08735234435238604 0.005070941632338746 0.040117456131125 0.05994675904278414 0.048942234135403884 -0.06050230472280263
28.5 -0.08659864980757491 0.036570780871718604 0.00030441246556442425 0.08183077277839798 -0.031897942813406854 -0.06020371977137751 0.08828023733315049 0.015685500080267006
28.75 0.016382324733391254 -0.019662226583878055 0.08741571399939159 0.006271183127673552 -0.002107796478032529 0.07531730946349452 0.020905301753601765 0.024527411021695967
29.0 0.034620219386278586 0.035413020058738975 -0.020955722956396444 -0.09214604300430677 0.016551736341501467 -0.07672696582529329 -0.04434675865993666 -0.017738187377952904
29.25 -0.017190424816804113 0.10772257348713432 -0.07428689491719719 0.04690072409692882 -0.019404945926993537 0.07145973658936122 0.0032449616645760446 -0.04902744487177714
29.5 -0.0610208694015052 0.059402110552369915 0.06634948269560796 0.057234577354829015 0.018182050024857004 -0.07009371114463821 -0.004544345439574252 -0.05595806718638308
29.75 -0.03161497059124789 0.026175506251236068 0.04239033162615629 -0.07539064291331204 -0.021746082955964863 0.06621841800943869 -0.0036248961170663526 -0.03243228427425217
30.0 -0.005447665284657479 0.025726669719551825 -0.08196625068095023 -0.016765524734420258 0.021043815514510865 -0.06661423444195773 0.004247197609035559 -0.02437574155904214
