# GHz S RI R 50.0 
!freq ReS11 ImS11 ReS21 ImS21 ReS12 ImS12 ReS22 ImS22
1.0 0.1305630813081459 -0.23893530402071747 0.19347934138207928 0.6988025342827395 0.536359016260445 0.3158768025038763 0.2475466337209791 -0.1589862759581701
1.25 -0.06450189582348073 0.15553130818964586 0.021115042848591364 -0.7812349313077451 -0.5013051797953763 -0.38466332393358427 0.14540050741492636 0.05018009886111724
1.5 0.10105967309178325 0.07410248071183535 -0.12444424571669521 0.7027827116241459 0.4314830078261196 0.3659999075221767 -0.10786252228793522 -0.13483135992610248
1.75 -0.041115164101958604 0.038592115955614036 0.2126919366047882 -0.5221271115994094 -0.3202131737632112 -0.30735960531955475 -0.05493296568649648 -0.05969422741317211
2.0 0.10659495705855235 -0.055271346599370864 -0.30157150040290737 0.36496467747708494 0.2092963549182303 0.2869138847230779 0.20886606238769306 -0.0635803461117057
2.25 0.04870798088057871 0.10205749837897943 0.34835403870656045 -0.2626696485796345 -0.16841016142355988 -0.29188489339720125 0.14543990808104285 0.10285637167604646
2.5 -0.0004774131203935453 0.05586655616603778 -0.20567806198452276 -0.45492422574495756 -0.4208211184697425 -0.3218629882978744 -0.05278175246256053 0.007790486489653775
2.75 -0.03863304819206378 -0.0795410005174377 -0.41807686457173915 0.5539142189564308 0.5438306382931203 0.3186428338721813 -0.018508951158763907 0.015311321059253992
3.0 -0.15337672090084561 0.11377680670792789 0.8070611063822968 0.12326551076629044 -0.6821120647256722 -0.017551123635152766 0.019431291653849495 -0.14813555792111924
3.25 0.05633636211475895 0.036271080493882016 -0.23090932163001276 -0.8322675458985663 0.6950844253746886 -0.07120894560212582 0.0817513544060734 -0.007732576769647753
3.5 0.05210022968608865 0.020827722896464416 -0.6546390205538015 0.7253913635378343 -0.7183284664753078 0.16076905963551058 0.05177606256129973 0.0369206696174367
3.75 0.13751059631057397 0.0576818147904875 0.7653215472628518 0.4273382403871794 0.6814268349397679 -0.22451952759618463 -0.11548824115048185 0.11089435093707783
4.0 -0.009148731965906404 0.03853542475773156 0.02544877663959133 -0.8153180207714695 -0.6241186879409207 0.2974379002566354 -0.05578032835976392 -0.031224440981008225
4.25 -0.09204535188954377 0.01579644859240579 -0.7426574051822902 0.14538795325798082 0.6488732559792479 -0.3207144479842311 -0.020180294949103415 -0.12693169811244068
4.5 -0.007066467155521894 -0.07019121295620998 0.37997125325401926 0.6590406625776146 -0.5646715066670417 0.5060329184619567 0.016721296641210068 -0.03786382730634466
4.75 0.17699383821543127 0.07152932893942263 0.5673586642096637 -0.5099562789891608 0.6911188659060916 -0.32098120733059954 0.07475684819093945 0.12059507150902071
5.0 -0.027140531190782136 0.13195332160928114 -0.6547893913468201 -0.3450978056407872 -0.6569764415588599 0.42264911187012316 0.03348544223166094 0.09019525879864516
5.25 -0.164895235481228 0.06886262140118166 -0.09445226578120758 0.7281902499313087 0.7384497830429206 -0.27685757796173777 -0.06261933706622048 0.1666395509787007
5.5 -0.02103446738955736 -0.0073933166766802505 0.6706176929963308 -0.06750463730943246 -0.7046715452744302 0.33561888662534606 -0.04365513769909736 0.10484516537015326
5.75 -0.014122044999781088 0.10079313790058375 -0.20538737721027545 -0.5765103877126011 0.6930993871016163 -0.2512867680335408 -0.01552269094052525 -0.002368256588357029
6.0 -0.039860128506282864 0.13990264892405388 -0.49312651635693994 0.3095261146100987 -0.6550290348441148 0.13398272255065424 0.15894306182330264 0.029213785075032313
6.25 -0.05696546071460707 0.0972526013630452 0.3755962881956019 0.4591599305494122 0.6595000340000597 0.009525601001442285 0.11032589213706695 0.16951127799543866
6.5 -0.21162545830553023 0.07232429913581871 0.29782519277040154 -0.5231549467586927 -0.5925190240077535 0.07693249971761322 -0.037572221000173434 0.2551311280076932
6.75 -0.08168365011780135 -0.025594447159288408 -0.5094465413449476 -0.31084835956242396 0.5789924306651235 0.12725566949342942 -0.08110734751340094 0.04077378896448933
7.0 0.013303828873599335 -0.06151919717571863 -0.08070736041150278 0.5522636473138314 -0.5512153145082459 0.030084965476021797 -0.035064035283219955 -0.039294596226423346
7.25 -0.0739362221468082 0.17759380671231825 0.48343849553689955 0.009183856612917984 0.46421162170660324 0.0630786063301865 0.2471842985600363 0.12788300620559356
7.5 -0.15204798288790536 0.08688904905904059 -0.05521015787471184 -0.4923293034322326 -0.4756401353980364 -0.10029180801872642 0.1750598572627743 0.10814078276866705
7.75 -0.14476112085155 -0.11368943570164668 -0.454328367631279 0.18585169091214654 0.4533690442967283 0.11324764893465873 0.011720584307791243 0.10717713390847255
8.0 0.05523072454061553 -0.04068344007069688 0.23378549705008728 0.43202198814331433 -0.41283837585737887 -0.20937818472799713 0.03406801108781359 -0.05358705670627928
8.25 0.08365446888148267 0.057849715871507744 0.3155413635717783 -0.32358706467129056 0.37059481608498124 0.18933979256140399 -0.011595080321752577 -0.04496934003787079
8.5 -0.05603069388928969 0.06135949513633868 -0.3202310837570719 -0.2716846905434933 -0.3278351849912089 -0.23322118084951018 -0.05076262659066898 -0.02692459567290369
8.75 -0.05860084103948299 -0.022133384844783353 -0.1326872397137211 0.357056342171979 0.3076614700602094 0.23347618150936872 -0.03020897183642777 -0.0715676895634375
9.0 0.0320734238647854 -0.016412730659177942 0.33740300970429205 0.08601693880693168 -0.2571196636483485 -0.24720212393613825 0.07260015166402886 -0.020384322197358272
9.25 0.037679309148854055 0.0896526812756113 -0.012886309588685696 -0.32877994998503896 0.2168310912229855 0.2558931525159175 0.04483451649263513 0.1456800138821124
9.5 -0.023512941327463517 0.058191881439110804 -0.3262296234878101 0.060420666515429655 -0.18681242812555043 -0.2597104512139486 -0.05987189489455429 0.08768984806493015
9.75 0.01001055400011984 0.03399619126955707 0.12057017627922312 0.2855842014188789 0.1556450405031459 0.2658638343034305 -0.09864721577778371 -0.03393024473335045
10.0 0.05037340561525144 0.021062902445754664 0.22994231424394565 -0.1747611360884262 -0.04634159042390748 -0.28357022256507736 0.04498400307984951 -0.03900573159451755
10.25 0.01847712683154805 0.008881345443646885 -0.1747069869559352 -0.22059391660005562 0.13513461508485214 0.239841473703177 0.01319273056261034 -0.014460603302358814
10.5 0.008969764620848163 0.08945694838025484 -0.1583573590713396 0.20134106590850542 -0.029699936750696904 -0.2680562702788042 0.029871738558380066 0.01967923307444598
10.75 -0.012764942259022062 0.010625170470247844 0.20792500300154346 0.13080403704387758 0.02179339954304099 0.2594148782272854 0.07405007209752873 -0.032162991936880346
11.0 -0.053488281834344745 -0.04840334900578164 0.12138010234704846 -0.228429517927118 -0.04657719163718575 -0.26103496941397863 0.026177735372530694 0.07079406667467619
11.25 0.041843935105257614 0.0641881293376019 -0.23907551772629956 -0.08196423403864286 0.0032440868319908306 0.2584254809212441 -0.038288684771016185 0.076206635355466
11.5 0.0023735595432133327 0.08597124684991714 -0.012464141146298457 0.24527453072550504 0.027207139207074457 -0.2573992045824327 -0.0586954500794913 -0.09053276304973464
11.75 -0.09726380169837259 0.051986945910592317 0.22002111626753046 -0.06816242583459631 -0.05902481477219368 0.23942061680166093 0.06866388974323595 -0.03641699084492279
12.0 -0.011463087076546002 0.043688125672204856 -0.055993429440604786 -0.20851112555965262 0.11538502767075615 -0.2041962765143903 0.12168870025834114 0.058665198486165096
12.25 -0.02449485264708491 0.03355899763656286 -0.19938064268431863 0.041711320069856894 -0.15054219920086442 0.1772661780020056 -0.028009096992647628 0.05587168380290181
12.5 -0.06878495717096142 0.0027490896094283235 0.09404179605746141 0.18691107602254503 0.18465589816709158 -0.13569271661539298 0.04204157320594666 -0.023951427374273394
12.75 0.01739088845355806 -0.006678282176044786 0.12222539700973442 -0.15450851088017756 -0.15047414883583532 0.16003566175122294 0.08879562488032647 -0.04282846405950483
13.0 -0.011238970445327658 0.06915763992302597 -0.16487583746587595 -0.099211694012581 0.16482184120755944 -0.13714541583298356 0.04314848805045481 0.030770615618042153
13.25 -0.17061423465922607 0.020376409258019555 -0.13120051142549272 0.13489275808388973 -0.19906387451131452 0.01886857596183522 0.01061110579082896 -0.027405573632388817
13.5 -0.07169620199384905 -0.09080615300311756 0.13659164219692127 0.12587216521909625 0.1978716399112013 0.014307563676687889 0.061066593235683066 -0.02889915979199091
13.75 0.025320169245631435 -0.028509804689794402 0.06345630106423757 -0.17337378721792965 -0.19394941176772534 0.05633293490493251 0.04484871329050996 0.03271690873350488
14.0 0.0036570485459546803 0.09090019033876534 -0.18068763381310776 -0.01568819907837496 0.1807866310902435 -0.05133672157206123 -0.014836043508267428 0.0021230525302740368
14.25 -0.11327676518637388 0.07586062380313818 -0.013062844363937842 0.17919852048840007 -0.1657708945258524 0.018378055007752046 0.004972479237790643 -0.10050631556723756
14.5 -0.06554949930065963 -0.03749166393682615 0.18053124700591427 -0.015246617724448408 0.17316486342220228 0.04673826198949016 0.07276058473974363 -0.007278528018332522
14.75 0.0069348523253540545 -0.07056546953871706 -0.06257812865473025 -0.1620423732279432 -0.16617847841239114 -0.04986731925954639 0.04418084404603708 0.060044959720253935
15.0 0.02350972976432807 0.055606378230776354 -0.14261335482343218 0.09629021388601255 0.15668511012731226 0.06207006797963388 -0.10348975990537684 0.02436250198204347
15.25 0.001503518675515264 0.06156268636526103 0.11062288000648546 0.13173707296110426 -0.1385343695101152 -0.08675084944988815 -0.06540385814384914 -0.009142082113567762
15.5 -0.07121986442880493 0.018944636010518795 0.09463882429638426 -0.14534928711605222 0.1312122698118554 0.10264748341518094 0.004724950064916966 -0.01523079062382794
15.75 -0.036854904796818584 0.009506614240706562 -0.15019571508028726 -0.11268393213899684 -0.1258723636673056 -0.10872787412404343 -0.01828537640849343 0.04865869139953197
16.0 0.030500630672153445 0.01705036490345488 -0.07044611816066242 0.16273844574878715 0.06605705501719805 0.1443704631059899 0.03546766620311461 0.062466887229964525
16.25 -0.023553539405081852 0.04587243403363548 0.17037988862518594 0.03363467989627694 -0.056160051813116785 -0.13913584930628325 0.03384430591640114 0.08048798756913268
16.5 -0.027019396933996017 0.06624773546832634 -0.004538703787341003 -0.1595364338420313 0.04445030456087508 0.13189862997069118 0.006263147561485129 0.12788056952684493
16.75 -0.008695294681725415 0.014618408000094035 -0.16146045110763318 -0.017025409985830076 -0.04340607709159409 -0.13454317278712405 -0.01997988158201043 0.012832982857118841
17.0 -0.04931335720826742 0.016044841866746526 0.006880856219291326 0.16588217387728066 0.0094832876949323 0.14103425015589657 0.016144014661856707 -0.018649628785318416
17.25 -0.046015689753024724 0.0009249750388688766 0.13979252878122525 -0.07808551952298637 0.007942210048364224 -0.1332020374844315 0.08103722358494439 0.027170211825342412
17.5 0.009238951290179466 -0.035172971797368446 -0.10426553793134913 -0.10315505896926266 -0.004207885306837722 0.11936422357041537 0.011676216366199546 0.027048777071934996
17.75 -0.016815900065707597 0.03649207364881901 -0.09214279997172908 0.11262209340936963 0.0009532016348194044 -0.12571007182912047 -0.0025850930066204057 0.001065631166923247
18.0 -0.09367297932810065 -0.018474884534084517 0.1153818702999305 0.08131953112169069 -0.031395785999945386 0.11751739906973377 0.07626822384697386 0.014601054723841359
18.25 -0.03930678385579188 -0.11465689386075997 0.06909119357102564 -0.1107560501460111 0.0508996614334524 -0.1024731938790844 0.04036973733062498 0.11513844076737968
18.5 0.04382655636073835 -0.07291437017753886 -0.12791207699995258 -0.01583798228496963 -0.05262815684042688 0.09753091346780188 -0.03940928496699643 0.11141143768904335
18.75 -0.017964705268639296 0.015919719971854013 0.017464803608978702 0.13288846936077056 0.06674414935578568 -0.10472247626586413 -0.0059890221999573945 0.0074359619718408765
19.0 -0.05505111928176652 -0.04958887358006811 0.13331700546851133 -0.02795398643361735 -0.0750949086219089 0.0879526139051326 0.06178069494392301 -0.049949886861333385
19.25 -0.03984098362846391 -0.12302662867957531 -0.03875411862536152 -0.11792820893761795 0.0879808421896055 -0.06338631877906428 0.08308505562397939 0.024902436453557997
19.5 0.020918229804585756 -0.07838520696402299 -0.11058132184039123 0.07071079413627841 -0.09607154138429506 0.06343388933633373 0.07797807925035971 0.0051224830483822745
19.75 0.05732982606034005 0.026060189691949037 0.09623556859035702 0.09526989688736262 0.10629608559405442 -0.05178284194982301 0.05173153821324815 -0.02528286516189631
20.0 -0.04325278412980579 -0.032465930465644735 0.07855834797831528 -0.10744006108621199 -0.11498747464312513 -0.01704524598309777 0.04864769156202668 0.053489844356591404
20.25 -0.01517977804832069 -0.09003553538915082 -0.10499024429853833 -0.07798892687774077 0.09411036629133619 -0.07063906576681941 -0.0469174809499818 0.05818248662661923
20.5 0.11402711661008219 -0.013608573224444045 -0.060753803434439056 0.10241194530393934 -0.08460834443585499 0.04841929581373415 -0.049916308816184946 0.011066437709371761
20.75 0.0082453822816302 0.04934007585535832 0.11583890428365232 0.048560124878192806 0.10938300033767805 -0.018911693154347764 0.003127020158062148 -0.058326114318332956
21.0 -0.05123813874107166 0.006833814481981802 -0.012710965515800227 -0.10907730115951075 -0.0987430916263027 -0.022818320541182772 0.04813671806925149 0.030640584639761007
21.25 0.03277427944604193 0.026353888183526852 -0.1125224590019247 0.011221107602328959 0.08455345211392236 0.04626834693823942 0.052246184708047254 0.02487285248672576
21.5 -0.02235455396944539 0.05919509838362659 0.02479466240343127 0.10783786055850571 -0.09242431134438156 -0.029792621497329558 0.023704211083631823 -0.032833507092189726
21.75 -0.06771661648557831 0.01975030384756373 0.0965311227213881 -0.030012276496928073 0.09125326955432524 0.009539677607008488 0.0946413160211419 -0.005403425118787702
22.0 0.006217973602917995 -0.009977218500833794 -0.0403042116312277 -0.10458441944377792 -0.0899774925470347 -0.027633092468499654 0.06415595150882206 0.050874149526153996
22.25 0.019307188361791565 0.0745322849564771 -0.0920503301478755 0.05861450477540946 0.082551588774174 0.041454368673178296 -0.03774854467635114 0.03373231967339464
22.5 -0.06053824293527946 0.07891469936886952 0.06215390627892094 0.07991240366870894 -0.07531767150765553 -0.04408142084015919 -0.002833136398403796 -0.05308980638864245
22.75 -0.057314851214203225 0.013917715735192876 0.06907741047588088 -0.07153190869202089 0.07228005144068404 0.053155216724584974 0.05664608453189161 -0.029476773881943984
23.0 0.00471465741715095 6.671469893922838e-05 -0.09241488423785622 -0.04219307135746087 -0.06450499936618025 -0.0657827421743227 0.012076452734825605 -0.0016348344124408262
23.25 0.01394118422178535 0.05771310257591534 -0.013834167462525263 0.09998385724858985 0.04335189110129882 0.07158536447227898 -0.009625984405739165 -0.0637780006662448
23.5 -0.026280126445961054 0.06448681450090327 0.0956600708055402 -0.017640234252877474 -0.03636008885258472 -0.07365384993432106 0.059259696374675805 -0.08821529462349975
23.75 -0.025487923827164333 0.011927929627523315 -0.02984693741565031 -0.09969217801802446 0.033279665053647316 0.08304098203680794 0.07648813019072605 0.008763361028142513
24.0 -0.019095422524834878 -0.00038025161209282593 -0.10099449979053889 0.028655482186850476 -0.013894188089442816 -0.08697495365906167 -0.024982451459374583 0.05628784036782086
24.25 -0.024069585526697274 0.022794840528679236 0.021653243776796727 0.10057068943998163 -0.008294732683559316 0.0873483232010313 -0.10141217401773497 -0.0759848230967343
24.5 -0.008542086790376173 -0.0195480537456625 0.10678332876566426 -0.020764396190817644 0.007032522635971523 -0.08916428271444812 -0.021925917831405448 -0.08384722967977452
24.75 -0.04245023408864798 -0.03314935879862392 -0.03601299320742482 -0.09289885033227316 -0.022618423006750158 0.07950607466853335 0.07108033506286285 -0.07296392514795133
25.0 0.006569088360996976 -0.020706230903834368 -0.07384552451061137 0.0813141594788762 0.0383720985276398 -0.08393593603864666 0.03573472699164881 -0.006346588062345893
25.25 -0.0020967162441562744 -0.0597342286444125 0.1004235251724797 0.02473344801946086 -0.022219988989105974 0.08227725395656887 0.08120904138505972 0.055067578295044724
25.5 -0.00661571045242355 0.011319485649770832 -0.01149990268435934 -0.10387811707518294 0.0037254031879332752 -0.08844315519424112 0.010272772816451989 0.035535444545405206
25.75 -0.016705215222782475 -0.006581489757835729 -0.09455876610014957 0.0439497188303926 0.004348540100474245 0.08461628780389008 -0.038341563360264064 0.04151750446321063
26.0 -0.016740939036617844 -0.07315397843048423 0.033584838527680794 0.08239898133116597 0.013955157228852141 -0.07421027176539186 -0.05015558137362492 -0.07706888670799061
26.25 0.0491128400766956 -0.01795936487899906 0.0977505772008353 -0.02360932781223811 -0.05341729367723752 0.06120028228101845 0.03743067264293736 -0.1213497012014055
26.5 0.03017745786442988 -0.0015889218355703179 -0.00948231287631357 -0.10487449167402779 0.07734743943145378 -0.03840407664818305 0.07755195065270257 -0.0014936765561956028
26.75 0.034636631176861776 -0.02603959429097834 -0.09633298844400454 -0.006932213000159532 -0.07976686097723891 0.01201932231774809 0.013796532824065219 -0.004607695020902363
27.0 0.04233722367795309 0.02962357566212631 0.014522552486273516 0.09097519304720186 0.07914374391787637 -0.003318429222160045 0.01313348931696189 -0.02833926171859779
27.25 0.009218073875422908 0.04610071876442644 0.07197505282587185 -0.057765934292170015 -0.06982474920431098 0.030597436482707747 0.016860064587676214 0.005008572769517841
27.5 -0.019359810464631824 -0.019975079735207277 -0.0787984119120005 -0.05804880169523174 0.06018444296817685 -0.05023673324070699 -0.021316498284524768 0.03184784350775578
27.75 0.048924197182048317 -0.03532303265306332 -0.03628310192675728 0.09218125031189903 -0.05085443053093742 0.0605559506200421 -0.056672858236667206 -0.007047367363716965
28.0 0.0777477355519975 0.0408757151845296 0.09822214045639494 0.0026253588159320246 0.05239981308787592 -0.05712173564435867 -0.014252025367855505 -0.058597021831838764
28.25 0.01280103241486659 0.06937168681592379 -0.016836269115008712 -0.08528932650787854 -0.05357684656438734 0.04762555451845444 0.0458405107445737 -0.0656272709374116
28.5 -0.06231572846680493 0.026735147612866016 -0.08714848146021076 0.007257117346635811 0.06147381565649709 -0.03908829974701113 0.05673611088021718 -0.0003608841213909031
28.75 -0.002468246675060834 0.008959304653986599 0.008153152383448423 0.0831060000256961 -0.07101598859134342 0.010125779176445637 0.04837883475505157 0.028699517125591052
29.0 0.04556806316153626 0.015061357816713838 0.09048276963537388 -0.03191645128970286 0.07930305378774924 0.007749686057551268 -0.03395011706813843 -0.01781262531052619
29.25 -0.014815620467444252 0.09698523889179264 -0.05634728557081761 -0.07215173993329238 -0.07614042179246548 -0.012712063355707084 -0.024259724900270327 -0.011962027172246972
29.5 -0.05312414720256656 0.09808562673706298 -0.0478511369148227 0.0609219887152259 0.06259072890305727 0.01319145550096534 -0.027845386356570915 -0.0856315966044243
29.75 -0.04609786865702561 0.009116953203367417 0.07856682025946293 0.03518236758582108 -0.06763789277403745 -0.015556160770998174 -0.011127052088367655 -0.046134120151690945
30.0 -0.0224659544265437 0.027273174518271055 0.008195883173966717 -0.07947859927138362 0.06525974847026386 0.01379368704411558 0.04799083508733736 -0.03887640396322031
