# GHz S RI R 50.0 
!freq ReS11 ImS11 ReS21 ImS21 ReS12 ImS12 ReS22 ImS22
1.0 0.1147419016512041 -0.2041762640974236 0.013116825691589253 0.732062776175499 0.4452754896427128 0.44363354602003424 0.22012533555593294 -0.12411142479836673
1.25 -0.03969328140228334 0.1325806508661849 0.2600982942117038 -0.7397113437789937 -0.3612542978183104 -0.5208505319061174 0.1600613773507353 0.054286215947208755
1.5 0.05750570554697617 0.06651513434093635 -0.3732747829778254 0.617015836718031 0.2742157084705979 0.501557476433379 -0.07146027851259368 -0.10505375083181215
1.75 -0.08412980233499517 0.043502121435894076 0.41275354223364136 -0.38076429366034115 -0.15955946052611392 -0.4123521998507733 -0.07961710085291658 -0.10250646607950865
2.0 0.1021931229554658 -0.027142137392229315 -0.4402046006615888 0.1818868497304631 0.05105500318039799 0.3535739534255344 0.19030406230225888 -0.038287463070617936
2.25 0.03332249553353786 0.08478079368386422 0.43883281817494685 -0.0384954758017885 0.011349463172987968 -0.3401087709533175 0.12102918278678983 0.1339138726959233
2.5 -0.013244041466033807 0.08732149292647483 0.09521283239418527 -0.48827357824142437 -0.155832083043206 -0.5043691237953993 -0.03696175803768374 -0.06794128721192275
2.75 0.015624365747816647 0.0037505030092059577 -0.6859988814555482 0.1677946657734654 0.2241891264390901 0.6009820439909368 -0.028609254731562304 -0.06501345404550818
3.0 -0.05447051616427959 -0.054310562927286456 0.5100049653532372 0.6563255678121858 -0.4919148952716067 -0.4908298770260622 0.03329105711871726 -0.05434022168916077
3.25 0.0980252917243494 0.03195323007066904 0.44191161303486887 -0.7488216238942712 0.5369625290478328 0.45415602166773994 0.03523057164772762 0.10111707368641717
3.5 0.007694492059669905 0.07143922456634928 -0.9823747518018424 -0.021509156707562704 -0.5945090362483441 -0.44086199532386416 0.028317909766147904 0.03542845599818065
3.75 0.07529173310574439 0.24389455944328103 0.1180253616782253 0.846527568878132 0.5752543928725818 0.39792993483090977 -0.23546933986227675 0.006877563336442929
4.0 0.03713201559401861 0.0691915780706431 0.696730538529629 -0.4370766243048251 -0.6000827062108146 -0.3548059747048729 -0.08066319738452027 0.013938591275073766
4.25 -0.17704203400340765 -0.02538715464091082 -0.5004708152375447 -0.5709929423059422 0.6052327197828393 0.4011849407087803 -0.04020057071121781 -0.1664161217986077
4.5 0.06776924852389726 0.007605641778138838 -0.4189235742184816 0.6329000213057688 -0.7032711859685713 -0.2782782644056555 -0.010833695751900012 0.05513152864249657
4.75 0.010963422038722657 0.15120756318125467 0.6917979232689915 0.30572615795950026 0.5708290195431939 0.4947135602488571 -0.04959143970783406 0.16627138787240725
5.0 -0.1591510518741745 0.12968588943107787 0.09966948773760331 -0.7201995244486457 -0.6095693626539949 -0.4655026773624101 -0.16552274307973358 0.16002335712107876
5.25 -0.13376511734588964 -0.0375680616356682 -0.7355341684168353 0.12319778632874778 0.48658310356959833 0.636296764911005 -0.09816487546188196 0.03558215435228891
5.5 -0.04450718213260084 -0.05441263924929733 0.21511832830481192 0.6409507429146899 -0.4847705112729632 -0.614731954741505 -0.04454327798655198 -0.0051697828462178436
5.75 -0.051139513039421866 0.01591866050074453 0.5440493071367972 -0.2998196590648575 0.3642265556957067 0.6536512550420531 -0.06898478518196831 0.026937127698250796
6.0 -0.0389374204688702 0.004391438092975621 -0.37571732841270555 -0.47584845657334296 -0.21160889040153097 -0.663415548940442 -0.013349167394870971 -0.056182741605416864
6.25 -0.05831923121183968 -0.04646944987931509 -0.43233305471293565 0.4078980406478402 0.03717044866312991 0.6596912371165828 -0.03479343522163996 0.06952615410980409
6.5 -0.02923450342971461 0.10504093083034932 0.5272901121788451 0.32195069372833385 -0.05970880661291368 -0.6105712102934433 0.011235703044012814 0.1967901587410978
6.75 -0.0315295826578066 0.010497123967532856 0.3539170061044283 -0.48743294717545316 -0.1748201696171673 0.5720988738327436 -0.07859532694339157 0.001971190002084955
7.0 0.060527722721832655 -0.04580296475567225 -0.540860268898367 -0.15710432756743148 0.04636833457729017 -0.5548393551158047 0.052085831927724674 -0.06021054131743845
7.25 0.10591565341665166 0.1357287625965703 -0.13204479436629452 0.49376950245741513 -0.18219901724918985 0.4603566245770472 0.210765435144369 -0.012602777352268932
7.5 -0.1631316888272505 0.23237200218418808 0.4915139591776906 0.0883064919020577 0.23380010068207535 -0.4304711352058899 0.20621854336580847 0.041034449302044765
7.75 -0.1891016545809336 -0.05413530664084967 -0.02419153258847484 -0.5027548046908266 -0.2649719259278482 0.3991553436635812 0.045556969783862755 -0.0001595568328622149
8.0 0.0070815156216876285 -0.09148620169637295 -0.4900495899259388 0.05475139435904275 0.35056926141107825 -0.3049159693314749 0.030437515971919585 -0.004269094170514055
8.25 -0.003158246473260317 0.16389236143563557 0.1680632657913712 0.4232551349568227 -0.3268258119279962 0.2628300983877228 0.04517195701371903 -0.0932785366119433
8.5 -0.10277751345443928 0.05875178530772519 0.3960084910122419 -0.15026794776535202 0.3657463519454245 -0.17538846610214087 -0.007643639237150432 -0.038703380110207485
8.75 -0.09966896202049165 -0.03107002597401605 -0.22693782446865818 -0.30398761564013727 -0.36172909172788675 0.13060608891125663 0.056427755846138405 -0.1013185678732142
9.0 0.007181254452183469 0.01231510531489068 -0.2726829832701195 0.226624865938227 0.35758954133376686 -0.06375030211452978 0.08363142436408787 -0.062347109888949585
9.25 0.05876245178951549 -0.0040681996874613775 0.2592513492137143 0.21004805160071338 -0.34004552302517793 -0.005809378120651187 0.08704903259799049 0.13278928822095343
9.5 0.019149055798951112 0.048912087752993764 0.18306814215957404 -0.2807926541894156 0.32002559609006953 0.04418914728570414 -0.044064072292032685 0.1005051866246093
9.75 0.025365881043474762 0.03051203581392657 -0.2862892279471745 -0.1285750637330078 -0.2984901159675293 -0.09000773615825011 -0.10722227149994107 0.008029714535764301
10.0 0.059832193517722246 -0.03958570238463102 -0.06772956579915415 0.2816861339637371 0.21570458761989214 0.19095828027001682 0.060783703835491726 -0.055148091984602784
10.25 0.04676428899537288 0.03766134586810705 0.27233646025855895 0.07217258189361753 -0.2519419523698797 -0.11144592394332295 0.04672649451851223 -0.02671165289530571
10.5 -0.0007083061676385963 0.11098662126085977 0.022809472168278028 -0.25541804391068934 0.17130876765583808 0.20870068136235986 0.07327489924773666 0.02222911551625581
10.75 -0.04203879052423373 0.008466669109595301 -0.2500817564060467 -0.012448088325171969 -0.14877442170300595 -0.21992930752547793 0.061837149627373834 -0.02691440175939031
11.0 -0.05834176509760467 -0.0199121531350454 -0.011416539013005877 0.26192974243385814 0.15616243793563472 0.21866710942019993 0.02791166017307515 0.07854886071399864
11.25 0.03440617388184284 0.07152449202497563 0.2556131902549569 -0.01472408008820475 -0.10193051976705222 -0.2412175719942738 -0.038969588834059044 0.07144243018991878
11.5 -0.0038270025023258714 0.09760260736035208 -0.0695986472601795 -0.2399758834832046 0.05924091260881813 0.2566747455571523 -0.05500986134018187 -0.0665294452816616
11.75 -0.09182138678657792 0.05678271068119711 -0.19837810666050942 0.12474842185019402 -0.004521131742124644 -0.25084558225638975 0.08826649513998092 -0.03597218782240748
12.0 -0.015762498463284966 0.0271751850930758 0.10071837617075202 0.19506103213045342 -0.07079507899181021 0.22758008490645876 0.11482251498072703 0.07069880960412048
12.25 -0.020226829213693204 0.03263340114944242 0.19404838941516775 -0.0705925968144425 0.12558584473518214 -0.19941328133116715 -0.026040067133041175 0.06065816809813562
12.5 -0.06354212265302944 -0.0011121697138360281 -0.11224664575105833 -0.18126688821358172 -0.17523067611155208 0.15413594116549717 0.04125838721983352 -0.03621244485829073
12.75 0.011632068741787113 -0.007273606421573105 -0.12012036778687268 0.1605574721073319 0.14887507216955412 -0.1667866991672264 0.08852736614779523 -0.03639648021331942
13.0 -0.007348212277766332 0.07323742478953967 0.16294109618872482 0.10814756102746836 -0.17357538833225788 0.13161861411438291 0.04608758594314997 0.02475518598241471
13.25 -0.1737094903593292 0.014936324110446875 0.14519275406139837 -0.12308301117806693 0.20231256600248837 0.00050666931826851 0.016184002202980947 -0.02816184555792229
13.5 -0.07015974669842742 -0.09637899604583344 -0.11686447196531041 -0.14776774667586046 -0.19591256836796297 -0.04579489831091497 0.059402699424752334 -0.020075666715902836
13.75 0.028227041601600666 -0.03404756499113878 -0.1013930901498787 0.15791073585026938 0.2050761163098416 -0.012662196797043009 0.0386720563486647 0.03218779807730346
14.0 -0.007412977711365704 0.09681983708941558 0.17055070780876985 0.06699767614738178 -0.1899186490903174 -0.002219222512662572 -0.015712327594892286 -0.009087178089169291
14.25 -0.11973171578725268 0.05839858026369071 0.07056467442904096 -0.16834401636639132 0.16563761840621116 0.03607635358040876 0.023801085836907838 -0.08815856953796672
14.5 -0.0591935027252546 -0.04378445571403755 -0.17520428935480978 -0.05698741862776094 -0.14376149614312145 -0.11228434564162956 0.07825063867237567 0.013683430964746945
14.75 0.022265465765559378 -0.04776109493957705 -0.017339267086535964 0.18001046321124387 0.131281662800523 0.12407322047309009 0.026980609330284518 0.07653753804870991
15.0 0.01398960805086641 0.0440034511290859 0.17424697383776322 -0.012403096107991757 -0.10618505379971513 -0.13408413214307835 -0.09692149967361248 0.014033040509813036
15.25 0.01851093869057092 0.07185871301114656 -0.019500455004446388 -0.1747676651395137 0.06866905652801791 0.15233452519694626 -0.05827139503761549 -0.014748497722144528
15.5 -0.04121893001319045 0.035332332227919636 -0.17119037309391333 0.06185234775511256 -0.04466011450891885 -0.16899339286169873 0.015834401093353753 0.015684809642465977
15.75 -0.0588642535942527 0.009727143424663666 0.03886858166775192 0.18591533903175728 0.022763861917582465 0.166634845525241 -0.03687195844273066 0.05775420465301139
16.0 0.031411023009353826 0.026064181385459538 0.16717775112705147 -0.06964127190227293 0.053991034011559635 -0.15292635672593022 0.005435619459740436 0.07073144650750406
16.25 -0.02522780406517057 0.03244135931619142 -0.0908002006971797 -0.1505349882218249 -0.0661495752964782 0.13667638713359323 0.04796412147873743 0.0698396691392192
16.5 -0.04419205305228168 0.05203781675846989 -0.1232879278782692 0.1044369283188539 0.07639307480288832 -0.11845605873222559 0.007929834533639935 0.13682170017931156
16.75 -0.019412373467678733 0.03395805968518839 0.0830047975086849 0.14732013731422203 -0.08816356464101034 0.11801185262453294 -0.021293737997453353 0.05192966075987987
17.0 -0.06457326629123243 -0.030643712832321132 0.1380574015398794 -0.08665111348158933 0.11567792684927318 -0.07662337945177483 -0.018667978477206883 -0.038772542193545916
17.25 -0.03493370505124391 -0.02483107528457074 -0.13480697260956737 -0.08866462885806549 -0.12279711552844699 0.05468496305160869 0.06884721206254996 0.008174952618337034
17.5 0.044585457465410726 0.0071762216723308785 -0.040710660218454514 0.14372475085860692 0.10856360741462473 -0.05486373710985609 0.04656843559410749 0.00352059851963156
17.75 -0.06717111703035832 0.011189366618921878 0.13526836703126657 0.05515597282222734 -0.12099168407584915 0.03615492845356417 -0.009123366011112397 0.04476183977390188
18.0 -0.06866054111648756 -0.03399866983547693 0.040758291230233695 -0.13319698778334468 0.11981117954082014 -0.006550073845450387 0.03962408413151101 0.022781063302736097
18.25 0.008211361258768313 -0.07528711874048714 -0.12642248373599838 -0.020477995306327615 -0.11200851622186078 -0.007335724841700659 0.017953191001887976 0.04859354970110298
18.5 -0.033303375725591194 -0.054993071983003565 -0.004336235574204025 0.1440977418242214 0.11414947457694515 0.0486826097335437 0.011737478554752063 0.10951966144677028
18.75 -0.0041627795882908415 -0.016509380067445324 0.129515703639481 -0.029817490930726553 -0.1096517149953031 -0.056051667359902434 0.021624674741534476 0.032076094762610224
19.0 -0.01412422449413795 -0.03955266110096434 -0.043036703749972954 -0.12161592526106194 0.09190008869903574 0.059421333795497466 0.006718857447908927 -0.003791636449603189
19.25 -0.08149773333551871 -0.08695059679880866 -0.13552181747708175 0.03862283827452599 -0.06782813188110925 -0.10294485054369393 0.09521008580929813 -0.03655309152055646
19.5 0.007938811577819768 -0.10111467698880579 0.06138277070618156 0.12046963960784078 0.05527606870274271 0.10503497476781047 0.11265057532840891 -0.026144901510003635
19.75 0.08138257512559433 -0.004191697293891489 0.11093145384813816 -0.0741906301635215 -0.02883090352195799 -0.11282195169759222 0.12022064642309772 -0.005207373573229337
20.0 -0.0354671190537216 -0.005303204941023326 -0.0964634366661749 -0.09654634073224051 -0.03555148745768023 0.11377723355800033 0.019648560641099502 0.060406328104134877
20.25 -0.016848534957188792 -0.062415104931367905 -0.09978358365446822 0.08460665235500538 -0.047275932571473986 -0.10769986973963651 -0.06589975316579436 0.07863984836399178
20.5 0.08171931060104282 -0.05533428581247485 0.08954907806042063 0.10375805118941601 0.021645987332007968 0.11031095417570604 -0.07156219191829956 -0.04268235351662819
20.75 0.04327883115310323 0.06344635605186295 0.09044020562943234 -0.08754813585629855 0.025871066789786113 -0.10814479084189875 0.023911578986199222 -0.08088578403891089
21.0 -0.040946017781106354 0.04444269309171073 -0.09941558287547955 -0.041910896415642086 -0.06734847297725649 0.07332445181693084 0.09496358698488382 0.019224719033023696
21.25 -0.02335115036708791 0.0014292513703873591 -0.029373124275009127 0.11273376638636215 0.07500352225172174 -0.0650444905491567 0.03519125065029119 0.06584376509228237
21.5 0.012334869841915501 0.04552274999191739 0.11134358219070639 0.041224984552996 -0.08131132914280395 0.06536320942739966 -0.005653379382510301 -0.03579114570243333
21.75 -0.04348951150429178 0.03322607244154649 0.040252044053943975 -0.09875226438427659 0.06905785683477612 -0.06781267655815683 0.07880717111035548 -0.049533725689597234
22.0 -0.023715847961388793 0.015978789942272992 -0.10035675885205178 -0.027425124816228233 -0.07026294767068814 0.051975861307403975 0.10493173789160909 0.05360365546025823
22.25 0.019319743693651983 0.057418981723948645 -0.015623622708585916 0.11316277726643831 0.08908454147680032 -0.037659379334324554 -0.028763889829415357 0.06425024418137354
22.5 -0.045800239514914576 0.06468852638839415 0.10969294712568331 0.01339914291192211 -0.09206054283869902 0.024233589997974134 -0.042975641691209515 -0.04194473302854715
22.75 -0.053662460176097555 0.032878060351906296 0.007877192331671223 -0.09782101133373437 0.08840947018247661 -0.004671106918488568 0.06403628840507271 -0.05586410936072023
23.0 -0.006616754915858815 0.004220790966810859 -0.0995112698248509 0.0234916816851755 -0.09183520589743491 -0.012557570405264142 0.028809663467713652 -0.008154430751071154
23.25 0.0002356360740840193 0.031095920329138667 0.053777377564131035 0.08958335669778839 0.0814334037896026 0.02959357888686141 0.003811416755674462 -0.03747614165271848
23.5 -0.007716893362994989 0.06320342357734227 0.07787059704336957 -0.06425074382126927 -0.07007765776676005 -0.04856600863059081 0.047570929346681126 -0.08908629880292612
23.75 -0.0209902965235784 0.020696389837832424 -0.07416335417959027 -0.07816765432639673 0.06943752467954523 0.06128354933727472 0.06796839623385059 0.011259131619236709
24.0 -0.034139719035354225 -0.00827972403061291 -0.07929765672574712 0.06659171984564034 -0.047403197366580635 -0.0727242739504948 -0.016227291408665953 0.04086368287655395
24.25 -0.012973888493846321 0.02196144513595632 0.0555656750753582 0.09035966541768384 0.021712615256805047 0.08782408999752088 -0.10539953189426267 -0.07248486361700637
24.5 -0.004860516812827528 -0.01543195333929943 0.09927397034249746 -0.05265149636344227 -0.01967466500369918 -0.09025412724530454 -0.015786861972943406 -0.07518176121175203
24.75 -0.046515652262209536 -0.028401577894477312 -0.05573416090285274 -0.08615278951750245 -0.00611587596466537 0.08489787260325418 0.06237419069171671 -0.07830896789635974
25.0 0.0048477372935185545 -0.019830382235398698 -0.06133288109621318 0.09491689260556509 0.02498222148324151 -0.09159469788094565 0.034333684556679546 -0.0019498938601702764
25.25 -0.0017908962649159704 -0.05946067794092226 0.1055314467317672 0.015360180442858501 -0.014758237726280175 0.0866348235773567 0.08452820911175565 0.04974881678578872
25.5 -0.007599541669140692 0.008727024079809124 -0.016552916292702766 -0.10652237703531577 -3.201658580959457e-05 -0.0913207137343642 0.007609154689153963 0.04054206358979243
25.75 -0.016959506655388774 -0.0029810323842801786 -0.09834068957505715 0.04373993359934089 0.0028768321204065274 0.08739064384319734 -0.03566302604248192 0.03938337286812559
26.0 -0.011130824676845131 -0.07750435369071369 0.02751819928763055 0.08647117464372732 0.020357640971599127 -0.07425945596658692 -0.05130989947789202 -0.07939860418916728
26.25 0.04672411886980426 -0.014612023359555665 0.10376392577866708 -0.010712390753634282 -0.0634939411169817 0.05544235962882746 0.03952882268135086 -0.11757410231802365
26.5 0.027040799426868982 0.002125640099732356 0.01151372716355449 -0.10785501075157211 0.085907641870074 -0.02305787817179661 0.07701521459909594 -0.000626924785584626
26.75 0.04369469210822058 -0.0329802720496857 -0.09164096345753903 -0.03352229415707032 -0.08081580181101322 -0.010729049556528546 0.014090797022377657 -0.014219926978336687
27.0 0.041440776219746324 0.034737265390769864 -0.015059250642537436 0.09365335942039574 0.07843315807926388 0.02236224548356958 0.01741028256288646 -0.028915666964304337
27.25 0.009821481316621222 0.048293607146979986 0.09063841887428685 -0.02743576864449046 -0.07819788667755154 0.0022300349618068933 0.026946944305296292 0.007507928127252983
27.5 -0.027202570125741295 -0.025206301277557838 -0.046687601834677184 -0.09023171864011167 0.07917970098606862 -0.01894889580944694 -0.028224167690624528 0.039402392195383315
27.75 0.046309392121161974 -0.030747667972240073 -0.0784343181664788 0.06433454284936134 -0.07578060915583298 0.028702706246675494 -0.05237981280726138 -0.0004421996348292559
28.0 0.08307024590116395 0.0329948311965899 0.0823239793193797 0.05825599250950252 0.07731521375129485 -0.018770103721815787 -0.023764762107192437 -0.07199887062556257
28.25 0.014345086710352908 0.08250652054774052 0.03714570862796594 -0.08173914092777984 -0.0735610194993466 0.007556342399752187 0.051881595885215355 -0.06570712167464902
28.5 -0.06833552740458688 0.04361601878916877 -0.06941793426910875 -0.0501991783631282 0.07064825368399338 0.010271862219215604 0.07667069502716617 -0.012759546676518886
28.75 -0.01225927024844422 -0.011522289902505173 -0.05460286770174611 0.072624654435364 -0.06431087052584204 -0.04427117781326163 0.035112651692761815 0.04550031962088025
29.0 0.05282698173445137 0.03052038819552933 0.08773295732452235 0.04644587703428525 0.04959915719575517 0.06591764035347603 -0.03785211750231077 -0.012236522235454662
29.25 -0.011758985981802847 0.10469922092967424 0.022091827033546493 -0.09035535901489473 -0.03761700073096358 -0.06880839852027737 -0.030481458693868452 -0.04924351327056468
29.5 -0.0794122155753245 0.08168645395722206 -0.08448685210976588 0.0045829851534690685 0.03411574000114081 0.06101116692873852 0.0019000825575606409 -0.08245295791345195
29.75 -0.026780424534546696 0.012559751500971203 0.012293698297189834 0.09002182240834404 -0.02354995994462738 -0.06935643261443664 0.0017757158771545159 -0.04080554155502917
30.0 -0.010864203002877219 0.016658948312510857 0.08115487935243818 -0.03397577189153432 0.020935980152118908 0.07037360857196147 0.02340477881572907 -0.005059482784604989
