# GHz S RI R 50.0 
!freq ReS11 ImS11 ReS21 ImS21 ReS12 ImS12 ReS22 ImS22
1.0 -0.4612840570230964 -0.5734315669999271 -1.035363168843158e-06 -5.080456301744609e-05 -3.654384543197865e-05 -1.7534387949440854e-05 0.13800538478482643 -0.8167532960579057
1.25 0.15199134772585143 0.8284831002635372 3.2211318782632053e-05 4.645658770281447e-05 7.29172121686136e-06 3.232833651344578e-05 0.4562158089102288 0.6785171233056991
1.5 0.45456209174808193 -0.46537090765205047 -2.6324494998731112e-05 -2.3161252291508354e-05 9.454892212082206e-06 -3.98481483378555e-06 -0.6647719177307903 -0.39773658700547165
1.75 -0.5007984984393534 0.06140045298732277 3.597746305514104e-05 -6.1603507633434724e-06 -2.7544228609155538e-05 -1.7945955378982771e-06 0.4821783484436074 -0.17681245628550368
2.0 0.36110159530818675 0.1885466377252189 -8.630778111853369e-06 -3.4837588077712525e-06 3.322286926195324e-06 6.09492012526448e-06 -0.22125632118635674 0.17765536667584023
2.25 0.1133803192665575 -0.27042950829945406 1.3995169988278486e-05 -3.5064306574132946e-06 1.1115650527691005e-05 -1.4034746229749547e-05 0.3109827312714274 -0.24354557754250555
2.5 -0.25496873385345653 -0.4454800398241443 6.760372040038496e-06 -5.358644965256457e-06 2.97995347724376e-06 -4.7538468900701475e-05 -0.33232519086075835 -0.3843367099796082
2.75 -0.345252525171726 0.6671742474121032 7.955657393294052e-07 -2.6367619914979975e-06 -3.483924400238026e-05 2.199091787003036e-05 0.2558668806899692 0.4722310430899541
3.0 0.619098945063107 -0.5039494999612684 3.136358935096019e-05 -3.5219918815634713e-06 4.5199378971970896e-05 4.594096271589886e-06 -0.22714932824628886 -0.6567025225275196
3.25 -0.7011653042965421 0.3854914283898433 1.3728949897253477e-05 1.1778340570760952e-05 -1.513080898302655e-05 -2.922144931050836e-05 -0.1728824832735362 0.6904862836800261
3.5 0.9518002737274538 0.20272208319823457 -9.388536802279897e-06 -4.614416419601587e-06 3.8348542082003505e-05 4.921069353778894e-05 0.532451305299974 -0.5846300552574162
3.75 -0.7329004780499718 -0.37213485676080116 -3.90207267173852e-05 2.024552748828144e-05 1.8334239541683287e-06 -2.5877145412334534e-05 -0.7733757640745154 0.07218435956498204
4.0 0.21546951619779386 0.886375457335457 2.4459966431907548e-05 -2.091929591720214e-05 -4.506265560676776e-05 6.604841521161887e-06 0.5833990299717193 0.11151840496136738
4.25 0.18531873738387683 -0.7238855421709408 -8.363064837778644e-06 -4.86247001231232e-05 3.09794254162108e-05 1.1564848324192202e-05 -0.4352410520217104 -0.6815174913316763
4.5 -0.6088501617657848 0.4347908266145225 -2.371016638880751e-05 3.2467061088329395e-05 -3.009094203528347e-05 -9.421137804704813e-06 0.1347671954498395 0.6919946049057757
4.75 0.746889467482879 0.41746051129544526 2.742550447958787e-05 4.128837809285871e-06 1.8685926231374088e-05 8.394616632836566e-05 0.3875933409281025 -0.6796922576089863
5.0 -0.5472836132388508 -0.38874183685135666 6.720091023346138e-06 -2.3317531351507902e-05 -2.647512213357185e-06 -3.2940226999375615e-05 -0.6824300808283452 0.47106259115982807
5.25 -0.3036141065621154 0.695164652519332 -5.02416682403727e-05 1.0417690141087577e-05 -2.671632301093892e-06 4.3930807411205326e-05 0.7867615883694287 0.23148187098448483
5.5 0.4047875982585269 -0.5207891346228488 4.874284953656174e-05 4.981101878909249e-05 -3.596172202268631e-05 1.2406755002970661e-05 -0.5907127493378201 -0.49215002569999533
5.75 -0.6269274537418805 0.1416387508298539 -1.1350897242551136e-06 -1.7002159774520177e-05 2.2645705654292964e-05 1.6626407269423264e-06 0.04394421934869175 0.7847488660957485
6.0 0.3363339713900755 0.46721588394686303 -5.3010860592907154e-05 -2.4479141010235353e-05 -3.2784313765755365e-05 -1.0602296254749098e-05 0.5804726466385476 -0.5087311397318158
6.25 -0.1988649357664889 -0.4994039416472761 8.719553751363112e-06 2.9457901127325926e-05 5.3758288023300864e-05 -7.480203362082092e-06 -0.5837955989604214 0.13394619640110128
6.5 -0.3988370218674995 0.5820411835508337 6.865375986214069e-05 -3.359402036907556e-05 -5.897458357927111e-05 -4.276711693464494e-05 0.43426332584801863 0.6052067285719143
6.75 0.4940678512154291 -0.14752006774269055 -4.3022740574127924e-05 -3.673586389155898e-05 5.7875226214601024e-05 3.8807110061538574e-05 -0.06728018177870254 -0.584599756813749
7.0 -0.46991668742362325 -0.2639749045330245 -5.573015257482014e-05 5.190520254928677e-05 -4.829405384270062e-05 -8.008000118557336e-05 -0.27036896568298835 0.46938276611724694
7.25 0.15212773114971573 0.5644621150683699 5.616256612102843e-05 1.577823747991702e-05 9.170263055857108e-06 4.529945451879184e-05 0.648296653273708 0.020269785296844867
7.5 0.05639174376894025 -0.31539865891769914 2.747601138693543e-05 -0.00010350657330010885 -4.3873249958555175e-05 -5.883113875324904e-05 -0.3518775351410244 -0.15894858117051947
7.75 -0.6340006896927795 0.0844392405176066 -9.07193924219251e-05 1.062368885496356e-05 6.0635452716477314e-05 8.563289700582756e-06 0.22329985721020312 0.4435325601389003
8.0 0.4669509663737281 0.18389438268427238 7.439381577938273e-05 7.180746536457328e-05 -8.324902673744871e-05 -7.1027049337946895e-06 0.20306695882008785 -0.5075607382488418
8.25 -0.1686654277613029 -0.29772797841812426 6.388310039270954e-05 -5.50150114541375e-05 8.295383796811065e-05 2.1520262440873728e-05 -0.3718326801227634 0.09054623704885834
8.5 -0.20540174042332318 0.43915207064926526 -4.5062575934549126e-05 -2.9680686674502758e-05 -7.655326658911279e-05 -2.2617355584224463e-05 0.3755408546512307 0.03275999206052008
8.75 0.23513471594661053 -0.2564337370249724 -5.623803306639039e-06 3.900161462992263e-05 6.796771623161739e-05 4.785015802445441e-05 -0.25732637052117896 -0.4343397850758757
9.0 -0.3226356110805513 -0.09970178322429629 5.512836677894058e-05 1.62883501770853e-05 -2.3863445590584177e-05 -5.86810590430985e-05 0.03251481636027048 0.3029577036046989
9.25 0.19783050361348153 0.28846392853312636 -1.0117459974503932e-05 -7.948050576939326e-05 2.8621774166055717e-05 6.387196681517857e-05 0.35760821248962316 -0.10092057698326096
9.5 0.11141747499360502 -0.28628544073428686 -4.54457555395155e-05 1.8845874418780737e-05 -3.667386970899558e-05 -3.7383244044438674e-05 -0.3425562836386076 0.17786723584363673
9.75 -0.19757555865529017 0.23782465211410642 3.198849313985521e-05 3.754504554103298e-05 1.6839189283390623e-05 3.1569057921926053e-05 0.16120158031167692 0.19794639575854964
10.0 0.28585832991500415 0.07975148526276146 5.292438517275726e-05 -1.8270946207075392e-05 9.859435295840783e-06 -5.060145202900053e-05 0.018063701778498753 -0.3476898790266467
10.25 -0.03541496522383847 -0.275451590828499 -6.594201015791044e-05 -7.270669971326384e-05 6.380005850450516e-05 5.81003352465543e-05 -0.018412585896572346 0.26253597734352696
10.5 -0.11142383117288876 0.2936258859869749 -2.148632181034804e-05 5.5665593152275455e-05 -3.997677639437464e-05 -6.077373764373944e-05 0.24158653789416895 -0.17865599498731805
10.75 0.21410748553766817 0.013108299797383038 7.167566047274783e-05 1.0848681595164425e-05 3.705055685041303e-05 8.700310433789655e-05 -0.21310154443680987 -0.021120070168016647
11.0 -0.2379244544840012 -0.17605359497762121 3.873511351757807e-06 -7.602187383926715e-05 -3.6995390965804186e-05 -9.595786134116525e-05 0.229349743788967 0.27902149361990264
11.25 0.09606127718831489 0.31772767005873037 -6.930433293358902e-05 2.3106491459202048e-05 3.3005391777787864e-05 7.260572519390525e-05 -0.06173733630680783 -0.17763717781281985
11.5 0.13344763470784382 -0.08935943809236985 5.1269189190023375e-05 6.78406124432683e-05 -4.063321628474427e-05 -7.115317138191345e-05 -0.21247437419564483 0.13095997390392833
11.75 -0.2675567811772677 0.11241744487452243 4.267465669208653e-05 -4.430328812015214e-05 2.3630060712238638e-05 6.021618764009351e-05 0.35063670750153475 -0.11979219068941202
12.0 0.11401917398399203 0.20055440305507577 -6.91284804482804e-05 -6.767652222949421e-05 1.319995373032296e-05 -8.750863906223919e-05 -0.059621413276001234 -0.10593255931613033
12.25 -0.05067513502047724 -0.1742327834902839 -3.4457527647213505e-05 5.9763307138345956e-05 1.0117760474997947e-05 7.180340211866682e-05 -0.0316342220487673 0.273721389870578
12.5 -0.20549449631645977 0.1252467124144806 6.845481800718679e-05 2.5265368004488756e-05 1.8142700971271134e-05 -7.73163803444234e-05 0.21531470192408242 -0.16140832992103976
12.75 0.19288829014082345 -0.0568647664590447 2.3883560455613615e-05 -9.647262762433313e-05 -2.5756065883830704e-05 0.00011267965756590403 -0.1422713510930708 -0.0627044612841881
13.0 -0.18815494934944274 0.01811652070486157 -6.945847413742841e-05 2.216081871481429e-05 -7.156007686704277e-06 -9.688032113000714e-05 0.23379468224380373 0.1545520286771267
13.25 -0.2201477452600399 0.18251732686861888 -2.821398145663979e-05 7.884468737630805e-05 -8.820369597128563e-05 4.175621691501592e-05 0.08435875395622935 -0.1716772558667412
13.5 0.07895992433052287 -0.21884008609100356 9.32617003771032e-05 -8.195408269684592e-06 8.651977418970833e-05 -6.703424210668062e-05 -0.17316475518208674 0.04281785642081681
13.75 -0.1279697480591092 0.0034769302840748917 -3.673478303530079e-05 -9.955450301681485e-05 -8.051753756558799e-05 9.176204660739715e-05 0.24585049383044955 0.05442225642364392
14.0 0.1510931729077847 0.17599080645634863 -6.253948421143477e-05 6.536997048854236e-05 2.2291473004101958e-05 -8.366006024282517e-05 -0.1253046481900206 -0.14304941903089313
14.25 -0.15528179633949118 -0.09987882179790614 5.0533491453881184e-05 2.1780820420733335e-05 -1.4983666806563547e-05 3.335223088299583e-05 0.020782463401858436 0.14828312319242606
14.5 -0.17534913194714738 0.0926140795863564 6.294482319048744e-05 -6.339631000318248e-05 8.815507052984549e-05 -3.2815555611751225e-05 0.20713303002230254 -0.08952441359069238
14.75 0.1565360687721196 -0.0898485012666412 -0.00011631965835846965 2.80404818864177e-05 -4.905682144425012e-05 0.00011699413310850508 -0.2003913400308481 0.031237464483445387
15.0 -0.10205729302862329 -0.04486909042302497 3.432243547577331e-05 5.7735513908962716e-05 1.7678119274222676e-05 -6.359018800846469e-05 0.0738114568789914 0.12994014358375944
15.25 0.013332508289162007 0.2493783534265088 5.991646772560743e-05 -1.685615062674778e-05 -5.9289030568386954e-05 4.025613869204593e-05 -0.10228966626305001 -0.17560645998885893
15.5 -0.004503186857095319 -0.09707994767617176 -4.7167290704835574e-05 -6.770065720040715e-05 7.060320967898931e-05 -3.240975476936514e-05 -0.15770452628788753 0.155523825315092
15.75 -0.21377648148663464 -0.0027952305449783915 -8.210415430216451e-05 1.7237010292648174e-05 -7.632095106392174e-05 -1.3579785923374272e-06 0.15202686918285394 -0.010345286213114785
16.0 0.14448903407731759 0.13161460704277694 5.953978428756454e-05 5.7226369871184174e-05 8.101969052578917e-05 3.292740880157823e-08 -0.13168355006367588 -0.052740082059938784
16.25 -0.024005141532942503 -0.11080597717099117 4.413367039141834e-05 -3.621790951453475e-05 -4.8257927489773185e-05 -2.3837372596649232e-05 0.0899269445775322 0.24436943186828247
16.5 -0.12473397132351219 0.17068571662005477 -4.7554078326938386e-05 -8.191394743897482e-05 4.5503220980259103e-05 5.582024462711112e-05 0.09544789967494975 0.0032977130507315655
16.75 0.11325168244711047 -6.042385242496784e-05 -6.249003463790017e-05 6.555842251939551e-05 -7.523403790560038e-05 -2.4568259713701248e-05 -0.19667662827070204 0.041459252559190925
17.0 -0.11697553296122395 -0.12786509027038365 6.14400061498264e-05 5.015944416821825e-05 5.486600758684989e-05 2.8063104723105857e-05 0.16317728053991587 0.041861579051173325
17.25 -0.018064446629400835 0.14363855280894602 9.880421480499692e-06 -0.00011197754182265296 -7.36272740438986e-05 -5.0731574519453956e-05 0.03809836421182933 -0.10868090224238774
17.5 0.08745839256223305 -0.09682705846451134 -9.757989639345475e-05 -1.8300282270869206e-05 4.395023221995187e-05 7.358752997929637e-05 -0.0228056280566721 0.17360776789907795
17.75 -0.1732692331402912 0.0067341121734267595 4.508749258758102e-05 0.00013880318713128424 -0.00011990957684924694 -7.894836083095735e-05 0.10747675517272619 -0.09583330381315322
18.0 0.02186643108442274 0.0469918504272973 6.547276267664085e-05 -7.532628356091638e-05 6.811652267843193e-05 3.266738499373777e-05 -0.06434385255094476 -0.006134344357835997
18.25 -0.007705670673671689 -0.18606143573270495 -1.8966618474950217e-05 -7.324988351606885e-05 -1.970789457085143e-05 -6.66954440787181e-05 0.07189100301285725 0.21768799205552034
18.5 -0.10097959419032079 0.04021036569523023 -3.903785210787211e-05 0.00014834435911320135 9.138151978753316e-05 5.8414229170356574e-05 -0.026486325682868017 -0.0522331862908435
18.75 0.09467589561594404 -0.0008040544584691361 5.1618271968662685e-05 -1.984354629159358e-06 -3.572143883019087e-05 -3.2337444641074386e-05 -0.058580350769007944 0.1280857064833541
19.0 -0.08268622540590169 -0.1477746180895097 5.374594498484871e-05 -6.780066969025366e-05 -9.069406416364827e-07 7.13056260179576e-05 0.17002217288702012 -0.0325555639963393
19.25 -0.04151442183108016 0.035991704409683994 -0.00012466603146162075 2.8011832862002807e-05 -5.0324896142609705e-05 -9.106236441725432e-05 -0.029152314147492142 -0.12226817919993732
19.5 0.0799256909972943 -0.16786927920933326 -4.335161730791836e-06 7.658158674914626e-05 4.583414703501967e-06 7.401262020574533e-05 0.08375854815980517 0.11040627750683493
19.75 -0.07525126322121625 -0.049568511615453725 0.00016995510716194765 -4.6056795316083736e-05 3.7487360458642328e-06 -0.00014297295231096603 0.16377961492836712 -0.1633401361031584
20.0 0.006410426925281057 0.0905611843238914 -9.32625863161275e-05 -5.1690684409691025e-05 -1.7007404238094172e-05 8.563366986971189e-05 -0.09266478048724167 0.10234346692671159
20.25 0.05389372389106488 -0.18011412261258394 -7.794133065803069e-05 5.837015726659851e-05 -3.226564661536558e-05 -8.536528857829168e-05 0.08025278324674096 0.07273025984867941
20.5 -0.01708011437497947 0.0326162952312572 7.762479536172139e-05 3.427705144225399e-05 3.7750891815540106e-05 6.547944352821768e-05 -0.19997315789747774 -0.09290029317019842
20.75 0.08680677190035599 0.13411638374633716 4.4049253835500814e-05 -3.8170841679111263e-05 6.445153024818528e-06 -4.837459401962256e-05 0.04700777591628705 0.03243734259403713
21.0 -0.033154322217687646 -0.09478685825450486 -8.589393212682004e-05 -4.387978755054148e-05 -5.360985910397316e-05 5.029661228539969e-05 0.14830537919383818 -0.08355573529807739
21.25 -0.06820234117883403 0.0775530286488933 1.1832204624909347e-05 7.703192230417101e-05 2.0409458120826296e-05 -5.6721699174914526e-05 -0.061255952612511155 0.12135641563511475
21.5 0.09209450245559972 0.07328120175311191 4.9854655630285746e-05 1.3793836859325864e-05 -4.080419389444169e-05 4.6742593858981224e-05 0.10608213618373036 0.002463518960157743
21.75 -0.12074510944816373 -0.036798873149241684 9.713572479882394e-06 -7.138268995688535e-05 3.246902617237228e-05 -5.5535439384057156e-05 0.0255256944462149 -0.13854652218520438
22.0 -0.015528020018731978 0.0868385985188396 -5.743354551568043e-05 9.522260909113468e-06 -1.7726060882007463e-05 4.694260422493227e-05 0.07551582262524714 0.15641085358552104
22.25 0.09484157070158833 -0.007771839885996237 2.2789377310519493e-05 8.331169542310256e-05 6.821178681782976e-05 -3.622639505808812e-05 0.06666204950956792 -0.005418202454465115
22.5 -0.13136994612858766 0.07062922369927077 6.551741633589389e-05 -2.791603021450083e-05 -5.872473909369395e-05 3.921722878890628e-05 -0.13795862718778415 -0.07505650130479259
22.75 -0.004687485868981073 0.08574152481321805 -3.8103846875909295e-05 -4.189337596740686e-05 3.141386723152676e-05 -3.0901382878314293e-05 0.10589591484483596 0.04740130383155673
23.0 -0.018997077455042664 -0.08023008272475936 -3.477908416848203e-05 3.652679693745883e-05 -4.509305684443118e-05 8.649079236153877e-06 0.05466269893619502 -0.10530373362189356
23.25 -0.053343406419376536 0.10602306018184943 6.154026281638875e-05 5.497008004553197e-05 6.194932128773398e-05 7.912466384171976e-06 -0.09880517920810039 0.005343501038038406
23.5 0.07534391544063193 0.043250502552574135 7.165375074792639e-06 -7.734360153139927e-05 -6.017483877233625e-05 1.4915021375455644e-05 0.13995767842344822 -0.08332015602452851
23.75 -0.07848441789928563 -0.04015550215981602 -6.931994399523435e-05 -1.2221636346545855e-05 5.446769334020245e-05 4.341393282624555e-06 0.010448504021887045 -0.06842564634285248
24.0 -0.06022250551058073 0.09693449069768398 -3.8583279705516784e-05 6.750254413980146e-05 -5.617141198689745e-05 -2.8229284827263707e-05 -0.05893219238688964 0.16973963919727894
24.25 0.05611983101987148 -0.05434999730176528 8.223567400999587e-05 2.2976068227295638e-05 6.333524480421342e-05 4.140292638890051e-05 -0.011059648791586135 -0.1198360201696489
24.5 -0.0897905406021805 -0.04586145315423586 4.2286832748750776e-05 -6.60279002255248e-05 -4.179515826475062e-05 -5.371353958413016e-05 -0.09558173085630792 -0.1448908249558363
24.75 0.04273345413882537 0.06972260709987606 -0.00010522884886689994 1.888054452967795e-05 7.169303103860275e-05 5.2704624548259445e-05 0.10790431190055941 0.041976692719137565
25.0 -0.015559278821044846 -0.11685541559394505 7.732808000826579e-06 9.22659076705029e-05 -2.8491929047602828e-05 -7.391940513057585e-05 0.10619314509403564 -0.08807007178645776
25.25 -0.023436379924154385 0.059554855729985756 7.551658781092286e-05 -0.00013193717569930498 9.905727932529613e-05 6.21149027703747e-05 -0.027382933527259054 0.10135802004396977
25.5 0.040154032390737934 -0.08181444892797615 -9.176058246451622e-05 7.693494497759088e-06 -6.988748269298617e-05 -2.718647651010658e-06 0.12293810786220545 0.025865158024317228
25.75 -0.10670237437124942 0.002555793940529655 -1.708633960341801e-06 7.420090047914118e-05 5.435794615956211e-05 2.088922922235488e-05 -0.119387252793205 -0.025295230500070865
26.0 0.07086563045753624 0.00029731243267259967 0.00010035228425017211 -3.718403359508246e-05 -9.818318021636991e-05 -1.7889296403493656e-05 0.011783384864836863 0.029102067976967676
26.25 0.06335974956109794 -0.10534057821724285 1.104026949963603e-05 -9.25391914323811e-05 2.6760040935881808e-05 6.369673187257805e-05 0.09545614187367393 -0.16685683470040133
26.5 -0.06675710784124281 0.012741051771320552 -0.00012993779794078983 -2.4449619287745145e-05 -2.5207733243795218e-05 -0.00010650011927505491 -0.02526658789292903 -0.06649988414237477
26.75 0.10720272163246267 0.026943648982329454 1.7397571860716952e-05 0.00010194618571267454 2.1480979626387806e-05 7.534316585745964e-05 0.05433909511395964 0.10271242527711773
27.0 0.01620520634978445 -0.047150321662408096 9.784501565323702e-05 -1.209436436475283e-05 -1.3750405511673362e-06 -7.333280204042434e-05 0.08820352645585992 -0.07964484172732224
27.25 0.010253231469600275 0.11932450672696691 -6.120215177706168e-05 -5.312411265431249e-05 3.8986676594541985e-05 6.0371572545679875e-05 -0.07745093757223855 0.04269723814160811
27.5 0.03498371719969939 -0.0810797014909552 -3.654505626251917e-05 7.418824889795267e-05 -5.320000316165988e-05 -4.090841237635707e-05 0.06663147432811567 0.03106695234862797
27.75 -0.032067188881020545 -0.02108848821439633 6.393959299023325e-05 9.176272098175163e-06 4.6808748167033124e-05 2.935121750583961e-05 -0.1482597562558073 -0.05530640173650038
28.0 0.1473411869809551 0.0759034694675706 -1.211553121738871e-05 -7.81288493787545e-05 -5.5614495085009725e-05 -1.3155602811381427e-05 0.03290959142209526 0.017947817680167275
28.25 -0.012486677940045543 0.0001624256527918838 -4.8264556897795156e-05 4.811033575996043e-05 5.3863258791059846e-05 8.380862478482045e-06 0.07139655902181574 -0.13164252414851096
28.5 -0.11432190366774159 0.07920174088483563 1.617967853789583e-05 2.3633403241406892e-05 -2.7246962792661287e-05 -1.6891455828761734e-05 -0.021089477449010255 0.03984254950245544
28.75 0.0745703313316221 0.007971310561461553 4.2054667037472946e-05 2.337504029157534e-06 -1.418306452419585e-07 4.452643379190674e-05 0.10038181295835298 0.08044876956677449
