# Hz S RI R 50.000000
! Metas.Vna.Data, 2.4.7734.25685
! Created: UTC 2023.03.21 14:20:04
! FREQ                re:S1,1             im:S1,1          
  0.0000000000e+000  -2.0003000600e-004   0.0000000000e+000
  5.0000000000e+007  -9.0726608884e-004  -1.2428493223e-003
  1.0000000000e+008  -1.3243113893e-003  -1.3941301328e-003
  2.0000000000e+008  -1.5944375570e-003  -1.3233882710e-003
  3.0000000000e+008  -1.6611715677e-003  -1.0563906033e-003
  4.0000000000e+008  -1.6294753540e-003  -7.3723819628e-004
  5.0000000000e+008  -1.6026017032e-003  -3.7199164383e-004
  6.0000000000e+008  -1.5375647350e-003  -8.1070526661e-005
  7.0000000000e+008  -1.4507462631e-003   2.6286106472e-004
  8.0000000000e+008  -1.3711032294e-003   5.8543253912e-004
  9.0000000000e+008  -1.2958858769e-003   8.0099436656e-004
  1.0000000000e+009  -1.2152594392e-003   9.8787222211e-004
  1.1000000000e+009  -1.1047922717e-003   1.1784695630e-003
  1.2000000000e+009  -1.0466183769e-003   1.3024688113e-003
  1.3000000000e+009  -9.5304809859e-004   1.3723336423e-003
  1.4000000000e+009  -8.0297318688e-004   1.4349311195e-003
  1.5000000000e+009  -7.3386402627e-004   1.4194115646e-003
  1.6000000000e+009  -6.1755771142e-004   1.4115784953e-003
  1.7000000000e+009  -4.5673285346e-004   1.3559392897e-003
  1.8000000000e+009  -3.0948292347e-004   1.2446064117e-003
  1.9000000000e+009  -2.2586002705e-004   1.1821788788e-003
  2.0000000000e+009  -7.3757553008e-005   1.1129935355e-003
  2.1000000000e+009  -3.1878327582e-005   9.3822576821e-004
  2.2000000000e+009   5.7535385447e-005   8.8555055914e-004
  2.3000000000e+009   1.1004396059e-004   7.5817947508e-004
  2.4000000000e+009   7.0224312259e-005   7.0942505654e-004
  2.5000000000e+009   2.2081561674e-005   5.5781733926e-004
  2.6000000000e+009  -3.5466940006e-005   4.7187874261e-004
  2.7000000000e+009  -9.0880861505e-005   4.9053459283e-004
  2.8000000000e+009  -2.3612053975e-004   4.6138255844e-004
  2.9000000000e+009  -2.5351120687e-004   3.4753947416e-004
  3.0000000000e+009  -4.5127676557e-004   2.6322745277e-004
  3.1000000000e+009  -5.9614942156e-004   2.9853321515e-004
  3.2000000000e+009  -6.7787588512e-004   2.4381025321e-004
  3.3000000000e+009  -9.0917632627e-004   2.5789396966e-004
  3.4000000000e+009  -1.0378035145e-003   2.1006821554e-004
  3.5000000000e+009  -1.2397466871e-003   2.8208520782e-004
  3.6000000000e+009  -1.3548024033e-003   2.0476157960e-004
  3.7000000000e+009  -1.5330705803e-003   4.2194135807e-004
  3.8000000000e+009  -1.6696561778e-003   5.1806419248e-004
  3.9000000000e+009  -1.8557002498e-003   6.3876786863e-004
  4.0000000000e+009  -2.0081327723e-003   9.0297365515e-004
  4.1000000000e+009  -2.0846953848e-003   1.0801661070e-003
  4.2000000000e+009  -2.1937950384e-003   1.3293969562e-003
  4.3000000000e+009  -2.3313075861e-003   1.5478722208e-003
  4.4000000000e+009  -2.4142692180e-003   1.7973911470e-003
  4.5000000000e+009  -2.5179718120e-003   2.0583024738e-003
  4.6000000000e+009  -2.6635565116e-003   2.3370322888e-003
  4.7000000000e+009  -2.7362183681e-003   2.5768124571e-003
  4.8000000000e+009  -2.8402910377e-003   2.7698521134e-003
  4.9000000000e+009  -2.9027593254e-003   3.0109369383e-003
  5.0000000000e+009  -2.9995388782e-003   3.2345869340e-003
  5.1000000000e+009  -2.9884606843e-003   3.5399890627e-003
  5.2000000000e+009  -3.0435511199e-003   3.8972290210e-003
  5.3000000000e+009  -2.9763208486e-003   4.0674621396e-003
  5.4000000000e+009  -2.9702758264e-003   4.4274147727e-003
  5.5000000000e+009  -2.7710216727e-003   4.7822082476e-003
  5.6000000000e+009  -2.5592053874e-003   5.1334195674e-003
  5.7000000000e+009  -2.3610584952e-003   5.4901095102e-003
  5.8000000000e+009  -2.0836383601e-003   5.8148899957e-003
  5.9000000000e+009  -1.9050214695e-003   6.1605270087e-003
  6.0000000000e+009  -1.6112068325e-003   6.5523525268e-003
  6.1000000000e+009  -1.4120735512e-003   6.8435646869e-003
  6.2000000000e+009  -1.1605352950e-003   7.2690352088e-003
  6.3000000000e+009  -9.4571654317e-004   7.5520014357e-003
  6.4000000000e+009  -6.5552487813e-004   7.8351445611e-003
  6.5000000000e+009  -4.1381695457e-004   8.1088428993e-003
  6.6000000000e+009  -9.4792585260e-005   8.3539765664e-003
  6.7000000000e+009   2.0433446277e-004   8.5330490706e-003
  6.8000000000e+009   5.3886235360e-004   8.6687301155e-003
  6.9000000000e+009   1.0045546004e-003   8.8048801047e-003
  7.0000000000e+009   1.3904704250e-003   8.9944614178e-003
  7.1000000000e+009   1.8706199581e-003   9.0086841836e-003
  7.2000000000e+009   2.4116270763e-003   9.0545428646e-003
  7.3000000000e+009   3.0525014287e-003   9.1666686779e-003
  7.4000000000e+009   3.4418151190e-003   9.1843257941e-003
  7.5000000000e+009   4.0737529803e-003   9.1300909005e-003
  7.6000000000e+009   4.5403043616e-003   9.0616199096e-003
  7.7000000000e+009   4.9977995678e-003   9.0258101170e-003
  7.8000000000e+009   5.4766070203e-003   8.8838686413e-003
  7.9000000000e+009   5.8784940425e-003   8.7420224716e-003
  8.0000000000e+009   6.3401033428e-003   8.6111295880e-003
  8.1000000000e+009   6.7403367569e-003   8.4229417337e-003
  8.2000000000e+009   7.2320983301e-003   8.2045521607e-003
  8.3000000000e+009   7.5217862951e-003   7.8541154007e-003
  8.4000000000e+009   7.9811228017e-003   7.5257819525e-003
  8.5000000000e+009   8.2952002647e-003   7.0377353768e-003
  8.6000000000e+009   8.7130695499e-003   6.7018520833e-003
  8.7000000000e+009   9.0572564614e-003   6.2368002798e-003
  8.8000000000e+009   9.4096749617e-003   5.7087742846e-003
  8.9000000000e+009   9.6489117512e-003   5.1902470947e-003
  9.0000000000e+009   9.9210343071e-003   4.7743409342e-003
  9.1000000000e+009   1.0054042981e-002   4.1587785635e-003
  9.2000000000e+009   1.0190143893e-002   3.7024918319e-003
  9.3000000000e+009   1.0355039741e-002   3.1805815697e-003
  9.4000000000e+009   1.0410556903e-002   2.6418594548e-003
  9.5000000000e+009   1.0437475338e-002   2.1423986393e-003
  9.6000000000e+009   1.0501022724e-002   1.6495869228e-003
  9.7000000000e+009   1.0534957721e-002   1.0512708136e-003
  9.8000000000e+009   1.0477012296e-002   4.2474909747e-004
  9.9000000000e+009   1.0479020892e-002  -1.5100955126e-004
  1.0000000000e+010   1.0344184702e-002  -7.7110709024e-004
  1.0100000000e+010   1.0197382983e-002  -1.3555506691e-003
  1.0200000000e+010   9.9702114913e-003  -1.9777118798e-003
  1.0300000000e+010   9.7668592415e-003  -2.5551920371e-003
  1.0400000000e+010   9.4681003402e-003  -3.1885082538e-003
  1.0500000000e+010   9.1625482420e-003  -3.7135961568e-003
  1.0600000000e+010   8.7039860339e-003  -4.1831929974e-003
  1.0700000000e+010   8.3344455987e-003  -4.7615006928e-003
  1.0800000000e+010   7.7890187446e-003  -5.2351730057e-003
  1.0900000000e+010   7.3412816591e-003  -5.5669442303e-003
  1.1000000000e+010   6.7598285029e-003  -6.0035693879e-003
  1.1100000000e+010   6.2558122546e-003  -6.3326920143e-003
  1.1200000000e+010   5.6924741803e-003  -6.6499167325e-003
  1.1300000000e+010   5.1367083440e-003  -6.8263175062e-003
  1.1400000000e+010   4.5419123609e-003  -7.1315277017e-003
  1.1500000000e+010   3.9073726675e-003  -7.3116102428e-003
  1.1600000000e+010   3.2406004743e-003  -7.5227879820e-003
  1.1700000000e+010   2.4964233896e-003  -7.6368997078e-003
  1.1800000000e+010   1.7984290610e-003  -7.6984097567e-003
  1.1900000000e+010   1.0846937717e-003  -7.8303224570e-003
  1.2000000000e+010   4.0556088232e-004  -7.9016259669e-003
  1.2100000000e+010  -2.9407056787e-004  -7.7804340628e-003
  1.2200000000e+010  -9.5012856811e-004  -7.8407210511e-003
  1.2300000000e+010  -1.6429038531e-003  -7.6284042459e-003
  1.2400000000e+010  -2.2973207057e-003  -7.4890218965e-003
  1.2500000000e+010  -2.9326443589e-003  -7.2639250786e-003
  1.2600000000e+010  -3.5677869351e-003  -6.9953909243e-003
  1.2700000000e+010  -4.2037408066e-003  -6.7666983051e-003
  1.2800000000e+010  -4.7473769232e-003  -6.3816502641e-003
  1.2900000000e+010  -5.3819492494e-003  -5.9940972082e-003
  1.3000000000e+010  -5.9625284511e-003  -5.5527346339e-003
  1.3100000000e+010  -6.6010206373e-003  -5.0359162564e-003
  1.3200000000e+010  -7.1763418571e-003  -4.6692907825e-003
  1.3300000000e+010  -7.7303083921e-003  -4.1738815382e-003
  1.3400000000e+010  -8.2398679984e-003  -3.6384712506e-003
  1.3500000000e+010  -8.7562424763e-003  -3.1662246939e-003
  1.3600000000e+010  -9.2577246037e-003  -2.4782280771e-003
  1.3700000000e+010  -9.6936762101e-003  -1.8843655454e-003
  1.3800000000e+010  -1.0023132619e-002  -1.2456677226e-003
  1.3900000000e+010  -1.0355406618e-002  -6.2585292370e-004
  1.4000000000e+010  -1.0599340819e-002   1.6028807828e-004
  1.4100000000e+010  -1.0875655073e-002   8.1653491645e-004
  1.4200000000e+010  -1.1087939364e-002   1.6702693117e-003
  1.4300000000e+010  -1.1292678582e-002   2.3705852390e-003
  1.4400000000e+010  -1.1468959962e-002   3.1612910349e-003
  1.4500000000e+010  -1.1560181730e-002   3.9222083276e-003
  1.4600000000e+010  -1.1634297239e-002   4.8346097951e-003
  1.4700000000e+010  -1.1619737933e-002   5.5342151290e-003
  1.4800000000e+010  -1.1800287708e-002   6.4463090230e-003
  1.4900000000e+010  -1.1804128081e-002   7.1332373874e-003
  1.5000000000e+010  -1.1816653449e-002   7.9674761311e-003
  1.5100000000e+010  -1.1734703713e-002   8.5897097424e-003
  1.5200000000e+010  -1.1549409408e-002   9.3542034753e-003
  1.5300000000e+010  -1.1325368140e-002   1.0038283068e-002
  1.5400000000e+010  -1.1156904237e-002   1.0663838695e-002
  1.5500000000e+010  -1.0781934843e-002   1.1395667618e-002
  1.5600000000e+010  -1.0460576348e-002   1.1928136768e-002
  1.5700000000e+010  -1.0048608434e-002   1.2515368919e-002
  1.5800000000e+010  -9.6518832001e-003   1.3212285934e-002
  1.5900000000e+010  -9.2222032053e-003   1.3832807826e-002
  1.6000000000e+010  -8.6363136934e-003   1.4401624481e-002
  1.6100000000e+010  -8.2584782936e-003   1.5021012811e-002
  1.6200000000e+010  -7.7878877872e-003   1.5563680083e-002
  1.6300000000e+010  -7.4494504758e-003   1.6146761347e-002
  1.6400000000e+010  -7.0237616009e-003   1.6726220331e-002
  1.6500000000e+010  -6.6366605163e-003   1.7268019134e-002
  1.6600000000e+010  -6.1601620744e-003   1.7704023350e-002
  1.6700000000e+010  -5.6187357130e-003   1.8259071285e-002
  1.6800000000e+010  -5.0426743820e-003   1.8644853115e-002
  1.6900000000e+010  -4.4433246430e-003   1.9025493759e-002
  1.7000000000e+010  -3.8522940834e-003   1.9437478872e-002
  1.7100000000e+010  -3.2441573921e-003   1.9771886006e-002
  1.7200000000e+010  -2.6195016270e-003   2.0109158857e-002
  1.7300000000e+010  -1.9193227818e-003   2.0483390221e-002
  1.7400000000e+010  -1.2853909395e-003   2.0819466930e-002
  1.7500000000e+010  -6.0456837720e-004   2.1144287844e-002
  1.7600000000e+010   1.8376048964e-004   2.1338871809e-002
  1.7700000000e+010   7.8436252427e-004   2.1573152106e-002
  1.7800000000e+010   1.4744249385e-003   2.1726493066e-002
  1.7900000000e+010   2.0626662870e-003   2.1922920175e-002
  1.8000000000e+010   2.7446673071e-003   2.2018939427e-002
  1.8100000000e+010   3.3922604899e-003   2.2183941481e-002
  1.8200000000e+010   4.2425041310e-003   2.2279041874e-002
  1.8300000000e+010   4.8146717844e-003   2.2322131904e-002
  1.8400000000e+010   5.6224417855e-003   2.2386128075e-002
  1.8500000000e+010   6.3100143606e-003   2.2363660136e-002
  1.8600000000e+010   7.0576670767e-003   2.2415561162e-002
  1.8700000000e+010   7.6953026071e-003   2.2297534589e-002
  1.8800000000e+010   8.3754290865e-003   2.2270445304e-002
  1.8900000000e+010   9.0230762058e-003   2.2163793939e-002
  1.9000000000e+010   9.7102460229e-003   2.2127235283e-002
  1.9100000000e+010   1.0333486338e-002   2.1965112134e-002
  1.9200000000e+010   1.1048454075e-002   2.1892350557e-002
  1.9300000000e+010   1.1762835779e-002   2.1713742886e-002
  1.9400000000e+010   1.2429143956e-002   2.1622188965e-002
  1.9500000000e+010   1.3171189728e-002   2.1385103710e-002
  1.9600000000e+010   1.3880250092e-002   2.1252896925e-002
  1.9700000000e+010   1.4566480029e-002   2.1020399335e-002
  1.9800000000e+010   1.5176689576e-002   2.0732294755e-002
  1.9900000000e+010   1.5891503421e-002   2.0499260038e-002
  2.0000000000e+010   1.6484988929e-002   2.0200336351e-002
  2.0100000000e+010   1.7161496933e-002   1.9845814514e-002
  2.0200000000e+010   1.7886684334e-002   1.9412270541e-002
  2.0300000000e+010   1.8496287252e-002   1.9089775728e-002
  2.0400000000e+010   1.9130665074e-002   1.8628423979e-002
  2.0500000000e+010   1.9831019690e-002   1.8154086758e-002
  2.0600000000e+010   2.0429354222e-002   1.7535634167e-002
  2.0700000000e+010   2.1154431285e-002   1.7068300598e-002
  2.0800000000e+010   2.1797329088e-002   1.6459057463e-002
  2.0900000000e+010   2.2451781377e-002   1.5910631778e-002
  2.1000000000e+010   2.3131419656e-002   1.5252156327e-002
  2.1100000000e+010   2.3809591738e-002   1.4624489651e-002
  2.1200000000e+010   2.4299277060e-002   1.3914697749e-002
  2.1300000000e+010   2.4778923876e-002   1.3326808348e-002
  2.1400000000e+010   2.5218325365e-002   1.2491507778e-002
  2.1500000000e+010   2.5679163648e-002   1.1845379327e-002
  2.1600000000e+010   2.5930569513e-002   1.1126389805e-002
  2.1700000000e+010   2.6272292147e-002   1.0258197774e-002
  2.1800000000e+010   2.6543396163e-002   9.2744640937e-003
  2.1900000000e+010   2.6711268785e-002   8.4619832312e-003
  2.2000000000e+010   2.7042461258e-002   7.5176129914e-003
  2.2100000000e+010   2.7173622233e-002   6.5157435798e-003
  2.2200000000e+010   2.7486787671e-002   5.5675060364e-003
  2.2300000000e+010   2.7621244260e-002   4.6485752063e-003
  2.2400000000e+010   2.7832967937e-002   3.7133511033e-003
  2.2500000000e+010   2.7938486439e-002   2.6543372102e-003
  2.2600000000e+010   2.8145024918e-002   1.6842597969e-003
  2.2700000000e+010   2.8311858397e-002   7.3812863824e-004
  2.2800000000e+010   2.8229736397e-002  -2.3078298249e-004
  2.2900000000e+010   2.8132550281e-002  -1.2951366915e-003
  2.3000000000e+010   2.8034861414e-002  -2.2401142858e-003
  2.3100000000e+010   2.7829835144e-002  -3.3602089215e-003
  2.3200000000e+010   2.7483783517e-002  -4.2995993277e-003
  2.3300000000e+010   2.7069848175e-002  -5.4017450225e-003
  2.3400000000e+010   2.6667048257e-002  -6.3870031775e-003
  2.3500000000e+010   2.6072765100e-002  -7.4506468538e-003
  2.3600000000e+010   2.5637056265e-002  -8.5107654603e-003
  2.3700000000e+010   2.5095122119e-002  -9.5962866991e-003
  2.3800000000e+010   2.4522977276e-002  -1.0541191990e-002
  2.3900000000e+010   2.3844987605e-002  -1.1670861884e-002
  2.4000000000e+010   2.3082686048e-002  -1.2518398178e-002
  2.4100000000e+010   2.2291528699e-002  -1.3774295356e-002
  2.4200000000e+010   2.1626086580e-002  -1.4624560197e-002
  2.4300000000e+010   2.0853815403e-002  -1.5568170295e-002
  2.4400000000e+010   1.9941299001e-002  -1.6243353276e-002
  2.4500000000e+010   1.9194926185e-002  -1.7058929840e-002
  2.4600000000e+010   1.8278585576e-002  -1.7787761830e-002
  2.4700000000e+010   1.7289049042e-002  -1.7827060836e-002
  2.4800000000e+010   1.5840945125e-002  -1.8601298049e-002
  2.4900000000e+010   1.4992094332e-002  -1.8916347405e-002
  2.5000000000e+010   1.3719199406e-002  -1.9608162422e-002
  2.5100000000e+010   1.2600706133e-002  -1.9862423730e-002
  2.5200000000e+010   1.1342662218e-002  -2.0252177847e-002
  2.5300000000e+010   1.0137635124e-002  -2.0313721861e-002
  2.5400000000e+010   8.6546020658e-003  -2.0816484327e-002
  2.5500000000e+010   7.4517872208e-003  -2.0794797211e-002
  2.5600000000e+010   5.9974960519e-003  -2.0878582508e-002
  2.5700000000e+010   4.5180255349e-003  -2.0949802362e-002
  2.5800000000e+010   3.0895612183e-003  -2.0961501780e-002
  2.5900000000e+010   1.6658549152e-003  -2.0966496374e-002
  2.6000000000e+010   4.4212046172e-004  -2.0717957946e-002
  2.6100000000e+010  -8.8085416158e-004  -2.0254970945e-002
  2.6200000000e+010  -2.0372854335e-003  -2.0177251071e-002
  2.6300000000e+010  -3.5033213658e-003  -1.9537405962e-002
  2.6400000000e+010  -4.6159065618e-003  -1.8973664333e-002
  2.6500000000e+010  -5.6802426311e-003  -1.8429034123e-002
  2.6600000000e+010  -6.9197879168e-003  -1.7532162254e-002
  2.6700000000e+010  -8.0084014350e-003  -1.6758972974e-002
  2.6800000000e+010  -9.2342983941e-003  -1.5867373269e-002
  2.6900000000e+010  -1.0212255772e-002  -1.4846844232e-002
  2.7000000000e+010  -1.1286433549e-002  -1.3851155084e-002
  2.7100000000e+010  -1.2246453543e-002  -1.3040910879e-002
  2.7200000000e+010  -1.3287222381e-002  -1.2006153831e-002
  2.7300000000e+010  -1.4791672689e-002  -1.0907899757e-002
  2.7400000000e+010  -1.5537604913e-002  -9.9930324439e-003
  2.7500000000e+010  -1.6319692433e-002  -8.6887169880e-003
  2.7600000000e+010  -1.7101276868e-002  -7.4380572277e-003
  2.7700000000e+010  -1.7883525413e-002  -6.0544909133e-003
  2.7800000000e+010  -1.8262605510e-002  -4.7861999531e-003
  2.7900000000e+010  -1.8719542290e-002  -3.3631455697e-003
  2.8000000000e+010  -1.8748291531e-002  -1.9921190088e-003
  2.8100000000e+010  -1.9179427699e-002  -4.2868896128e-004
  2.8200000000e+010  -1.9175058929e-002   9.1902427495e-004
  2.8300000000e+010  -1.9503215157e-002   2.4052733182e-003
  2.8400000000e+010  -1.9442571798e-002   4.0823487698e-003
  2.8500000000e+010  -1.9370564431e-002   5.2440590991e-003
  2.8600000000e+010  -1.9379233199e-002   6.8693002635e-003
  2.8700000000e+010  -1.9291806403e-002   8.6333416375e-003
  2.8800000000e+010  -1.9207802581e-002   9.8123559246e-003
  2.8900000000e+010  -1.8873104883e-002   1.0942154170e-002
  2.9000000000e+010  -1.8708367980e-002   1.2348012310e-002
  2.9100000000e+010  -1.8233118727e-002   1.3709297249e-002
  2.9200000000e+010  -1.7537529018e-002   1.5161959653e-002
  2.9300000000e+010  -1.6973505356e-002   1.6219246576e-002
  2.9400000000e+010  -1.6371376030e-002   1.7577458198e-002
  2.9500000000e+010  -1.5543584431e-002   1.8686267526e-002
  2.9600000000e+010  -1.4671082434e-002   1.9780600926e-002
  2.9700000000e+010  -1.3636822890e-002   2.0885444600e-002
  2.9800000000e+010  -1.2844750151e-002   2.1791444515e-002
  2.9900000000e+010  -1.1758826971e-002   2.2928814219e-002
  3.0000000000e+010  -1.0590658425e-002   2.3936854619e-002
  3.0100000000e+010  -9.5093670599e-003   2.4856289038e-002
  3.0200000000e+010  -8.7279610297e-003   2.5702100781e-002
  3.0300000000e+010  -7.4177392510e-003   2.6419903567e-002
  3.0400000000e+010  -6.2125165667e-003   2.7099354815e-002
  3.0500000000e+010  -4.9939335059e-003   2.7668119847e-002
  3.0600000000e+010  -4.1517069686e-003   2.8226413830e-002
  3.0700000000e+010  -2.7791728300e-003   2.8664421881e-002
  3.0800000000e+010  -1.6473314565e-003   2.9143451996e-002
  3.0900000000e+010  -3.6547387934e-004   2.9552111568e-002
  3.1000000000e+010   1.0040695574e-003   2.9681029512e-002
  3.1100000000e+010   2.1646983024e-003   3.0069365640e-002
  3.1200000000e+010   3.4648346066e-003   3.0094951364e-002
  3.1300000000e+010   4.5552697744e-003   3.0328662890e-002
  3.1400000000e+010   5.9592616033e-003   3.0294659318e-002
  3.1500000000e+010   7.3272079994e-003   3.0228615844e-002
  3.1600000000e+010   8.5874966612e-003   3.0245962059e-002
  3.1700000000e+010   9.7406471898e-003   3.0075956167e-002
  3.1800000000e+010   1.1192086707e-002   3.0253232161e-002
  3.1900000000e+010   1.2069325900e-002   3.0114568744e-002
  3.2000000000e+010   1.3407593405e-002   3.0063320615e-002
  3.2100000000e+010   1.4231784741e-002   2.9560993168e-002
  3.2200000000e+010   1.5368837359e-002   2.9421461683e-002
  3.2300000000e+010   1.6291367945e-002   2.9057196964e-002
  3.2400000000e+010   1.7482345411e-002   2.8602900719e-002
  3.2500000000e+010   1.8245738063e-002   2.8231667066e-002
  3.2600000000e+010   1.9229981863e-002   2.7942587847e-002
  3.2700000000e+010   2.0073426089e-002   2.7438897878e-002
  3.2800000000e+010   2.0619012390e-002   2.6589439001e-002
