#  HZ   S   DB   R     50
! Company: Rohde & Schwarz
! Verification Kit: ZVZ429
! Verification Standard: MISMATCH_FEMALE
! Serial Number: 101170
! MT-K NWA Calibriersystem
! <Frequency>   <S11>
0              -2.108422E+01   0.000000E+00
45000000       -2.110184E+01  -1.279266E+00
100000000      -2.109289E+01  -2.610833E+00
250000000      -2.104562E+01  -6.215130E+00
500000000      -2.100406E+01  -1.226724E+01
750000000      -2.098956E+01  -1.840453E+01
1000000000     -2.098123E+01  -2.456365E+01
1250000000     -2.097604E+01  -3.079428E+01
1500000000     -2.098786E+01  -3.707837E+01
1750000000     -2.100670E+01  -4.346015E+01
2000000000     -2.101657E+01  -4.988871E+01
2250000000     -2.101052E+01  -5.624045E+01
2500000000     -2.101552E+01  -6.255516E+01
2750000000     -2.101276E+01  -6.869749E+01
3000000000     -2.099757E+01  -7.494299E+01
3250000000     -2.098406E+01  -8.128894E+01
3500000000     -2.098095E+01  -8.777860E+01
3750000000     -2.098393E+01  -9.411862E+01
4000000000     -2.100536E+01  -1.005269E+02
4250000000     -2.102171E+01  -1.069457E+02
4500000000     -2.101088E+01  -1.134883E+02
4750000000     -2.098942E+01  -1.199579E+02
5000000000     -2.096720E+01  -1.263792E+02
5250000000     -2.096827E+01  -1.327980E+02
5500000000     -2.100329E+01  -1.390714E+02
5750000000     -2.101054E+01  -1.455165E+02
6000000000     -2.099296E+01  -1.519929E+02
6250000000     -2.095690E+01  -1.584279E+02
6500000000     -2.092498E+01  -1.648375E+02
6750000000     -2.089522E+01  -1.712788E+02
7000000000     -2.087131E+01  -1.777941E+02
7250000000     -2.086126E+01   1.757831E+02
7500000000     -2.083266E+01   1.694055E+02
7750000000     -2.079262E+01   1.631390E+02
8000000000     -2.076468E+01   1.568631E+02
8250000000     -2.074925E+01   1.507036E+02
8500000000     -2.074922E+01   1.445331E+02
8750000000     -2.074082E+01   1.382871E+02
9000000000     -2.071600E+01   1.321026E+02
9250000000     -2.067388E+01   1.259744E+02
9500000000     -2.062601E+01   1.199625E+02
9750000000     -2.061079E+01   1.139788E+02
10000000000    -2.062083E+01   1.079481E+02
10250000000    -2.063186E+01   1.018278E+02
10500000000    -2.061747E+01   9.569437E+01
10750000000    -2.061145E+01   8.967570E+01
11000000000    -2.061154E+01   8.382631E+01
11250000000    -2.063841E+01   7.783457E+01
11500000000    -2.067728E+01   7.183092E+01
11750000000    -2.071424E+01   6.580474E+01
12000000000    -2.074055E+01   5.982307E+01
12250000000    -2.077135E+01   5.401934E+01
12500000000    -2.083173E+01   4.819458E+01
12750000000    -2.090209E+01   4.214983E+01
13000000000    -2.095330E+01   3.598841E+01
13250000000    -2.099717E+01   2.995446E+01
13500000000    -2.104794E+01   2.402125E+01
13750000000    -2.114186E+01   1.811280E+01
14000000000    -2.125413E+01   1.203232E+01
14250000000    -2.137711E+01   5.652343E+00
14500000000    -2.147668E+01  -8.040511E-01
14750000000    -2.155096E+01  -7.091141E+00
15000000000    -2.166042E+01  -1.313206E+01
15250000000    -2.178807E+01  -1.933101E+01
15500000000    -2.192894E+01  -2.589177E+01
15750000000    -2.204720E+01  -3.274068E+01
16000000000    -2.211985E+01  -3.961271E+01
16250000000    -2.220486E+01  -4.611356E+01
16500000000    -2.233604E+01  -5.265916E+01
16750000000    -2.250291E+01  -5.932923E+01
17000000000    -2.266575E+01  -6.653677E+01
17250000000    -2.276422E+01  -7.378239E+01
17500000000    -2.284086E+01  -8.101083E+01
17750000000    -2.289788E+01  -8.815529E+01
18000000000    -2.298045E+01  -9.528418E+01
18250000000    -2.304961E+01  -1.025464E+02
18500000000    -2.309374E+01  -1.100645E+02
18750000000    -2.311925E+01  -1.177560E+02
19000000000    -2.310139E+01  -1.254330E+02
19250000000    -2.304545E+01  -1.329655E+02
19500000000    -2.299736E+01  -1.403645E+02
19750000000    -2.294384E+01  -1.477886E+02
20000000000    -2.289010E+01  -1.552991E+02
20250000000    -2.281936E+01  -1.629713E+02
20500000000    -2.268167E+01  -1.705050E+02
20750000000    -2.252135E+01  -1.775419E+02
21000000000    -2.238970E+01   1.756507E+02
21250000000    -2.227834E+01   1.686840E+02
21500000000    -2.213800E+01   1.615212E+02
21750000000    -2.194171E+01   1.545985E+02
22000000000    -2.172955E+01   1.479150E+02
22250000000    -2.153114E+01   1.414612E+02
22500000000    -2.137419E+01   1.349861E+02
22750000000    -2.122699E+01   1.283882E+02
23000000000    -2.103638E+01   1.219247E+02
23250000000    -2.084318E+01   1.158186E+02
23500000000    -2.068963E+01   1.099013E+02
23750000000    -2.057642E+01   1.038272E+02
24000000000    -2.046034E+01   9.763839E+01
24250000000    -2.031441E+01   9.165252E+01
24500000000    -2.014879E+01   8.568570E+01
24750000000    -2.000525E+01   7.995816E+01
25000000000    -1.990019E+01   7.427010E+01
25250000000    -1.982294E+01   6.855704E+01
25500000000    -1.972458E+01   6.271655E+01
25750000000    -1.962091E+01   5.701575E+01
26000000000    -1.954895E+01   5.143737E+01
26250000000    -1.950645E+01   4.598588E+01
26500000000    -1.948555E+01   4.040524E+01
26750000000    -1.941724E+01   3.456645E+01
27000000000    -1.934168E+01   2.889635E+01
27250000000    -1.928763E+01   2.346842E+01
27500000000    -1.926701E+01   1.795952E+01
27750000000    -1.927342E+01   1.260181E+01
28000000000    -1.927521E+01   6.966646E+00
28250000000    -1.924088E+01   1.308945E+00
28500000000    -1.923772E+01  -4.226386E+00
28750000000    -1.923683E+01  -9.789951E+00
29000000000    -1.927219E+01  -1.547340E+01
29250000000    -1.928781E+01  -2.130852E+01
29500000000    -1.930199E+01  -2.697367E+01
29750000000    -1.932337E+01  -3.271681E+01
30000000000    -1.937679E+01  -3.845215E+01
30250000000    -1.942100E+01  -4.414942E+01
30500000000    -1.949304E+01  -5.000038E+01
30750000000    -1.953406E+01  -5.588317E+01
31000000000    -1.960450E+01  -6.181983E+01
31250000000    -1.965640E+01  -6.764600E+01
31500000000    -1.971094E+01  -7.372491E+01
31750000000    -1.976380E+01  -7.977555E+01
32000000000    -1.981670E+01  -8.594581E+01
32250000000    -1.987046E+01  -9.180436E+01
32500000000    -1.993754E+01  -9.808856E+01
32750000000    -2.000091E+01  -1.044691E+02
33000000000    -2.003340E+01  -1.108297E+02
33250000000    -2.007390E+01  -1.172769E+02
33500000000    -2.011460E+01  -1.237012E+02
33750000000    -2.015340E+01  -1.300422E+02
34000000000    -2.018515E+01  -1.364951E+02
34250000000    -2.020446E+01  -1.428593E+02
34500000000    -2.018681E+01  -1.491045E+02
34750000000    -2.020456E+01  -1.553057E+02
35000000000    -2.022438E+01  -1.615416E+02
35250000000    -2.026136E+01  -1.680088E+02
35500000000    -2.026723E+01  -1.745643E+02
35750000000    -2.024225E+01   1.793204E+02
36000000000    -2.020697E+01   1.732677E+02
36250000000    -2.020393E+01   1.671460E+02
36500000000    -2.020565E+01   1.609057E+02
36750000000    -2.020499E+01   1.548144E+02
37000000000    -2.020065E+01   1.486144E+02
37250000000    -2.019540E+01   1.429477E+02
37500000000    -2.020951E+01   1.369157E+02
37750000000    -2.024968E+01   1.308384E+02
38000000000    -2.029959E+01   1.245844E+02
38250000000    -2.024629E+01   1.186455E+02
38500000000    -2.026970E+01   1.130837E+02
38750000000    -2.027768E+01   1.075442E+02
39000000000    -2.030383E+01   1.018589E+02
39250000000    -2.034191E+01   9.603729E+01
39500000000    -2.036000E+01   9.022892E+01
39750000000    -2.043058E+01   8.482043E+01
40000000000    -2.054334E+01   7.927256E+01
