#  HZ   S   DB   R     50
! Company: Rohde & Schwarz
! Verification Kit: ZVZ429
! Verification Standard: OFFSET_SHORT_FEMALE
! Serial Number: 101183
! MT-K NWA Calibriersystem
! <Frequency>   <S11>
0               0.000000E+00   1.800000E+02
45000000       -1.275528E-02   1.782666E+02
100000000      -1.429087E-02   1.762297E+02
250000000      -3.010957E-02   1.706589E+02
500000000      -4.527714E-02   1.614684E+02
750000000      -5.716472E-02   1.523271E+02
1000000000     -6.599557E-02   1.432182E+02
1250000000     -7.555207E-02   1.341490E+02
1500000000     -8.174351E-02   1.250791E+02
1750000000     -8.582388E-02   1.160487E+02
2000000000     -8.973644E-02   1.070303E+02
2250000000     -9.523440E-02   9.803869E+01
2500000000     -9.798928E-02   8.903500E+01
2750000000     -9.954082E-02   8.003385E+01
3000000000     -1.023254E-01   7.105391E+01
3250000000     -9.852939E-02   6.210176E+01
3500000000     -1.027107E-01   5.316086E+01
3750000000     -9.884692E-02   4.427561E+01
4000000000     -9.811836E-02   3.537078E+01
4250000000     -9.436661E-02   2.645583E+01
4500000000     -9.345555E-02   1.755329E+01
4750000000     -9.498467E-02   8.614534E+00
5000000000     -9.126956E-02  -3.203041E-01
5250000000     -9.078741E-02  -9.240999E+00
5500000000     -8.741993E-02  -1.816764E+01
5750000000     -8.586769E-02  -2.712454E+01
6000000000     -8.324066E-02  -3.611566E+01
6250000000     -8.607429E-02  -4.515244E+01
6500000000     -8.994539E-02  -5.420877E+01
6750000000     -9.078344E-02  -6.327763E+01
7000000000     -9.102113E-02  -7.235897E+01
7250000000     -9.477069E-02  -8.144754E+01
7500000000     -9.620009E-02  -9.057938E+01
7750000000     -9.851052E-02  -9.973057E+01
8000000000     -1.015683E-01  -1.088933E+02
8250000000     -9.958911E-02  -1.180234E+02
8500000000     -1.036258E-01  -1.271885E+02
8750000000     -1.047553E-01  -1.363787E+02
9000000000     -1.108313E-01  -1.455754E+02
9250000000     -1.148487E-01  -1.548003E+02
9500000000     -1.187220E-01  -1.639920E+02
9750000000     -1.226958E-01  -1.731284E+02
10000000000    -1.254884E-01   1.777304E+02
10250000000    -1.302432E-01   1.686190E+02
10500000000    -1.327841E-01   1.595035E+02
10750000000    -1.384567E-01   1.503972E+02
11000000000    -1.412911E-01   1.413484E+02
11250000000    -1.436263E-01   1.323446E+02
11500000000    -1.464131E-01   1.233891E+02
11750000000    -1.481269E-01   1.144713E+02
12000000000    -1.528153E-01   1.055579E+02
12250000000    -1.505035E-01   9.669960E+01
12500000000    -1.525659E-01   8.787033E+01
12750000000    -1.535141E-01   7.904258E+01
13000000000    -1.540916E-01   7.022491E+01
13250000000    -1.495922E-01   6.143850E+01
13500000000    -1.444184E-01   5.266211E+01
13750000000    -1.437233E-01   4.390257E+01
14000000000    -1.400957E-01   3.512011E+01
14250000000    -1.444684E-01   2.634469E+01
14500000000    -1.435515E-01   1.753098E+01
14750000000    -1.367634E-01   8.679050E+00
15000000000    -1.375957E-01  -1.873464E-01
15250000000    -1.361047E-01  -9.078680E+00
15500000000    -1.354739E-01  -1.802067E+01
15750000000    -1.340604E-01  -2.700532E+01
16000000000    -1.324233E-01  -3.602428E+01
16250000000    -1.299674E-01  -4.504025E+01
16500000000    -1.292326E-01  -5.411207E+01
16750000000    -1.296615E-01  -6.320857E+01
17000000000    -1.307735E-01  -7.240160E+01
17250000000    -1.305689E-01  -8.159960E+01
17500000000    -1.301630E-01  -9.086475E+01
17750000000    -1.325104E-01  -1.001378E+02
18000000000    -1.351239E-01  -1.094244E+02
18250000000    -1.401248E-01  -1.187307E+02
18500000000    -1.398109E-01  -1.280909E+02
18750000000    -1.451483E-01  -1.374422E+02
19000000000    -1.491703E-01  -1.467851E+02
19250000000    -1.481091E-01  -1.561078E+02
19500000000    -1.509425E-01  -1.654163E+02
19750000000    -1.541568E-01  -1.746896E+02
20000000000    -1.585535E-01   1.760431E+02
20250000000    -1.612196E-01   1.667833E+02
20500000000    -1.593548E-01   1.575785E+02
20750000000    -1.576484E-01   1.484642E+02
21000000000    -1.574904E-01   1.393832E+02
21250000000    -1.610750E-01   1.303514E+02
21500000000    -1.616434E-01   1.213727E+02
21750000000    -1.579523E-01   1.125053E+02
22000000000    -1.542018E-01   1.037002E+02
22250000000    -1.494778E-01   9.490081E+01
22500000000    -1.484808E-01   8.614135E+01
22750000000    -1.483097E-01   7.742005E+01
23000000000    -1.433414E-01   6.875651E+01
23250000000    -1.444430E-01   6.009944E+01
23500000000    -1.482033E-01   5.145241E+01
23750000000    -1.502342E-01   4.279035E+01
24000000000    -1.510276E-01   3.413013E+01
24250000000    -1.452353E-01   2.562846E+01
24500000000    -1.358150E-01   1.700564E+01
24750000000    -1.323495E-01   8.295482E+00
25000000000    -1.417324E-01  -4.619156E-01
25250000000    -1.429170E-01  -9.227476E+00
25500000000    -1.310359E-01  -1.800269E+01
25750000000    -1.311781E-01  -2.680287E+01
26000000000    -1.338440E-01  -3.571305E+01
26250000000    -1.389356E-01  -4.471050E+01
26500000000    -1.428670E-01  -5.378262E+01
26750000000    -1.410561E-01  -6.285705E+01
27000000000    -1.405960E-01  -7.191376E+01
27250000000    -1.442104E-01  -8.116620E+01
27500000000    -1.459120E-01  -9.046108E+01
27750000000    -1.570696E-01  -9.987228E+01
28000000000    -1.521434E-01  -1.093019E+02
28250000000    -1.530808E-01  -1.186905E+02
28500000000    -1.531486E-01  -1.281552E+02
28750000000    -1.570776E-01  -1.376838E+02
29000000000    -1.637838E-01  -1.471944E+02
29250000000    -1.583103E-01  -1.566982E+02
29500000000    -1.594535E-01  -1.661970E+02
29750000000    -1.629586E-01  -1.756607E+02
30000000000    -1.612673E-01   1.748716E+02
30250000000    -1.607561E-01   1.654905E+02
30500000000    -1.670955E-01   1.561379E+02
30750000000    -1.662316E-01   1.468882E+02
31000000000    -1.650270E-01   1.376851E+02
31250000000    -1.638856E-01   1.285450E+02
31500000000    -1.639661E-01   1.194843E+02
31750000000    -1.716955E-01   1.105161E+02
32000000000    -1.761972E-01   1.016294E+02
32250000000    -1.730820E-01   9.278626E+01
32500000000    -1.686400E-01   8.400792E+01
32750000000    -1.666619E-01   7.537713E+01
33000000000    -1.698400E-01   6.675042E+01
33250000000    -1.695668E-01   5.813624E+01
33500000000    -1.623721E-01   4.956226E+01
33750000000    -1.722439E-01   4.105020E+01
34000000000    -1.682427E-01   3.254929E+01
34250000000    -1.739995E-01   2.401490E+01
34500000000    -1.772256E-01   1.547223E+01
34750000000    -1.758699E-01   6.953305E+00
35000000000    -1.699774E-01  -1.644799E+00
35250000000    -1.640743E-01  -1.018923E+01
35500000000    -1.774939E-01  -1.880800E+01
35750000000    -1.718865E-01  -2.759884E+01
36000000000    -1.734092E-01  -3.636382E+01
36250000000    -1.780289E-01  -4.516551E+01
36500000000    -1.837364E-01  -5.406621E+01
36750000000    -1.758736E-01  -6.305580E+01
37000000000    -1.815139E-01  -7.209974E+01
37250000000    -1.790923E-01  -8.130537E+01
37500000000    -1.776810E-01  -9.055457E+01
37750000000    -1.771835E-01  -9.983729E+01
38000000000    -1.813063E-01  -1.091742E+02
38250000000    -1.864285E-01  -1.185963E+02
38500000000    -1.884542E-01  -1.280933E+02
38750000000    -1.851634E-01  -1.376330E+02
39000000000    -1.833145E-01  -1.471618E+02
39250000000    -1.877326E-01  -1.567728E+02
39500000000    -1.908757E-01  -1.663688E+02
39750000000    -1.891749E-01  -1.759726E+02
40000000000    -2.018830E-01   1.744854E+02
