# Hz S RI R 50.000000
! Metas.Vna.Data, 2.4.7734.25685
! Created: UTC 2023.03.21 14:20:05
! FREQ                re:S1,1             im:S1,1          
  0.0000000000e+000   1.0000000000e+000   0.0000000000e+000
  5.0000000000e+007   9.9894303185e-001  -1.1982630742e-002
  1.0000000000e+008   9.9984583863e-001  -2.4415013692e-002
  2.0000000000e+008   9.9914799634e-001  -4.8366725752e-002
  3.0000000000e+008   9.9766037149e-001  -7.2253294018e-002
  4.0000000000e+008   9.9563804979e-001  -9.6105280569e-002
  5.0000000000e+008   9.9306093739e-001  -1.1966231524e-001
  6.0000000000e+008   9.8976469506e-001  -1.4308431278e-001
  7.0000000000e+008   9.8657777129e-001  -1.6613567519e-001
  8.0000000000e+008   9.8188409181e-001  -1.8928760953e-001
  9.0000000000e+008   9.7740545976e-001  -2.1273046221e-001
  1.0000000000e+009   9.7201645487e-001  -2.3539025432e-001
  1.1000000000e+009   9.6621431865e-001  -2.5828867997e-001
  1.2000000000e+009   9.5982980233e-001  -2.8136048299e-001
  1.3000000000e+009   9.5296557248e-001  -3.0393135628e-001
  1.4000000000e+009   9.4549900427e-001  -3.2639600713e-001
  1.5000000000e+009   9.3727415405e-001  -3.4838439414e-001
  1.6000000000e+009   9.2903645980e-001  -3.7034481597e-001
  1.7000000000e+009   9.2009965599e-001  -3.9222500540e-001
  1.8000000000e+009   9.1061666553e-001  -4.1412288110e-001
  1.9000000000e+009   9.0053337236e-001  -4.3533218360e-001
  2.0000000000e+009   8.8984025032e-001  -4.5738933380e-001
  2.1000000000e+009   8.7864589386e-001  -4.7843259912e-001
  2.2000000000e+009   8.6701092612e-001  -4.9956424135e-001
  2.3000000000e+009   8.5502246879e-001  -5.1959658676e-001
  2.4000000000e+009   8.4224730424e-001  -5.4000210739e-001
  2.5000000000e+009   8.2895382592e-001  -5.6018284919e-001
  2.6000000000e+009   8.1554751881e-001  -5.8004589913e-001
  2.7000000000e+009   8.0124349051e-001  -5.9922696317e-001
  2.8000000000e+009   7.8616406491e-001  -6.1841778559e-001
  2.9000000000e+009   7.7147308077e-001  -6.3668451363e-001
  3.0000000000e+009   7.5596849818e-001  -6.5485047100e-001
  3.1000000000e+009   7.4057711054e-001  -6.7183594981e-001
  3.2000000000e+009   7.2537265353e-001  -6.8850670288e-001
  3.3000000000e+009   7.0885163458e-001  -7.0660599249e-001
  3.4000000000e+009   6.9150535687e-001  -7.2335975321e-001
  3.5000000000e+009   6.7434753061e-001  -7.3945276183e-001
  3.6000000000e+009   6.5615255985e-001  -7.5533761120e-001
  3.7000000000e+009   6.3756937172e-001  -7.7091635473e-001
  3.8000000000e+009   6.1973550768e-001  -7.8536307712e-001
  3.9000000000e+009   6.0027154346e-001  -8.0032499320e-001
  4.0000000000e+009   5.8089952060e-001  -8.1425767654e-001
  4.1000000000e+009   5.6114400990e-001  -8.2797152477e-001
  4.2000000000e+009   5.4159674164e-001  -8.4124405395e-001
  4.3000000000e+009   5.2143482616e-001  -8.5371516243e-001
  4.4000000000e+009   5.0121145747e-001  -8.6582673839e-001
  4.5000000000e+009   4.8067046570e-001  -8.7720466603e-001
  4.6000000000e+009   4.5938403526e-001  -8.8807632109e-001
  4.7000000000e+009   4.3810364310e-001  -8.9958262352e-001
  4.8000000000e+009   4.1643473002e-001  -9.0935047721e-001
  4.9000000000e+009   3.9467948913e-001  -9.1891386088e-001
  5.0000000000e+009   3.7224881603e-001  -9.2837580278e-001
  5.1000000000e+009   3.5002506799e-001  -9.3694762889e-001
  5.2000000000e+009   3.2766785211e-001  -9.4485271822e-001
  5.3000000000e+009   3.0417035699e-001  -9.5259790902e-001
  5.4000000000e+009   2.8122962270e-001  -9.5986585069e-001
  5.5000000000e+009   2.5877098956e-001  -9.6663119626e-001
  5.6000000000e+009   2.3504042979e-001  -9.7210719126e-001
  5.7000000000e+009   2.1208470524e-001  -9.7748193693e-001
  5.8000000000e+009   1.8857790339e-001  -9.8247947318e-001
  5.9000000000e+009   1.6482813578e-001  -9.8656583592e-001
  6.0000000000e+009   1.4133884604e-001  -9.9015994610e-001
  6.1000000000e+009   1.1747353107e-001  -9.9341182065e-001
  6.2000000000e+009   9.3746348538e-002  -9.9560507843e-001
  6.3000000000e+009   6.9835784905e-002  -9.9738695888e-001
  6.4000000000e+009   4.6041709316e-002  -9.9910115345e-001
  6.5000000000e+009   2.1492687490e-002  -9.9996576648e-001
  6.6000000000e+009  -2.3673554847e-003  -9.9994796120e-001
  6.7000000000e+009  -2.6586552245e-002  -9.9960363896e-001
  6.8000000000e+009  -5.0427262988e-002  -9.9859330712e-001
  6.9000000000e+009  -7.4797505504e-002  -9.9721990254e-001
  7.0000000000e+009  -9.8829325084e-002  -9.9488466149e-001
  7.1000000000e+009  -1.2291897875e-001  -9.9214460896e-001
  7.2000000000e+009  -1.4632296598e-001  -9.8900894902e-001
  7.3000000000e+009  -1.6987180100e-001  -9.8539557485e-001
  7.4000000000e+009  -1.9319130523e-001  -9.8073008140e-001
  7.5000000000e+009  -2.1667556016e-001  -9.7590055009e-001
  7.6000000000e+009  -2.4065223381e-001  -9.7029527552e-001
  7.7000000000e+009  -2.6357372943e-001  -9.6425220870e-001
  7.8000000000e+009  -2.8679330637e-001  -9.5767190292e-001
  7.9000000000e+009  -3.1050227604e-001  -9.5039252846e-001
  8.0000000000e+009  -3.3251756731e-001  -9.4219582881e-001
  8.1000000000e+009  -3.5527161290e-001  -9.3405344174e-001
  8.2000000000e+009  -3.7768200918e-001  -9.2515176620e-001
  8.3000000000e+009  -3.9973758053e-001  -9.1572260877e-001
  8.4000000000e+009  -4.2175590783e-001  -9.0601618670e-001
  8.5000000000e+009  -4.4372764693e-001  -8.9567496585e-001
  8.6000000000e+009  -4.6520789380e-001  -8.8442003023e-001
  8.7000000000e+009  -4.8610181151e-001  -8.7282593430e-001
  8.8000000000e+009  -5.0723682869e-001  -8.6073313096e-001
  8.9000000000e+009  -5.2839347358e-001  -8.4819981976e-001
  9.0000000000e+009  -5.4837654496e-001  -8.3502617526e-001
  9.1000000000e+009  -5.6872205236e-001  -8.2166678898e-001
  9.2000000000e+009  -5.8848167951e-001  -8.0748723431e-001
  9.3000000000e+009  -6.0819327475e-001  -7.9295970218e-001
  9.4000000000e+009  -6.2709005290e-001  -7.7812685898e-001
  9.5000000000e+009  -6.4582869940e-001  -7.6239516721e-001
  9.6000000000e+009  -6.6375981465e-001  -7.4651198260e-001
  9.7000000000e+009  -6.8164191276e-001  -7.3044757715e-001
  9.8000000000e+009  -6.9912635842e-001  -7.1319439775e-001
  9.9000000000e+009  -7.1612842425e-001  -6.9611985152e-001
  1.0000000000e+010  -7.3292712455e-001  -6.7877462909e-001
  1.0100000000e+010  -7.4897734240e-001  -6.6086948210e-001
  1.0200000000e+010  -7.6489695001e-001  -6.4239837438e-001
  1.0300000000e+010  -7.8042973733e-001  -6.2329528085e-001
  1.0400000000e+010  -7.9484690841e-001  -6.0400350587e-001
  1.0500000000e+010  -8.0901108281e-001  -5.8474188903e-001
  1.0600000000e+010  -8.2250618345e-001  -5.6546601471e-001
  1.0700000000e+010  -8.3732614478e-001  -5.4576368526e-001
  1.0800000000e+010  -8.5031946535e-001  -5.2464659604e-001
  1.0900000000e+010  -8.6246047506e-001  -5.0332120302e-001
  1.1000000000e+010  -8.7441403022e-001  -4.8218612960e-001
  1.1100000000e+010  -8.8569084281e-001  -4.6069905845e-001
  1.1200000000e+010  -8.9657121892e-001  -4.3949165575e-001
  1.1300000000e+010  -9.0700474752e-001  -4.1756318871e-001
  1.1400000000e+010  -9.1689683110e-001  -3.9555050339e-001
  1.1500000000e+010  -9.2596337173e-001  -3.7287603627e-001
  1.1600000000e+010  -9.3478194691e-001  -3.5033513931e-001
  1.1700000000e+010  -9.4321035587e-001  -3.2743499743e-001
  1.1800000000e+010  -9.5060846486e-001  -3.0475011593e-001
  1.1900000000e+010  -9.5741027145e-001  -2.8202324827e-001
  1.2000000000e+010  -9.6404416222e-001  -2.5851757032e-001
  1.2100000000e+010  -9.7036414127e-001  -2.3498303457e-001
  1.2200000000e+010  -9.7565526419e-001  -2.1126555137e-001
  1.2300000000e+010  -9.8008511028e-001  -1.8780334667e-001
  1.2400000000e+010  -9.8453473209e-001  -1.6364899460e-001
  1.2500000000e+010  -9.8844336843e-001  -1.4014971713e-001
  1.2600000000e+010  -9.9131665415e-001  -1.1578480482e-001
  1.2700000000e+010  -9.9377198167e-001  -9.1722284884e-002
  1.2800000000e+010  -9.9566137856e-001  -6.7789432366e-002
  1.2900000000e+010  -9.9710925043e-001  -4.3847415827e-002
  1.3000000000e+010  -9.9806137550e-001  -1.9316311859e-002
  1.3100000000e+010  -9.9781787122e-001   4.9327506490e-003
  1.3200000000e+010  -9.9701241985e-001   2.9000577316e-002
  1.3300000000e+010  -9.9657414556e-001   5.3306589411e-002
  1.3400000000e+010  -9.9477295922e-001   7.7627930145e-002
  1.3500000000e+010  -9.9252432043e-001   1.0163815136e-001
  1.3600000000e+010  -9.8964220868e-001   1.2544529245e-001
  1.3700000000e+010  -9.8642836458e-001   1.4959203356e-001
  1.3800000000e+010  -9.8243213606e-001   1.7362182084e-001
  1.3900000000e+010  -9.7791146877e-001   1.9724954624e-001
  1.4000000000e+010  -9.7278208147e-001   2.2115927597e-001
  1.4100000000e+010  -9.6754400976e-001   2.4472671509e-001
  1.4200000000e+010  -9.6072870890e-001   2.6774777606e-001
  1.4300000000e+010  -9.5413199531e-001   2.9086369520e-001
  1.4400000000e+010  -9.4680448558e-001   3.1398158078e-001
  1.4500000000e+010  -9.3890853041e-001   3.3641412284e-001
  1.4600000000e+010  -9.3014605765e-001   3.5917635781e-001
  1.4700000000e+010  -9.2125855357e-001   3.8171420205e-001
  1.4800000000e+010  -9.1146154634e-001   4.0379921642e-001
  1.4900000000e+010  -9.0172198528e-001   4.2594453904e-001
  1.5000000000e+010  -8.9114267468e-001   4.4733026708e-001
  1.5100000000e+010  -8.8016008617e-001   4.6873615116e-001
  1.5200000000e+010  -8.6844724931e-001   4.8991764094e-001
  1.5300000000e+010  -8.5643656231e-001   5.1057369810e-001
  1.5400000000e+010  -8.4386184264e-001   5.3100593437e-001
  1.5500000000e+010  -8.3062070052e-001   5.5169968171e-001
  1.5600000000e+010  -8.1727355433e-001   5.7140903310e-001
  1.5700000000e+010  -8.0291667477e-001   5.9076402662e-001
  1.5800000000e+010  -7.8862660548e-001   6.0984089924e-001
  1.5900000000e+010  -7.7370415560e-001   6.2845489427e-001
  1.6000000000e+010  -7.5834751506e-001   6.4740813464e-001
  1.6100000000e+010  -7.4249267387e-001   6.6533806954e-001
  1.6200000000e+010  -7.2638403453e-001   6.8245169302e-001
  1.6300000000e+010  -7.0955140141e-001   6.9965436120e-001
  1.6400000000e+010  -6.9267724521e-001   7.1693749739e-001
  1.6500000000e+010  -6.7553020282e-001   7.3283260163e-001
  1.6600000000e+010  -6.5778981238e-001   7.4841887331e-001
  1.6700000000e+010  -6.3961339899e-001   7.6421743643e-001
  1.6800000000e+010  -6.2119101130e-001   7.7931784274e-001
  1.6900000000e+010  -6.0246569702e-001   7.9391955252e-001
  1.7000000000e+010  -5.8279341939e-001   8.0788424944e-001
  1.7100000000e+010  -5.6370509902e-001   8.2150028251e-001
  1.7200000000e+010  -5.4416696299e-001   8.3505877529e-001
  1.7300000000e+010  -5.2399535815e-001   8.4756196785e-001
  1.7400000000e+010  -5.0342583273e-001   8.6009003420e-001
  1.7500000000e+010  -4.8254817006e-001   8.7143586380e-001
  1.7600000000e+010  -4.6205922688e-001   8.8293458174e-001
  1.7700000000e+010  -4.4070810850e-001   8.9385004224e-001
  1.7800000000e+010  -4.1924994976e-001   9.0342306355e-001
  1.7900000000e+010  -3.9776478113e-001   9.1331285400e-001
  1.8000000000e+010  -3.7613812767e-001   9.2228616227e-001
  1.8100000000e+010  -3.5373384422e-001   9.3112489796e-001
  1.8200000000e+010  -3.3123568934e-001   9.3932896564e-001
  1.8300000000e+010  -3.0861589952e-001   9.4685021053e-001
  1.8400000000e+010  -2.8578737999e-001   9.5420247466e-001
  1.8500000000e+010  -2.6309168659e-001   9.6097406164e-001
  1.8600000000e+010  -2.4028394838e-001   9.6685901827e-001
  1.8700000000e+010  -2.1703832351e-001   9.7207970892e-001
  1.8800000000e+010  -1.9415169664e-001   9.7729087494e-001
  1.8900000000e+010  -1.7075970049e-001   9.8140570255e-001
  1.9000000000e+010  -1.4784819471e-001   9.8538093481e-001
  1.9100000000e+010  -1.2443711987e-001   9.8834414686e-001
  1.9200000000e+010  -1.0102156136e-001   9.9108788767e-001
  1.9300000000e+010  -7.7619160696e-002   9.9343920564e-001
  1.9400000000e+010  -5.4326584032e-002   9.9499237401e-001
  1.9500000000e+010  -3.0213127285e-002   9.9596813182e-001
  1.9600000000e+010  -7.0397531385e-003   9.9625410393e-001
  1.9700000000e+010   1.6186338500e-002   9.9600423301e-001
  1.9800000000e+010   3.9934043267e-002   9.9531664744e-001
  1.9900000000e+010   6.3240118124e-002   9.9449187344e-001
  2.0000000000e+010   8.6998282171e-002   9.9257309420e-001
  2.0100000000e+010   1.0997283994e-001   9.8998408582e-001
  2.0200000000e+010   1.3355054074e-001   9.8719253562e-001
  2.0300000000e+010   1.5683961226e-001   9.8390399244e-001
  2.0400000000e+010   1.8012133228e-001   9.7995491402e-001
  2.0500000000e+010   2.0311843994e-001   9.7580356793e-001
  2.0600000000e+010   2.2590723203e-001   9.7038077490e-001
  2.0700000000e+010   2.4901812046e-001   9.6475058531e-001
  2.0800000000e+010   2.7165229639e-001   9.5850621570e-001
  2.0900000000e+010   2.9427355313e-001   9.5218352670e-001
  2.1000000000e+010   3.1670589411e-001   9.4455307481e-001
  2.1100000000e+010   3.3852059950e-001   9.3701669586e-001
  2.1200000000e+010   3.6092626173e-001   9.2879037622e-001
  2.1300000000e+010   3.8243463492e-001   9.2000092438e-001
  2.1400000000e+010   4.0424533329e-001   9.1063617108e-001
  2.1500000000e+010   4.2505918712e-001   9.0090233276e-001
  2.1600000000e+010   4.4592857753e-001   8.9084176769e-001
  2.1700000000e+010   4.6630729276e-001   8.7999832992e-001
  2.1800000000e+010   4.8726144248e-001   8.6902290718e-001
  2.1900000000e+010   5.0694665630e-001   8.5715134693e-001
  2.2000000000e+010   5.2750394873e-001   8.4540377405e-001
  2.2100000000e+010   5.4686102863e-001   8.3242526809e-001
  2.2200000000e+010   5.6599765538e-001   8.1961858080e-001
  2.2300000000e+010   5.8539439546e-001   8.0595512919e-001
  2.2400000000e+010   6.0387838120e-001   7.9214331768e-001
  2.2500000000e+010   6.2207792613e-001   7.7783000770e-001
  2.2600000000e+010   6.4013336658e-001   7.6282972692e-001
  2.2700000000e+010   6.5787391435e-001   7.4783742167e-001
  2.2800000000e+010   6.7532374596e-001   7.3237256369e-001
  2.2900000000e+010   6.9216912296e-001   7.1639511625e-001
  2.3000000000e+010   7.0853222093e-001   6.9974596877e-001
  2.3100000000e+010   7.2451118193e-001   6.8272474684e-001
  2.3200000000e+010   7.4045723452e-001   6.6606740663e-001
  2.3300000000e+010   7.5589719175e-001   6.4807714835e-001
  2.3400000000e+010   7.7061712416e-001   6.3074023534e-001
  2.3500000000e+010   7.8528943520e-001   6.1213409782e-001
  2.3600000000e+010   7.9932368311e-001   5.9380324173e-001
  2.3700000000e+010   8.1297414590e-001   5.7477997029e-001
  2.3800000000e+010   8.2638055387e-001   5.5567700909e-001
  2.3900000000e+010   8.3929912153e-001   5.3605339412e-001
  2.4000000000e+010   8.5179901725e-001   5.1645218983e-001
  2.4100000000e+010   8.6302366277e-001   4.9634379050e-001
  2.4200000000e+010   8.7471109109e-001   4.7642723514e-001
  2.4300000000e+010   8.8557324134e-001   4.5531180278e-001
  2.4400000000e+010   8.9706083197e-001   4.3512278867e-001
  2.4500000000e+010   9.0562641186e-001   4.1363321019e-001
  2.4600000000e+010   9.1482962789e-001   3.9277450490e-001
  2.4700000000e+010   9.2311052430e-001   3.6965564148e-001
  2.4800000000e+010   9.3350379279e-001   3.4900616362e-001
  2.4900000000e+010   9.4196030682e-001   3.2685196803e-001
  2.5000000000e+010   9.4887010459e-001   3.0592664886e-001
  2.5100000000e+010   9.5480482104e-001   2.8364571665e-001
  2.5200000000e+010   9.6112995536e-001   2.6040277941e-001
  2.5300000000e+010   9.6674523990e-001   2.3902511622e-001
  2.5400000000e+010   9.7397598066e-001   2.1617780501e-001
  2.5500000000e+010   9.7808975756e-001   1.9261770984e-001
  2.5600000000e+010   9.8031440294e-001   1.6937621252e-001
  2.5700000000e+010   9.8497391318e-001   1.4721326309e-001
  2.5800000000e+010   9.8859065114e-001   1.2532288567e-001
  2.5900000000e+010   9.9047353090e-001   1.0023257478e-001
  2.6000000000e+010   9.9354947335e-001   7.8379692482e-002
  2.6100000000e+010   9.9475020177e-001   5.5759842646e-002
  2.6200000000e+010   9.9415754857e-001   3.1731059963e-002
  2.6300000000e+010   9.9554809279e-001   8.4472890454e-003
  2.6400000000e+010   9.9635557803e-001  -1.5022938949e-002
  2.6500000000e+010   9.9536703827e-001  -3.8416008853e-002
  2.6600000000e+010   9.9434382912e-001  -6.1155459723e-002
  2.6700000000e+010   9.9334570572e-001  -8.4201639098e-002
  2.6800000000e+010   9.8950911049e-001  -1.0876571694e-001
  2.6900000000e+010   9.8807077030e-001  -1.2938161037e-001
  2.7000000000e+010   9.8404266529e-001  -1.5458579546e-001
  2.7100000000e+010   9.7935395376e-001  -1.7718846428e-001
  2.7200000000e+010   9.7581297331e-001  -2.0076884809e-001
  2.7300000000e+010   9.7057932855e-001  -2.2402563292e-001
  2.7400000000e+010   9.6480904571e-001  -2.4653397086e-001
  2.7500000000e+010   9.5893244198e-001  -2.6979568048e-001
  2.7600000000e+010   9.5112334625e-001  -2.9235040622e-001
  2.7700000000e+010   9.4408733861e-001  -3.1465446469e-001
  2.7800000000e+010   9.3818263901e-001  -3.3545869695e-001
  2.7900000000e+010   9.2939062533e-001  -3.5783166303e-001
  2.8000000000e+010   9.2050298086e-001  -3.7964110387e-001
  2.8100000000e+010   9.1168535171e-001  -4.0099114402e-001
  2.8200000000e+010   9.0166769416e-001  -4.2149775544e-001
  2.8300000000e+010   8.9238846493e-001  -4.4282570662e-001
  2.8400000000e+010   8.8099613738e-001  -4.6426586701e-001
  2.8500000000e+010   8.6997782681e-001  -4.8527618563e-001
  2.8600000000e+010   8.5719718939e-001  -5.0490522641e-001
  2.8700000000e+010   8.4671974561e-001  -5.2525524133e-001
  2.8800000000e+010   8.3461345767e-001  -5.4492823439e-001
  2.8900000000e+010   8.2001582407e-001  -5.6420185900e-001
  2.9000000000e+010   8.0582051266e-001  -5.8486561330e-001
  2.9100000000e+010   7.9340960807e-001  -6.0345871762e-001
  2.9200000000e+010   7.7744955492e-001  -6.2119829819e-001
  2.9300000000e+010   7.6343409327e-001  -6.3926263029e-001
  2.9400000000e+010   7.4646971244e-001  -6.5908889191e-001
  2.9500000000e+010   7.3238222808e-001  -6.7603493696e-001
  2.9600000000e+010   7.1620047992e-001  -6.9229777074e-001
  2.9700000000e+010   6.9958982775e-001  -7.0856978641e-001
  2.9800000000e+010   6.8035193220e-001  -7.2565680851e-001
  2.9900000000e+010   6.6411209002e-001  -7.4104428574e-001
  3.0000000000e+010   6.4628828467e-001  -7.5696481986e-001
  3.0100000000e+010   6.2823985144e-001  -7.7332345046e-001
  3.0200000000e+010   6.0779031319e-001  -7.8807029603e-001
  3.0300000000e+010   5.8978556983e-001  -8.0314193637e-001
  3.0400000000e+010   5.6994975400e-001  -8.1649880958e-001
  3.0500000000e+010   5.4990115920e-001  -8.3045944963e-001
  3.0600000000e+010   5.3017050955e-001  -8.4158224021e-001
  3.0700000000e+010   5.1023595768e-001  -8.5583048587e-001
  3.0800000000e+010   4.8974461410e-001  -8.6841981160e-001
  3.0900000000e+010   4.6943253348e-001  -8.7903106160e-001
  3.1000000000e+010   4.4587456772e-001  -8.8975246179e-001
  3.1100000000e+010   4.2505983691e-001  -9.0015629045e-001
  3.1200000000e+010   4.0334332471e-001  -9.1081624359e-001
  3.1300000000e+010   3.8098610227e-001  -9.1997963004e-001
  3.1400000000e+010   3.5830724826e-001  -9.2817248687e-001
  3.1500000000e+010   3.3501400125e-001  -9.3682616654e-001
  3.1600000000e+010   3.1407837914e-001  -9.4540780594e-001
  3.1700000000e+010   2.9087268970e-001  -9.5230473412e-001
  3.1800000000e+010   2.6807519350e-001  -9.5928667228e-001
  3.1900000000e+010   2.4294800198e-001  -9.6584484855e-001
  3.2000000000e+010   2.1989774734e-001  -9.7106269447e-001
  3.2100000000e+010   1.9750919312e-001  -9.7620710538e-001
  3.2200000000e+010   1.7247071596e-001  -9.7981466920e-001
  3.2300000000e+010   1.4950439989e-001  -9.8486383937e-001
  3.2400000000e+010   1.2623193148e-001  -9.8803458052e-001
  3.2500000000e+010   1.0236828311e-001  -9.9187963698e-001
  3.2600000000e+010   7.7559132600e-002  -9.9306711696e-001
  3.2700000000e+010   5.2794248188e-002  -9.9537967287e-001
  3.2800000000e+010   3.0509277358e-002  -9.9472520154e-001
