# Hz S RI R 50.000000
! Metas.Vna.Data, 2.4.7734.25685
! Created: UTC 2023.03.21 14:20:05
! FREQ                re:S1,1             im:S1,1          
  0.0000000000e+000  -1.0000000000e+000   0.0000000000e+000
  5.0000000000e+007  -9.9908797229e-001   1.2939233045e-002
  1.0000000000e+008  -9.9873686614e-001   2.4327749397e-002
  2.0000000000e+008  -9.9802145639e-001   4.8091190624e-002
  3.0000000000e+008  -9.9644039593e-001   7.2330330469e-002
  4.0000000000e+008  -9.9417805885e-001   9.6535283524e-002
  5.0000000000e+008  -9.9154650852e-001   1.2046196041e-001
  6.0000000000e+008  -9.8807779320e-001   1.4431855936e-001
  7.0000000000e+008  -9.8428032095e-001   1.6802665156e-001
  8.0000000000e+008  -9.7998830596e-001   1.9162828313e-001
  9.0000000000e+008  -9.7495717266e-001   2.1503717015e-001
  1.0000000000e+009  -9.6966786544e-001   2.3853585308e-001
  1.1000000000e+009  -9.6373308220e-001   2.6183981960e-001
  1.2000000000e+009  -9.5688426405e-001   2.8525526713e-001
  1.3000000000e+009  -9.4970012963e-001   3.0841609003e-001
  1.4000000000e+009  -9.4207802426e-001   3.3088163335e-001
  1.5000000000e+009  -9.3371124697e-001   3.5310662263e-001
  1.6000000000e+009  -9.2483596808e-001   3.7527453556e-001
  1.7000000000e+009  -9.1599769061e-001   3.9747105030e-001
  1.8000000000e+009  -9.0574834898e-001   4.1936853832e-001
  1.9000000000e+009  -8.9538765719e-001   4.4085569008e-001
  2.0000000000e+009  -8.8460087498e-001   4.6300269363e-001
  2.1000000000e+009  -8.7328975453e-001   4.8425995030e-001
  2.2000000000e+009  -8.6142098251e-001   5.0490134652e-001
  2.3000000000e+009  -8.4897474773e-001   5.2539310933e-001
  2.4000000000e+009  -8.3615789105e-001   5.4559711965e-001
  2.5000000000e+009  -8.2213520048e-001   5.6602563812e-001
  2.6000000000e+009  -8.0841792520e-001   5.8579670488e-001
  2.7000000000e+009  -7.9335432849e-001   6.0473594210e-001
  2.8000000000e+009  -7.7878285031e-001   6.2409372245e-001
  2.9000000000e+009  -7.6349365776e-001   6.4291421993e-001
  3.0000000000e+009  -7.4776859867e-001   6.6051190750e-001
  3.1000000000e+009  -7.3211549302e-001   6.7768380119e-001
  3.2000000000e+009  -7.1613758248e-001   6.9500835262e-001
  3.3000000000e+009  -6.9965456322e-001   7.1232556611e-001
  3.4000000000e+009  -6.8215566909e-001   7.2900491768e-001
  3.5000000000e+009  -6.6465031868e-001   7.4500828552e-001
  3.6000000000e+009  -6.4591618845e-001   7.6090722567e-001
  3.7000000000e+009  -6.2735947299e-001   7.7587413815e-001
  3.8000000000e+009  -6.0853471439e-001   7.9080083700e-001
  3.9000000000e+009  -5.8914917016e-001   8.0567679024e-001
  4.0000000000e+009  -5.6938018035e-001   8.1953725078e-001
  4.1000000000e+009  -5.4906476491e-001   8.3266523737e-001
  4.2000000000e+009  -5.2868029503e-001   8.4583237328e-001
  4.3000000000e+009  -5.0866127933e-001   8.5852057791e-001
  4.4000000000e+009  -4.8764120443e-001   8.7025341102e-001
  4.5000000000e+009  -4.6681854164e-001   8.8177294045e-001
  4.6000000000e+009  -4.4557240286e-001   8.9258185048e-001
  4.7000000000e+009  -4.2412345324e-001   9.0320286446e-001
  4.8000000000e+009  -4.0187366462e-001   9.1264802207e-001
  4.9000000000e+009  -3.8011458899e-001   9.2215029107e-001
  5.0000000000e+009  -3.5791787923e-001   9.3087751971e-001
  5.1000000000e+009  -3.3517948877e-001   9.3920177816e-001
  5.2000000000e+009  -3.1246936753e-001   9.4672549158e-001
  5.3000000000e+009  -2.8996104281e-001   9.5374103597e-001
  5.4000000000e+009  -2.6699697570e-001   9.6044169746e-001
  5.5000000000e+009  -2.4369660738e-001   9.6660692818e-001
  5.6000000000e+009  -2.2026219083e-001   9.7229284429e-001
  5.7000000000e+009  -1.9677137092e-001   9.7729775961e-001
  5.8000000000e+009  -1.7302463591e-001   9.8171006679e-001
  5.9000000000e+009  -1.4943084697e-001   9.8542338355e-001
  6.0000000000e+009  -1.2603075953e-001   9.8902752155e-001
  6.1000000000e+009  -1.0215928807e-001   9.9165304064e-001
  6.2000000000e+009  -7.8430744759e-002   9.9405639480e-001
  6.3000000000e+009  -5.4387976704e-002   9.9544991084e-001
  6.4000000000e+009  -3.0465029676e-002   9.9636992669e-001
  6.5000000000e+009  -7.2645740163e-003   9.9673388595e-001
  6.6000000000e+009   1.6877246302e-002   9.9682572766e-001
  6.7000000000e+009   4.0578314714e-002   9.9623385834e-001
  6.8000000000e+009   6.4767885923e-002   9.9474886366e-001
  6.9000000000e+009   8.8708755654e-002   9.9271313015e-001
  7.0000000000e+009   1.1220627532e-001   9.9051588881e-001
  7.1000000000e+009   1.3602533016e-001   9.8756338625e-001
  7.2000000000e+009   1.5946263362e-001   9.8383109574e-001
  7.3000000000e+009   1.8330085066e-001   9.7963095710e-001
  7.4000000000e+009   2.0663567775e-001   9.7475298579e-001
  7.5000000000e+009   2.2986556224e-001   9.6983660233e-001
  7.6000000000e+009   2.5311237931e-001   9.6334992788e-001
  7.7000000000e+009   2.7674642621e-001   9.5758808051e-001
  7.8000000000e+009   2.9907578229e-001   9.5041504065e-001
  7.9000000000e+009   3.2161524976e-001   9.4332064874e-001
  8.0000000000e+009   3.4451941458e-001   9.3556680202e-001
  8.1000000000e+009   3.6688432940e-001   9.2654961227e-001
  8.2000000000e+009   3.8911420075e-001   9.1773553911e-001
  8.3000000000e+009   4.1102182588e-001   9.0815540624e-001
  8.4000000000e+009   4.3238994656e-001   8.9810311121e-001
  8.5000000000e+009   4.5337781053e-001   8.8777396255e-001
  8.6000000000e+009   4.7459946356e-001   8.7662745670e-001
  8.7000000000e+009   4.9538595966e-001   8.6521980692e-001
  8.8000000000e+009   5.1615870868e-001   8.5278688485e-001
  8.9000000000e+009   5.3651174293e-001   8.4045262905e-001
  9.0000000000e+009   5.5609454894e-001   8.2710230476e-001
  9.1000000000e+009   5.7588198416e-001   8.1373875581e-001
  9.2000000000e+009   5.9506467731e-001   7.9945650634e-001
  9.3000000000e+009   6.1389988688e-001   7.8492159627e-001
  9.4000000000e+009   6.3272256742e-001   7.7047919077e-001
  9.5000000000e+009   6.5088675670e-001   7.5488370066e-001
  9.6000000000e+009   6.6858158764e-001   7.3915190258e-001
  9.7000000000e+009   6.8605085700e-001   7.2291277693e-001
  9.8000000000e+009   7.0355159615e-001   7.0622220859e-001
  9.9000000000e+009   7.2011564358e-001   6.8930708777e-001
  1.0000000000e+010   7.3668009077e-001   6.7133364687e-001
  1.0100000000e+010   7.5261791731e-001   6.5327051438e-001
  1.0200000000e+010   7.6787512022e-001   6.3541838407e-001
  1.0300000000e+010   7.8322226266e-001   6.1689590128e-001
  1.0400000000e+010   7.9723928878e-001   5.9748053626e-001
  1.0500000000e+010   8.1113535708e-001   5.7826559090e-001
  1.0600000000e+010   8.2489491841e-001   5.5903294531e-001
  1.0700000000e+010   8.3883422173e-001   5.3949036420e-001
  1.0800000000e+010   8.5136854740e-001   5.1872023156e-001
  1.0900000000e+010   8.6362523656e-001   4.9820911434e-001
  1.1000000000e+010   8.7496360280e-001   4.7729815503e-001
  1.1100000000e+010   8.8625310371e-001   4.5663970430e-001
  1.1200000000e+010   8.9680027576e-001   4.3516421768e-001
  1.1300000000e+010   9.0739563583e-001   4.1368610426e-001
  1.1400000000e+010   9.1689192308e-001   3.9165033950e-001
  1.1500000000e+010   9.2567311252e-001   3.6944177488e-001
  1.1600000000e+010   9.3438438029e-001   3.4737410041e-001
  1.1700000000e+010   9.4220102317e-001   3.2512947921e-001
  1.1800000000e+010   9.4970419555e-001   3.0234399044e-001
  1.1900000000e+010   9.5665600205e-001   2.7971381481e-001
  1.2000000000e+010   9.6305922354e-001   2.5681664886e-001
  1.2100000000e+010   9.6903466456e-001   2.3378298738e-001
  1.2200000000e+010   9.7445572473e-001   2.1032232491e-001
  1.2300000000e+010   9.7901896116e-001   1.8699312795e-001
  1.2400000000e+010   9.8332276150e-001   1.6338236852e-001
  1.2500000000e+010   9.8695182254e-001   1.3996439023e-001
  1.2600000000e+010   9.9010062055e-001   1.1634693200e-001
  1.2700000000e+010   9.9270762176e-001   9.2478646994e-002
  1.2800000000e+010   9.9460734673e-001   6.8500653710e-002
  1.2900000000e+010   9.9588767880e-001   4.4763815916e-002
  1.3000000000e+010   9.9629814180e-001   2.1264949876e-002
  1.3100000000e+010   9.9705073778e-001  -3.0538217933e-003
  1.3200000000e+010   9.9626518248e-001  -2.6919957822e-002
  1.3300000000e+010   9.9529752400e-001  -5.0686877668e-002
  1.3400000000e+010   9.9368453339e-001  -7.4582241348e-002
  1.3500000000e+010   9.9142392573e-001  -9.8747743045e-002
  1.3600000000e+010   9.8922986806e-001  -1.2206608640e-001
  1.3700000000e+010   9.8576292249e-001  -1.4593032892e-001
  1.3800000000e+010   9.8222522858e-001  -1.6967648530e-001
  1.3900000000e+010   9.7803794065e-001  -1.9321493534e-001
  1.4000000000e+010   9.7292321091e-001  -2.1663037329e-001
  1.4100000000e+010   9.6751821038e-001  -2.3950289992e-001
  1.4200000000e+010   9.6152336401e-001  -2.6226551455e-001
  1.4300000000e+010   9.5538473807e-001  -2.8528004016e-001
  1.4400000000e+010   9.4846509242e-001  -3.0758266930e-001
  1.4500000000e+010   9.4101294879e-001  -3.3025029614e-001
  1.4600000000e+010   9.3260848897e-001  -3.5225783498e-001
  1.4700000000e+010   9.2401127362e-001  -3.7428034941e-001
  1.4800000000e+010   9.1473256177e-001  -3.9641887630e-001
  1.4900000000e+010   9.0457229835e-001  -4.1785833180e-001
  1.5000000000e+010   8.9476995129e-001  -4.3943669832e-001
  1.5100000000e+010   8.8431239344e-001  -4.6030870383e-001
  1.5200000000e+010   8.7273070463e-001  -4.8164478781e-001
  1.5300000000e+010   8.6083092343e-001  -5.0266206326e-001
  1.5400000000e+010   8.4883109523e-001  -5.2290045036e-001
  1.5500000000e+010   8.3591677664e-001  -5.4281223898e-001
  1.5600000000e+010   8.2277065395e-001  -5.6294067655e-001
  1.5700000000e+010   8.0888031186e-001  -5.8248443527e-001
  1.5800000000e+010   7.9457520956e-001  -6.0212220788e-001
  1.5900000000e+010   7.8029858257e-001  -6.2060781757e-001
  1.6000000000e+010   7.6526495846e-001  -6.3933150651e-001
  1.6100000000e+010   7.4952673266e-001  -6.5795613510e-001
  1.6200000000e+010   7.3358773255e-001  -6.7581756881e-001
  1.6300000000e+010   7.1680853590e-001  -6.9337022701e-001
  1.6400000000e+010   6.9981704224e-001  -7.1055268979e-001
  1.6500000000e+010   6.8246336467e-001  -7.2699640525e-001
  1.6600000000e+010   6.6479531175e-001  -7.4344028274e-001
  1.6700000000e+010   6.4658809011e-001  -7.5883518903e-001
  1.6800000000e+010   6.2849652965e-001  -7.7436042426e-001
  1.6900000000e+010   6.0933973329e-001  -7.8905280588e-001
  1.7000000000e+010   5.9049869854e-001  -8.0321552497e-001
  1.7100000000e+010   5.7118379467e-001  -8.1716252521e-001
  1.7200000000e+010   5.5179780098e-001  -8.3083121763e-001
  1.7300000000e+010   5.3180264801e-001  -8.4377151414e-001
  1.7400000000e+010   5.1193306056e-001  -8.5605838632e-001
  1.7500000000e+010   4.9128730229e-001  -8.6820794044e-001
  1.7600000000e+010   4.7037162922e-001  -8.7965196034e-001
  1.7700000000e+010   4.4922083291e-001  -8.9064469898e-001
  1.7800000000e+010   4.2764671006e-001  -9.0102401108e-001
  1.7900000000e+010   4.0543584314e-001  -9.1142739600e-001
  1.8000000000e+010   3.8355752314e-001  -9.2088756077e-001
  1.8100000000e+010   3.6111690453e-001  -9.2974722541e-001
  1.8200000000e+010   3.3894909414e-001  -9.3753283815e-001
  1.8300000000e+010   3.1602077141e-001  -9.4581836491e-001
  1.8400000000e+010   2.9378202021e-001  -9.5319288679e-001
  1.8500000000e+010   2.7083155387e-001  -9.5983570550e-001
  1.8600000000e+010   2.4756140074e-001  -9.6614364598e-001
  1.8700000000e+010   2.2433561593e-001  -9.7167860915e-001
  1.8800000000e+010   2.0102124125e-001  -9.7670460136e-001
  1.8900000000e+010   1.7774421904e-001  -9.8151129556e-001
  1.9000000000e+010   1.5354013470e-001  -9.8540614389e-001
  1.9100000000e+010   1.2999147304e-001  -9.8866206898e-001
  1.9200000000e+010   1.0660264130e-001  -9.9137957217e-001
  1.9300000000e+010   8.2376615774e-002  -9.9378217910e-001
  1.9400000000e+010   5.8139010222e-002  -9.9531514300e-001
  1.9500000000e+010   3.4655953748e-002  -9.9639300615e-001
  1.9600000000e+010   1.0438439281e-002  -9.9704915419e-001
  1.9700000000e+010  -1.3473659531e-002  -9.9665743440e-001
  1.9800000000e+010  -3.7553793863e-002  -9.9604552218e-001
  1.9900000000e+010  -6.1572231047e-002  -9.9485849099e-001
  2.0000000000e+010  -8.5628829749e-002  -9.9330123093e-001
  2.0100000000e+010  -1.0945198572e-001  -9.9066388933e-001
  2.0200000000e+010  -1.3314685449e-001  -9.8798858646e-001
  2.0300000000e+010  -1.5659686911e-001  -9.8435973376e-001
  2.0400000000e+010  -1.8038210537e-001  -9.8021465279e-001
  2.0500000000e+010  -2.0352892286e-001  -9.7556679407e-001
  2.0600000000e+010  -2.2671297353e-001  -9.7061558208e-001
  2.0700000000e+010  -2.4995485797e-001  -9.6474775769e-001
  2.0800000000e+010  -2.7317526543e-001  -9.5844563498e-001
  2.0900000000e+010  -2.9577956163e-001  -9.5190331180e-001
  2.1000000000e+010  -3.1844880773e-001  -9.4462960217e-001
  2.1100000000e+010  -3.4114675593e-001  -9.3658141506e-001
  2.1200000000e+010  -3.6350693527e-001  -9.2790984060e-001
  2.1300000000e+010  -3.8549758376e-001  -9.1880757710e-001
  2.1400000000e+010  -4.0772903500e-001  -9.0977339448e-001
  2.1500000000e+010  -4.2926053488e-001  -8.9914982201e-001
  2.1600000000e+010  -4.5082122130e-001  -8.8823361385e-001
  2.1700000000e+010  -4.7234173024e-001  -8.7727107289e-001
  2.1800000000e+010  -4.9315203195e-001  -8.6580457541e-001
  2.1900000000e+010  -5.1438852448e-001  -8.5356366132e-001
  2.2000000000e+010  -5.3448567646e-001  -8.4117901859e-001
  2.2100000000e+010  -5.5481080565e-001  -8.2794455632e-001
  2.2200000000e+010  -5.7444289846e-001  -8.1404415642e-001
  2.2300000000e+010  -5.9391850178e-001  -8.0054752370e-001
  2.2400000000e+010  -6.1258693524e-001  -7.8611655864e-001
  2.2500000000e+010  -6.3141198471e-001  -7.7100454911e-001
  2.2600000000e+010  -6.4959194329e-001  -7.5564367961e-001
  2.2700000000e+010  -6.6770002223e-001  -7.3999189324e-001
  2.2800000000e+010  -6.8506349204e-001  -7.2379293557e-001
  2.2900000000e+010  -7.0220587958e-001  -7.0688415953e-001
  2.3000000000e+010  -7.1864039995e-001  -6.8985437296e-001
  2.3100000000e+010  -7.3535124883e-001  -6.7206495828e-001
  2.3200000000e+010  -7.5104376000e-001  -6.5407785624e-001
  2.3300000000e+010  -7.6689362450e-001  -6.3566959121e-001
  2.3400000000e+010  -7.8167512851e-001  -6.1749096217e-001
  2.3500000000e+010  -7.9657956707e-001  -5.9818256796e-001
  2.3600000000e+010  -8.1084967414e-001  -5.7876413514e-001
  2.3700000000e+010  -8.2442773739e-001  -5.5947937258e-001
  2.3800000000e+010  -8.3767556211e-001  -5.3948690493e-001
  2.3900000000e+010  -8.5037375181e-001  -5.1926234099e-001
  2.4000000000e+010  -8.6240701124e-001  -4.9859941468e-001
  2.4100000000e+010  -8.7452777028e-001  -4.7740406012e-001
  2.4200000000e+010  -8.8590611160e-001  -4.5408590298e-001
  2.4300000000e+010  -8.9720297871e-001  -4.3370860084e-001
  2.4400000000e+010  -9.0713079034e-001  -4.1159078361e-001
  2.4500000000e+010  -9.1679366492e-001  -3.8921977112e-001
  2.4600000000e+010  -9.2472283364e-001  -3.6863980849e-001
  2.4700000000e+010  -9.3451707707e-001  -3.4638885270e-001
  2.4800000000e+010  -9.4140528676e-001  -3.2188276167e-001
  2.4900000000e+010  -9.4857711882e-001  -2.9957840147e-001
  2.5000000000e+010  -9.5767900982e-001  -2.7628614144e-001
  2.5100000000e+010  -9.6282164054e-001  -2.5245498129e-001
  2.5200000000e+010  -9.6904834950e-001  -2.3095130633e-001
  2.5300000000e+010  -9.7432394259e-001  -2.0849490219e-001
  2.5400000000e+010  -9.7884712208e-001  -1.8567507259e-001
  2.5500000000e+010  -9.8305774370e-001  -1.6110109933e-001
  2.5600000000e+010  -9.8612013506e-001  -1.3657746377e-001
  2.5700000000e+010  -9.8869467632e-001  -1.1315274580e-001
  2.5800000000e+010  -9.9196833451e-001  -8.9826123259e-002
  2.5900000000e+010  -9.9258713132e-001  -6.6918737929e-002
  2.6000000000e+010  -9.9551460449e-001  -4.2244953437e-002
  2.6100000000e+010  -9.9620025222e-001  -1.7433868229e-002
  2.6200000000e+010  -9.9602251890e-001   5.9311089148e-003
  2.6300000000e+010  -9.9546181342e-001   3.0413601517e-002
  2.6400000000e+010  -9.9511046772e-001   5.5295460575e-002
  2.6500000000e+010  -9.9300230463e-001   7.8062217647e-002
  2.6600000000e+010  -9.9039389607e-001   1.0092897646e-001
  2.6700000000e+010  -9.8772725459e-001   1.2506684376e-001
  2.6800000000e+010  -9.8433565363e-001   1.4972890664e-001
  2.6900000000e+010  -9.8000752283e-001   1.7314489453e-001
  2.7000000000e+010  -9.7729559795e-001   1.9757741789e-001
  2.7100000000e+010  -9.7039296904e-001   2.2059971344e-001
  2.7200000000e+010  -9.6535844114e-001   2.4330687592e-001
  2.7300000000e+010  -9.5944374427e-001   2.6765656308e-001
  2.7400000000e+010  -9.5332298079e-001   2.9031393985e-001
  2.7500000000e+010  -9.4493714090e-001   3.1286536636e-001
  2.7600000000e+010  -9.3778766367e-001   3.3575174822e-001
  2.7700000000e+010  -9.2852272106e-001   3.5871834086e-001
  2.7800000000e+010  -9.1989945506e-001   3.8158751452e-001
  2.7900000000e+010  -9.1010502621e-001   4.0322274404e-001
  2.8000000000e+010  -8.9950457298e-001   4.2511192130e-001
  2.8100000000e+010  -8.9020379187e-001   4.4680016047e-001
  2.8200000000e+010  -8.7843028429e-001   4.6754156384e-001
  2.8300000000e+010  -8.6691397846e-001   4.8802410953e-001
  2.8400000000e+010  -8.5403368746e-001   5.0993756929e-001
  2.8500000000e+010  -8.4202637111e-001   5.3092043994e-001
  2.8600000000e+010  -8.2927194914e-001   5.5091529860e-001
  2.8700000000e+010  -8.1587410523e-001   5.6961953934e-001
  2.8800000000e+010  -8.0169281920e-001   5.8949311555e-001
  2.8900000000e+010  -7.8678107641e-001   6.0959545601e-001
  2.9000000000e+010  -7.7239032477e-001   6.2781450660e-001
  2.9100000000e+010  -7.5606591087e-001   6.4603333602e-001
  2.9200000000e+010  -7.4109233648e-001   6.6375428759e-001
  2.9300000000e+010  -7.2450891124e-001   6.8269726657e-001
  2.9400000000e+010  -7.0829343402e-001   6.9929349740e-001
  2.9500000000e+010  -6.9115533205e-001   7.1711051786e-001
  2.9600000000e+010  -6.7295662758e-001   7.3219386314e-001
  2.9700000000e+010  -6.5533310239e-001   7.4892606198e-001
  2.9800000000e+010  -6.3590369630e-001   7.6365067117e-001
  2.9900000000e+010  -6.1739836403e-001   7.7968014880e-001
  3.0000000000e+010  -5.9797872525e-001   7.9536359305e-001
  3.0100000000e+010  -5.7902451620e-001   8.0860286868e-001
  3.0200000000e+010  -5.5836321313e-001   8.2290483879e-001
  3.0300000000e+010  -5.3882265370e-001   8.3696426801e-001
  3.0400000000e+010  -5.1880468849e-001   8.4894348157e-001
  3.0500000000e+010  -4.9788953603e-001   8.6111435192e-001
  3.0600000000e+010  -4.7674841910e-001   8.7327986175e-001
  3.0700000000e+010  -4.5575902670e-001   8.8365829610e-001
  3.0800000000e+010  -4.3494543901e-001   8.9408266963e-001
  3.0900000000e+010  -4.1209257073e-001   9.0408642304e-001
  3.1000000000e+010  -3.9075866173e-001   9.1485179519e-001
  3.1100000000e+010  -3.6830533657e-001   9.2392570425e-001
  3.1200000000e+010  -3.4764517903e-001   9.3258345663e-001
  3.1300000000e+010  -3.2457543252e-001   9.3918794830e-001
  3.1400000000e+010  -3.0152429425e-001   9.4679127132e-001
  3.1500000000e+010  -2.7858365503e-001   9.5419246997e-001
  3.1600000000e+010  -2.5665442383e-001   9.6118560135e-001
  3.1700000000e+010  -2.3279213790e-001   9.6633458026e-001
  3.1800000000e+010  -2.0938272902e-001   9.7133069076e-001
  3.1900000000e+010  -1.8539387705e-001   9.7698455614e-001
  3.2000000000e+010  -1.5989823747e-001   9.8138195885e-001
  3.2100000000e+010  -1.3771146921e-001   9.8429724629e-001
  3.2200000000e+010  -1.1393195466e-001   9.8847546883e-001
  3.2300000000e+010  -9.0498470462e-002   9.8888050428e-001
  3.2400000000e+010  -6.6629419513e-002   9.9247160791e-001
  3.2500000000e+010  -4.4129740047e-002   9.9339755831e-001
  3.2600000000e+010  -1.9837544552e-002   9.9357484729e-001
  3.2700000000e+010   5.0056261602e-003   9.9262259527e-001
  3.2800000000e+010   2.7531572276e-002   9.9353384744e-001
