# Hz S RI R 50.000000
! Metas.Vna.Data, 2.4.7734.25685
! Created: UTC 2023.03.21 14:39:27
! FREQ                re:S1,1             im:S1,1             re:S2,1             im:S2,1             re:S1,2             im:S1,2             re:S2,2             im:S2,2          
  5.0000000000e+007   1.7214531708e-005  -9.6642716900e-007   9.9867744251e-001  -2.4439670296e-002   9.9867744251e-001  -2.4439670296e-002   6.8145514286e-004   1.0291524849e-003
  1.0000000000e+008   2.9997133438e-004  -6.1761012115e-005   9.9827944111e-001  -4.8805067785e-002   9.9827944111e-001  -4.8805067785e-002   1.0833877453e-003  -1.9960369928e-004
  2.0000000000e+008   5.9288750306e-004  -1.6065720772e-004   9.9454230700e-001  -9.7342313702e-002   9.9454230700e-001  -9.7342313702e-002   1.2800832875e-003  -4.2960928250e-007
  3.0000000000e+008   8.0692976350e-004  -2.4773573556e-004   9.8852085828e-001  -1.4549412586e-001   9.8852085828e-001  -1.4549412586e-001   1.2859743937e-003   6.7033083861e-005
  4.0000000000e+008   9.5285842340e-004  -2.5254128345e-004   9.8017359272e-001  -1.9339276988e-001   9.8017359272e-001  -1.9339276988e-001   1.5224140846e-003  -4.5961702119e-005
  5.0000000000e+008   1.0309374893e-003  -1.6867971816e-004   9.6959124426e-001  -2.4051792377e-001   9.6959124426e-001  -2.4051792377e-001   1.5668157050e-003  -9.9971375048e-006
  6.0000000000e+008   1.1329113737e-003  -8.3748493814e-005   9.5667851066e-001  -2.8707935122e-001   9.5667851066e-001  -2.8707935122e-001   1.6831894778e-003   1.3692514855e-004
  7.0000000000e+008   1.2844572242e-003   2.1745491441e-005   9.4171716436e-001  -3.3286990760e-001   9.4171716436e-001  -3.3286990760e-001   1.7887469564e-003   1.1427726026e-004
  8.0000000000e+008   1.4685000214e-003   2.0475195137e-004   9.2451415549e-001  -3.7778086493e-001   9.2451415549e-001  -3.7778086493e-001   1.6810790532e-003   2.3504139450e-004
  9.0000000000e+008   1.5527772202e-003   2.7185524194e-004   9.0506720835e-001  -4.2213195394e-001   9.0506720835e-001  -4.2213195394e-001   1.5156836568e-003  -3.4226264106e-004
  1.0000000000e+009   1.6516995786e-003   3.2434249488e-004   8.8361472041e-001  -4.6529016072e-001   8.8361472041e-001  -4.6529016072e-001   1.6705371933e-003   6.3043242863e-005
  1.1000000000e+009   1.7991456157e-003   3.6499166335e-004   8.6009136659e-001  -5.0739840256e-001   8.6009136659e-001  -5.0739840256e-001   1.6547688673e-003  -1.0988959028e-004
  1.2000000000e+009   1.8408353396e-003   3.0334351102e-004   8.3441687733e-001  -5.4837917575e-001   8.3441687733e-001  -5.4837917575e-001   1.6636476554e-003  -4.5104869552e-004
  1.3000000000e+009   1.8762162691e-003   2.0397462320e-004   8.0687120422e-001  -5.8793494199e-001   8.0687120422e-001  -5.8793494199e-001   1.7163087604e-003  -1.3045985384e-004
  1.4000000000e+009   1.9363865278e-003   2.4939488574e-005   7.7752191282e-001  -6.2629746638e-001   7.7752191282e-001  -6.2629746638e-001   1.5459427112e-003  -3.0382275987e-004
  1.5000000000e+009   1.9509176453e-003  -1.5936276922e-004   7.4631359774e-001  -6.6299494391e-001   7.4631359774e-001  -6.6299494391e-001   1.4370161355e-003  -3.1398046969e-004
  1.6000000000e+009   1.9559731376e-003  -2.9428117656e-004   7.1351002981e-001  -6.9823644685e-001   7.1351002981e-001  -6.9823644685e-001   1.3564972003e-003  -4.3463393349e-004
  1.7000000000e+009   2.0065556543e-003  -5.0698778923e-004   6.7879601090e-001  -7.3208869676e-001   6.7879601090e-001  -7.3208869676e-001   1.1737723704e-003  -8.6229981141e-005
  1.8000000000e+009   2.0216506673e-003  -6.6293742796e-004   6.4255935304e-001  -7.6385553879e-001   6.4255935304e-001  -7.6385553879e-001   1.2230914275e-003  -2.1823718371e-004
  1.9000000000e+009   2.0523502311e-003  -8.4351038694e-004   6.0481001437e-001  -7.9397096885e-001   6.0481001437e-001  -7.9397096885e-001   1.1826261301e-003  -3.7992934122e-004
  2.0000000000e+009   2.1011078683e-003  -9.6479518534e-004   5.6555643406e-001  -8.2243973648e-001   5.6555643406e-001  -8.2243973648e-001   1.0232336448e-003  -3.0931146644e-004
  2.1000000000e+009   2.0794120967e-003  -1.1774291207e-003   5.2501973888e-001  -8.4876317267e-001   5.2501973888e-001  -8.4876317267e-001   1.3191173068e-003  -1.7540417167e-004
  2.2000000000e+009   2.1257981881e-003  -1.2294773228e-003   4.8336361069e-001  -8.7322149308e-001   4.8336361069e-001  -8.7322149308e-001   7.9927310075e-004  -2.4593521787e-004
  2.3000000000e+009   2.1312351715e-003  -1.3530392971e-003   4.4063806013e-001  -8.9545958295e-001   4.4063806013e-001  -8.9545958295e-001   1.0315133186e-003  -2.6067570740e-004
  2.4000000000e+009   2.1035267911e-003  -1.4007806030e-003   3.9668189456e-001  -9.1567090318e-001   3.9668189456e-001  -9.1567090318e-001   8.0486832218e-004  -6.0814141072e-005
  2.5000000000e+009   2.0305181895e-003  -1.5757433813e-003   3.5167681801e-001  -9.3380296995e-001   3.5167681801e-001  -9.3380296995e-001   1.0712757018e-003  -4.6772884272e-004
  2.6000000000e+009   2.0209407351e-003  -1.6293037064e-003   3.0614857506e-001  -9.4981847638e-001   3.0614857506e-001  -9.4981847638e-001   1.5175293028e-003  -1.2382293534e-004
  2.7000000000e+009   1.9540801915e-003  -1.6097056381e-003   2.5983228871e-001  -9.6323933024e-001   2.5983228871e-001  -9.6323933024e-001   9.0393004912e-004  -4.6566962645e-004
  2.8000000000e+009   1.7943046679e-003  -1.6680078810e-003   2.1277578291e-001  -9.7464204559e-001   2.1277578291e-001  -9.7464204559e-001   8.2118789714e-004  -3.0704306487e-004
  2.9000000000e+009   1.7567325510e-003  -1.8711916841e-003   1.6543413911e-001  -9.8380464444e-001   1.6543413911e-001  -9.8380464444e-001   1.1678990965e-003  -3.9217559082e-004
  3.0000000000e+009   1.5018211185e-003  -1.9594788462e-003   1.1773908483e-001  -9.9054897084e-001   1.1773908483e-001  -9.9054897084e-001   7.1377344033e-004  -2.3431979354e-004
  3.1000000000e+009   1.2828131202e-003  -2.0974427879e-003   7.0173098390e-002  -9.9504270366e-001   7.0173098390e-002  -9.9504270366e-001   8.6031803856e-004  -3.4908132349e-004
  3.2000000000e+009   1.0436791716e-003  -2.2733298456e-003   2.2025362037e-002  -9.9740648904e-001   2.2025362037e-002  -9.9740648904e-001   7.8554499578e-004  -7.1445409579e-004
  3.3000000000e+009   7.2916522571e-004  -2.3808979723e-003  -2.6435177913e-002  -9.9734142548e-001  -2.6435177913e-002  -9.9734142548e-001   4.1608091921e-004  -5.3432022153e-005
  3.4000000000e+009   4.5144432140e-004  -2.4265497787e-003  -7.4688592840e-002  -9.9478858508e-001  -7.4688592840e-002  -9.9478858508e-001   1.8215196415e-004  -1.6966370181e-004
  3.5000000000e+009   1.4228219637e-004  -2.4370565821e-003  -1.2249914849e-001  -9.8995319480e-001  -1.2249914849e-001  -9.8995319480e-001   1.3015037931e-004   7.4970082274e-005
  3.6000000000e+009  -6.1909189715e-005  -2.5251333950e-003  -1.7038548783e-001  -9.8267216095e-001  -1.7038548783e-001  -9.8267216095e-001   1.6154212898e-004   2.2516706268e-004
  3.7000000000e+009  -3.2079241321e-004  -2.4017247141e-003  -2.1760270547e-001  -9.7320548613e-001  -2.1760270547e-001  -9.7320548613e-001   1.2617821612e-004   6.4453950790e-004
  3.8000000000e+009  -5.9985646312e-004  -2.3328676361e-003  -2.6421943251e-001  -9.6162977339e-001  -2.6421943251e-001  -9.6162977339e-001  -1.0289393724e-004   4.1394323306e-004
  3.9000000000e+009  -8.6597534462e-004  -2.2467672464e-003  -3.1046573328e-001  -9.4766024879e-001  -3.1046573328e-001  -9.4766024879e-001  -1.9437331624e-004   5.3662876414e-004
  4.0000000000e+009  -1.0466080174e-003  -1.9304668097e-003  -3.5589638685e-001  -9.3140137915e-001  -3.5589638685e-001  -9.3140137915e-001  -4.6052510209e-004   8.2743313413e-004
  4.1000000000e+009  -1.2664758766e-003  -1.7249526964e-003  -4.0048173860e-001  -9.1307506904e-001  -4.0048173860e-001  -9.1307506904e-001  -4.6292748170e-004   4.9182867097e-004
  4.2000000000e+009  -1.4047755915e-003  -1.4394350890e-003  -4.4416298250e-001  -8.9272864218e-001  -4.4416298250e-001  -8.9272864218e-001  -7.7207918339e-004   7.4330943883e-004
  4.3000000000e+009  -1.6760690136e-003  -1.1933323320e-003  -4.8665561543e-001  -8.7028215455e-001  -4.8665561543e-001  -8.7028215455e-001  -6.1499306959e-004   7.7217952626e-004
  4.4000000000e+009  -1.8546654858e-003  -9.0016688606e-004  -5.2808002329e-001  -8.4565022045e-001  -5.2808002329e-001  -8.4565022045e-001  -8.4020632542e-004   1.1035957332e-003
  4.5000000000e+009  -1.9849308211e-003  -6.2089640250e-004  -5.6818265568e-001  -8.1920949504e-001  -5.6818265568e-001  -8.1920949504e-001  -9.0383456272e-004   8.8844344759e-004
  4.6000000000e+009  -2.2110443050e-003  -2.6532643321e-004  -6.0713497251e-001  -7.9062638474e-001  -6.0713497251e-001  -7.9062638474e-001  -9.1791722073e-004   1.1929726968e-003
  4.7000000000e+009  -2.3369279638e-003   4.1551286804e-006  -6.4473985940e-001  -7.6042826109e-001  -6.4473985940e-001  -7.6042826109e-001  -8.9602998549e-004   1.7458390387e-003
  4.8000000000e+009  -2.4460562089e-003   2.4160004501e-004  -6.8060181076e-001  -7.2826227598e-001  -6.8060181076e-001  -7.2826227598e-001  -1.1269050317e-003   1.9015064301e-003
  4.9000000000e+009  -2.5676661502e-003   5.0489279279e-004  -7.1480552971e-001  -6.9452708307e-001  -7.1480552971e-001  -6.9452708307e-001  -1.1238538319e-003   1.8211566826e-003
  5.0000000000e+009  -2.6639530812e-003   8.1600897844e-004  -7.4754035702e-001  -6.5920512198e-001  -7.4754035702e-001  -6.5920512198e-001  -1.0721895871e-003   2.0501978365e-003
  5.1000000000e+009  -2.6681761820e-003   1.0908574893e-003  -7.7854586841e-001  -6.2206130743e-001  -7.7854586841e-001  -6.2206130743e-001  -1.0169797633e-003   2.5626134941e-003
  5.2000000000e+009  -2.7040372854e-003   1.4810603938e-003  -8.0757312423e-001  -5.8370721529e-001  -8.0757312423e-001  -5.8370721529e-001  -1.3008243900e-003   2.5460420487e-003
  5.3000000000e+009  -2.6078130649e-003   1.6427012197e-003  -8.3484559618e-001  -5.4396880869e-001  -8.3484559618e-001  -5.4396880869e-001  -8.8990173281e-004   3.0952781057e-003
  5.4000000000e+009  -2.5422204331e-003   2.1161919902e-003  -8.6014216342e-001  -5.0296664659e-001  -8.6014216342e-001  -5.0296664659e-001  -7.0891499433e-004   3.3894999183e-003
  5.5000000000e+009  -2.2481303169e-003   2.4164616624e-003  -8.8350907885e-001  -4.6089030987e-001  -8.8350907885e-001  -4.6089030987e-001  -9.0835153446e-004   3.4732325894e-003
  5.6000000000e+009  -1.9835211716e-003   2.8110897331e-003  -9.0469897242e-001  -4.1750830924e-001  -9.0469897242e-001  -4.1750830924e-001  -5.0702804060e-004   3.8187572067e-003
  5.7000000000e+009  -1.7015824146e-003   3.0519603746e-003  -9.2366811737e-001  -3.7324096506e-001  -9.2366811737e-001  -3.7324096506e-001  -5.5265414202e-004   3.5831769223e-003
  5.8000000000e+009  -1.4075789122e-003   3.3959303469e-003  -9.4063981471e-001  -3.2820941129e-001  -9.4063981471e-001  -3.2820941129e-001  -3.1509866297e-004   4.0549873057e-003
  5.9000000000e+009  -1.1719781237e-003   3.6697108764e-003  -9.5531252526e-001  -2.8235513538e-001  -9.5531252526e-001  -2.8235513538e-001  -4.7151752452e-005   4.2518053377e-003
  6.0000000000e+009  -8.4904051173e-004   4.0863624690e-003  -9.6784197595e-001  -2.3608963764e-001  -9.6784197595e-001  -2.3608963764e-001   2.7906420945e-004   4.5870479031e-003
  6.1000000000e+009  -5.9495329171e-004   4.3680315824e-003  -9.7815361595e-001  -1.8896019318e-001  -9.7815361595e-001  -1.8896019318e-001   4.3814742921e-004   5.0571587705e-003
  6.2000000000e+009  -3.1498982256e-004   4.7289507428e-003  -9.8592527426e-001  -1.4160131188e-001  -9.8592527426e-001  -1.4160131188e-001   6.9449783911e-004   4.8233818520e-003
  6.3000000000e+009   1.0676780003e-005   5.0070316952e-003  -9.9152351508e-001  -9.3760039742e-002  -9.9152351508e-001  -9.3760039742e-002   8.0286250176e-004   5.0442241427e-003
  6.4000000000e+009   3.4609252707e-004   5.2783065255e-003  -9.9496607074e-001  -4.5773466905e-002  -9.9496607074e-001  -4.5773466905e-002   8.5578219149e-004   5.5102538963e-003
  6.5000000000e+009   7.2225225046e-004   5.5104850273e-003  -9.9594738355e-001   2.2480327011e-003  -9.9594738355e-001   2.2480327011e-003   1.5228174359e-003   5.7733710288e-003
  6.6000000000e+009   1.1280607125e-003   5.6760051651e-003  -9.9465931742e-001   5.0274319067e-002  -9.9465931742e-001   5.0274319067e-002   1.7127249940e-003   5.9115012014e-003
  6.7000000000e+009   1.5290480044e-003   5.7541343550e-003  -9.9112134688e-001   9.8228341130e-002  -9.9112134688e-001   9.8228341130e-002   1.9686801240e-003   5.9915549532e-003
  6.8000000000e+009   2.0219149837e-003   5.7750134880e-003  -9.8504763323e-001   1.4595343987e-001  -9.8504763323e-001   1.4595343987e-001   1.9825542438e-003   6.1555393724e-003
  6.9000000000e+009   2.5445533665e-003   5.7092066326e-003  -9.7683754284e-001   1.9343233247e-001  -9.7683754284e-001   1.9343233247e-001   2.1192700863e-003   6.4243911473e-003
  7.0000000000e+009   3.0298715048e-003   5.6262123425e-003  -9.6631759199e-001   2.4040358870e-001  -9.6631759199e-001   2.4040358870e-001   2.5798652790e-003   6.3888572162e-003
  7.1000000000e+009   3.5614522996e-003   5.4920947761e-003  -9.5350308143e-001   2.8685730046e-001  -9.5350308143e-001   2.8685730046e-001   2.8398131724e-003   6.5338416190e-003
  7.2000000000e+009   4.1312321847e-003   5.4019203357e-003  -9.3846624195e-001   3.3242984004e-001  -9.3846624195e-001   3.3242984004e-001   3.1964944438e-003   6.7198090824e-003
  7.3000000000e+009   4.7048181754e-003   5.3410549541e-003  -9.2140149923e-001   3.7737610830e-001  -9.2140149923e-001   3.7737610830e-001   3.4637480364e-003   6.6926558843e-003
  7.4000000000e+009   5.0440251531e-003   5.2352204174e-003  -9.0185056164e-001   4.2136896813e-001  -9.0185056164e-001   4.2136896813e-001   3.6281089379e-003   6.8367199285e-003
  7.5000000000e+009   5.6262908846e-003   5.0200899009e-003  -8.8051262878e-001   4.6440643752e-001  -8.8051262878e-001   4.6440643752e-001   4.0649246995e-003   6.4559524804e-003
  7.6000000000e+009   6.0268592044e-003   4.9465198738e-003  -8.5680460865e-001   5.0640404042e-001  -8.5680460865e-001   5.0640404042e-001   4.6656999885e-003   6.8250045046e-003
  7.7000000000e+009   6.3477388098e-003   4.7373953277e-003  -8.3148651267e-001   5.4727934356e-001  -8.3148651267e-001   5.4727934356e-001   4.5652901385e-003   6.8570647210e-003
  7.8000000000e+009   6.7957336523e-003   4.4812910788e-003  -8.0395882806e-001   5.8665234269e-001  -8.0395882806e-001   5.8665234269e-001   5.0425554344e-003   6.8661931685e-003
  7.9000000000e+009   7.0984214256e-003   4.2193319705e-003  -7.7478323728e-001   6.2484522222e-001  -7.7478323728e-001   6.2484522222e-001   5.5224135520e-003   6.0673235406e-003
  8.0000000000e+009   7.4068629234e-003   3.9308798653e-003  -7.4380043628e-001   6.6133523233e-001  -7.4380043628e-001   6.6133523233e-001   5.2944182018e-003   5.8982980343e-003
  8.1000000000e+009   7.7518374476e-003   3.5169334256e-003  -7.1076713442e-001   6.9650838096e-001  -7.1076713442e-001   6.9650838096e-001   5.7526212671e-003   6.2799809552e-003
  8.2000000000e+009   8.0484089814e-003   3.1470180105e-003  -6.7625176053e-001   7.3005864683e-001  -6.7625176053e-001   7.3005864683e-001   5.7288743087e-003   5.9766632728e-003
  8.3000000000e+009   8.1931963623e-003   2.5634538645e-003  -6.4019851817e-001   7.6185037125e-001  -6.4019851817e-001   7.6185037125e-001   5.6924255434e-003   5.8564515494e-003
  8.4000000000e+009   8.4401790251e-003   2.1391102845e-003  -6.0263338606e-001   7.9187318112e-001  -6.0263338606e-001   7.9187318112e-001   6.2578082477e-003   5.5462613348e-003
  8.5000000000e+009   8.6372554384e-003   1.4328933679e-003  -5.6375625210e-001   8.1998229826e-001  -5.6375625210e-001   8.1998229826e-001   6.4844144718e-003   4.8861692950e-003
  8.6000000000e+009   8.7641975045e-003   9.6842685799e-004  -5.2350346456e-001   8.4621701414e-001  -5.2350346456e-001   8.4621701414e-001   6.5274599321e-003   4.7986914690e-003
  8.7000000000e+009   8.9660253185e-003   4.5978826854e-004  -4.8200987162e-001   8.7047387067e-001  -4.8200987162e-001   8.7047387067e-001   6.6719623687e-003   4.5339819095e-003
  8.8000000000e+009   9.0465342818e-003  -1.6467183375e-004  -4.3928540593e-001   8.9270631935e-001  -4.3928540593e-001   8.9270631935e-001   6.8118944744e-003   4.1279683877e-003
  8.9000000000e+009   9.1153261729e-003  -7.0063267899e-004  -3.9561251048e-001   9.1305553649e-001  -3.9561251048e-001   9.1305553649e-001   6.9121759116e-003   3.7146707831e-003
  9.0000000000e+009   9.1340511695e-003  -1.0854251103e-003  -3.5105072364e-001   9.3082337156e-001  -3.5105072364e-001   9.3082337156e-001   7.2304731817e-003   3.3773567719e-003
  9.1000000000e+009   9.0539078915e-003  -1.6288932139e-003  -3.0568551722e-001   9.4680625094e-001  -3.0568551722e-001   9.4680625094e-001   7.3401387165e-003   2.9401626526e-003
  9.2000000000e+009   8.9639222956e-003  -2.1094573039e-003  -2.5950092823e-001   9.6026323504e-001  -2.5950092823e-001   9.6026323504e-001   7.3998184980e-003   2.7235799513e-003
  9.3000000000e+009   8.9247093184e-003  -2.5361911348e-003  -2.1290286936e-001   9.7170927341e-001  -2.1290286936e-001   9.7170927341e-001   7.7241738710e-003   1.9971895643e-003
  9.4000000000e+009   8.7716986010e-003  -2.9739726118e-003  -1.6577141354e-001   9.8087896607e-001  -1.6577141354e-001   9.8087896607e-001   7.6507930657e-003   2.0740996117e-003
  9.5000000000e+009   8.5378762344e-003  -3.2905913485e-003  -1.1805071632e-001   9.8758939039e-001  -1.1805071632e-001   9.8758939039e-001   7.8429453817e-003   1.6882982951e-003
  9.6000000000e+009   8.4045100972e-003  -3.7521731235e-003  -7.0360278788e-002   9.9213601337e-001  -7.0360278788e-002   9.9213601337e-001   7.7964549723e-003   1.1464996420e-003
  9.7000000000e+009   8.2264020381e-003  -4.1607675918e-003  -2.2346743546e-002   9.9445743988e-001  -2.2346743546e-002   9.9445743988e-001   8.0718439345e-003   5.8614435782e-004
  9.8000000000e+009   8.0135749758e-003  -4.7014040121e-003   2.5776566335e-002   9.9423105685e-001   2.5776566335e-002   9.9423105685e-001   8.1469253329e-003   7.4720386161e-004
  9.9000000000e+009   7.8274049968e-003  -5.0914108311e-003   7.3791582881e-002   9.9182144746e-001   7.3791582881e-002   9.9182144746e-001   8.0381900273e-003   3.0420101270e-004
  1.0000000000e+010   7.4503033317e-003  -5.6050492076e-003   1.2167927231e-001   9.8695318321e-001   1.2167927231e-001   9.8695318321e-001   8.6114923804e-003   4.9436506319e-005
  1.0100000000e+010   7.1763576621e-003  -6.0003388480e-003   1.6914533693e-001   9.7977183562e-001   1.6914533693e-001   9.7977183562e-001   8.5229104788e-003   5.8230056367e-005
  1.0200000000e+010   6.8203850642e-003  -6.5308374729e-003   2.1606745153e-001   9.7056368680e-001   2.1606745153e-001   9.7056368680e-001   8.4298975876e-003  -4.6125795773e-004
  1.0300000000e+010   6.4271936934e-003  -6.9729405422e-003   2.6296046957e-001   9.5909868843e-001   2.6296046957e-001   9.5909868843e-001   7.7852264337e-003  -8.4068002310e-004
  1.0400000000e+010   5.9583467518e-003  -7.4122485646e-003   3.0891538162e-001   9.4495542047e-001   3.0891538162e-001   9.4495542047e-001   8.2045074793e-003  -8.5224362754e-004
  1.0500000000e+010   5.5466445030e-003  -7.6990297167e-003   3.5402016131e-001   9.2902235578e-001   3.5402016131e-001   9.2902235578e-001   8.0454854371e-003  -1.1461107505e-003
  1.0600000000e+010   4.9389261762e-003  -7.8615907397e-003   3.9841086407e-001   9.1096572153e-001   3.9841086407e-001   9.1096572153e-001   8.0698483402e-003  -1.4222356616e-003
  1.0700000000e+010   4.4423877229e-003  -8.0703748512e-003   4.4223414546e-001   8.9079626527e-001   4.4223414546e-001   8.9079626527e-001   7.5315782173e-003  -1.7501668570e-003
  1.0800000000e+010   3.7999725104e-003  -8.1999241319e-003   4.8483069417e-001   8.6808538169e-001   4.8483069417e-001   8.6808538169e-001   7.2378605845e-003  -1.7232493159e-003
